Time [s],Packet ID,MOSI,MISO
5.362244852000000,0,0x4400,0x0000
5.362260436000000,1,0x0286,0x0000
5.362291254000000,2,0xC200,0x0000
5.362306410000000,3,0x0000,0x0C5B
5.362324066000000,4,0x5300,0x5B5B
5.362338566000000,5,0x0000,0x5B5B
5.362353754000000,6,0x4C00,0x5B5B
5.362367690000000,7,0x0400,0x5B5B
5.362383410000000,8,0x4D00,0x5B5B
5.362397378000000,9,0x000E,0x5B5B
5.362412878000000,10,0x4D00,0x5B5B
5.362426816000000,11,0x001E,0x5B5B
6.340869146000000,12,0x4600,0x5B5B
6.340884302000000,13,0x0044,0x5B5B
6.340900302000000,14,0x4A00,0x5B5B
6.340917520000000,15,0x8888,0x5B5B
6.340931740000000,16,0x8888,0x5B5B
6.340948614000000,17,0x4700,0x5B5B
6.340962740000000,18,0xC47D,0x5B5B
6.340977958000000,19,0xC500,0x5B5B
6.340992990000000,20,0x0000,0x0023
6.341010020000000,21,0x4C00,0x2323
6.341024208000000,22,0x0300,0x2323
6.341042084000000,23,0x4600,0x2323
6.341056334000000,24,0x0044,0x2323
6.341071520000000,25,0x4A00,0x2323
6.341087646000000,26,0x4242,0x2323
6.341101896000000,27,0x4242,0x2323
6.341118364000000,28,0x4700,0x2323
6.341132676000000,29,0xC47E,0x2323
6.341147926000000,30,0xC500,0x2323
6.341162302000000,31,0x0000,0x0023
6.341179146000000,32,0x4C00,0x2323
6.341193240000000,33,0x0300,0x2323
6.341210676000000,34,0x4600,0x2323
6.341224740000000,35,0x0044,0x2323
6.341239864000000,36,0x4A00,0x2323
6.341256084000000,37,0x0000,0x2323
6.341270270000000,38,0x0000,0x2323
6.341286770000000,39,0x4700,0x2323
6.341300990000000,40,0xC47F,0x2323
6.341316208000000,41,0xC500,0x2323
6.341330458000000,42,0x0000,0x0023
6.341347052000000,43,0x4C00,0x2323
6.341361176000000,44,0x0300,0x2323
6.341378614000000,45,0x4600,0x2323
6.341392740000000,46,0x0004,0x2323
6.341407926000000,47,0x4A00,0x2323
6.341424082000000,48,0x7888,0x2323
6.341438334000000,49,0x4200,0x2323
6.341454708000000,50,0x4700,0x2323
6.341468832000000,51,0xC47C,0x2323
6.341483990000000,52,0xC500,0x2323
6.341498240000000,53,0x0000,0x0023
6.341515082000000,54,0x4C00,0x2323
6.341529176000000,55,0x0300,0x2323
6.341545208000000,56,0x4600,0x2323
6.341559146000000,57,0x0004,0x2323
6.341574458000000,58,0x4700,0x2323
6.341588396000000,59,0x8474,0x2323
6.341603426000000,60,0xC500,0x2323
6.341617520000000,61,0x0000,0x0023
6.341634176000000,62,0xC800,0x2323
6.341650052000000,63,0x0000,0x005A
6.341664708000000,64,0x0000,0x6202
6.341681708000000,65,0x4C00,0x0202
6.341696270000000,66,0x0300,0x0202
6.341715770000000,67,0x4600,0x0202
6.341730052000000,68,0x0004,0x0202
6.341745302000000,69,0x4A00,0x0202
6.341761552000000,70,0x3100,0x0202
6.341775708000000,71,0x0000,0x0202
6.341792020000000,72,0x4700,0x0202
6.341809832000000,73,0xC474,0x0202
6.341825082000000,74,0xC500,0x0202
6.341839426000000,75,0x0000,0x0023
6.341856332000000,76,0x4C00,0x2323
6.341870332000000,77,0x0300,0x2323
6.341888208000000,78,0x4600,0x2323
6.341902270000000,79,0x0044,0x2323
6.341917520000000,80,0x4A00,0x2323
6.341934052000000,81,0x8888,0x2323
6.341948270000000,82,0x8888,0x2323
6.341964708000000,83,0x4700,0x2323
6.341978708000000,84,0xC479,0x2323
6.341993864000000,85,0xC500,0x2323
6.342008270000000,86,0x0000,0x0023
6.342025082000000,87,0x4C00,0x2323
6.342039302000000,88,0x0300,0x2323
6.342056738000000,89,0x4600,0x2323
6.342070802000000,90,0x0044,0x2323
6.342086082000000,91,0x4A00,0x2323
6.342102114000000,92,0x4242,0x2323
6.342116302000000,93,0x4242,0x2323
6.342132896000000,94,0x4700,0x2323
6.342147114000000,95,0xC47A,0x2323
6.342162270000000,96,0xC500,0x2323
6.342176676000000,97,0x0000,0x0023
6.342193614000000,98,0x4C00,0x2323
6.342207676000000,99,0x0300,0x2323
6.342225208000000,100,0x4600,0x2323
6.342239270000000,101,0x0044,0x2323
6.342254646000000,102,0x4A00,0x2323
6.342270864000000,103,0x0000,0x2323
6.342285208000000,104,0x0000,0x2323
6.342301646000000,105,0x4700,0x2323
6.342315958000000,106,0xC47B,0x2323
6.342331114000000,107,0xC500,0x2323
6.342345426000000,108,0x0000,0x0023
6.342362082000000,109,0x4C00,0x2323
6.342376208000000,110,0x0300,0x2323
6.342393426000000,111,0x4600,0x2323
6.342407396000000,112,0x0004,0x2323
6.342422458000000,113,0x4A00,0x2323
6.342438802000000,114,0xF088,0x2323
6.342453052000000,115,0x4200,0x2323
6.342469676000000,116,0x4700,0x2323
6.342483894000000,117,0xC478,0x2323
6.342499114000000,118,0xC500,0x2323
6.342513176000000,119,0x0000,0x0023
6.342529864000000,120,0x4C00,0x2323
6.342544146000000,121,0x0300,0x2323
6.342563176000000,122,0x4600,0x2323
6.342577364000000,123,0x0004,0x2323
6.342592458000000,124,0x4A00,0x2323
6.342608770000000,125,0x0200,0x2323
6.342622958000000,126,0x0000,0x2323
6.342639490000000,127,0x4700,0x2323
6.342653552000000,128,0xC474,0x2323
6.342668582000000,129,0xC500,0x2323
6.342682708000000,130,0x0000,0x0023
6.342699552000000,131,0x4C00,0x2323
6.342713896000000,132,0x0300,0x2323
6.342731582000000,133,0x4600,0x2323
6.342745708000000,134,0x0044,0x2323
6.342760770000000,135,0x4A00,0x2323
6.342776738000000,136,0x8888,0x2323
6.342794644000000,137,0x8888,0x2323
6.342811146000000,138,0x4700,0x2323
6.342825302000000,139,0xC479,0x2323
6.342840520000000,140,0xC500,0x2323
6.342854896000000,141,0x0000,0x0023
6.342871458000000,142,0x4C00,0x2323
6.342885614000000,143,0x0300,0x2323
6.342903052000000,144,0x4600,0x2323
6.342917302000000,145,0x0044,0x2323
6.342932708000000,146,0x4A00,0x2323
6.342948958000000,147,0x4242,0x2323
6.342963270000000,148,0x4242,0x2323
6.342980114000000,149,0x4700,0x2323
6.342994302000000,150,0xC47A,0x2323
6.343009458000000,151,0xC500,0x2323
6.343023770000000,152,0x0000,0x0023
6.343040426000000,153,0x4C00,0x2323
6.343054614000000,154,0x0300,0x2323
6.343072146000000,155,0x4600,0x2323
6.343086238000000,156,0x0044,0x2323
6.343101488000000,157,0x4A00,0x2323
6.343117614000000,158,0x0000,0x2323
6.343131958000000,159,0x0000,0x2323
6.343148394000000,160,0x4700,0x2323
6.343162550000000,161,0xC47B,0x2323
6.343177582000000,162,0xC500,0x2323
6.343191770000000,163,0x0000,0x0023
6.343208614000000,164,0x4C00,0x2323
6.343222738000000,165,0x0300,0x2323
6.343239894000000,166,0x4600,0x2323
6.343253864000000,167,0x0004,0x2323
6.343268926000000,168,0x4A00,0x2323
6.343285082000000,169,0x0C88,0x2323
6.343299614000000,170,0x4200,0x2323
6.343315988000000,171,0x4700,0x2323
6.343330050000000,172,0xC478,0x2323
6.343345082000000,173,0xC500,0x2323
6.343359332000000,174,0x0000,0x0023
6.343375958000000,175,0x4C00,0x2323
6.343390332000000,176,0x0300,0x2323
6.343408926000000,177,0x4600,0x2323
6.343423114000000,178,0x0004,0x2323
6.343438176000000,179,0x4A00,0x2323
6.343454208000000,180,0x5012,0x2323
6.343468458000000,181,0x0000,0x2323
6.343485020000000,182,0x4700,0x2323
6.343499144000000,183,0xC474,0x2323
6.343514144000000,184,0xC500,0x2323
6.343528394000000,185,0x0000,0x0023
6.343545208000000,186,0x4C00,0x2323
6.343559426000000,187,0x0300,0x2323
6.343577052000000,188,0x4600,0x2323
6.343591050000000,189,0x0044,0x2323
6.343606238000000,190,0x4A00,0x2323
6.343622364000000,191,0x8888,0x2323
6.343636738000000,192,0x8888,0x2323
6.343653114000000,193,0x4700,0x2323
6.343667050000000,194,0xC479,0x2323
6.343682082000000,195,0xC500,0x2323
6.343696332000000,196,0x0000,0x0023
6.343712770000000,197,0x4C00,0x2323
6.343726864000000,198,0x0300,0x2323
6.343744364000000,199,0x4600,0x2323
6.343758426000000,200,0x0044,0x2323
6.343777582000000,201,0x4A00,0x2323
6.343793926000000,202,0x4242,0x2323
6.343808332000000,203,0x4242,0x2323
6.343824926000000,204,0x4700,0x2323
6.343839020000000,205,0xC47A,0x2323
6.343854176000000,206,0xC500,0x2323
6.343868364000000,207,0x0000,0x0023
6.343884988000000,208,0x4C00,0x2323
6.343899144000000,209,0x0300,0x2323
6.343916644000000,210,0x4600,0x2323
6.343930800000000,211,0x0044,0x2323
6.343946050000000,212,0x4A00,0x2323
6.343962458000000,213,0x0000,0x2323
6.343976958000000,214,0x0000,0x2323
6.343993520000000,215,0x4700,0x2323
6.344007644000000,216,0xC47B,0x2323
6.344022770000000,217,0xC500,0x2323
6.344037082000000,218,0x0000,0x0023
6.344053988000000,219,0x4C00,0x2323
6.344068082000000,220,0x0300,0x2323
6.344085238000000,221,0x4600,0x2323
6.344099176000000,222,0x0004,0x2323
6.344114238000000,223,0x4A00,0x2323
6.344130300000000,224,0x1088,0x2323
6.344144708000000,225,0x4200,0x2323
6.344161050000000,226,0x4700,0x2323
6.344175114000000,227,0xC478,0x2323
6.344190238000000,228,0xC500,0x2323
6.344204426000000,229,0x0000,0x0023
6.344221208000000,230,0x4C00,0x2323
6.344235614000000,231,0x0300,0x2323
6.344306394000000,232,0x4D00,0x2323
6.344321114000000,233,0x001F,0x2323
6.441465456000000,234,0xCC00,0x2323
6.441482424000000,235,0x0000,0x04D1
6.441501518000000,236,0x4D00,0xD1D1
6.441515986000000,237,0x001E,0xD1D1
6.441532174000000,238,0x4D00,0xD1D1
6.441546236000000,239,0x000E,0xD1D1
6.441576862000000,240,0x4600,0xD1D1
6.441591518000000,241,0x0001,0xD1D1
6.441607206000000,242,0x4700,0xD1D1
6.441621268000000,243,0x8401,0xD1D1
6.441636486000000,244,0xC500,0xD1D1
6.441651112000000,245,0x0000,0x0023
6.441668142000000,246,0xC800,0x2323
6.441729596000000,248,0x4C00,0x0101
6.441744252000000,249,0x0300,0x0101
6.441762970000000,250,0x4600,0x0101
6.441777282000000,251,0x0001,0x0101
6.441792596000000,252,0x4A00,0x0101
6.441849480000000,254,0x4700,0x0101
6.441863762000000,255,0xC401,0x0101
6.441879044000000,256,0xC500,0x0101
6.441893888000000,257,0x0000,0x0023
6.441910794000000,258,0x4C00,0x2323
6.441925168000000,259,0x0300,0x2323
6.441941262000000,260,0x4D00,0x2323
6.441955200000000,261,0x001E,0x2323
6.441973012000000,262,0x4600,0x2323
6.441987074000000,263,0x0004,0x2323
6.442002480000000,264,0x4700,0x2323
6.442016544000000,265,0x8424,0x2323
6.442031700000000,266,0xC500,0x2323
6.442046136000000,267,0x0000,0x0023
6.442063012000000,268,0xC800,0x2323
6.442079638000000,269,0x0000,0x0000
6.442094356000000,270,0x0000,0x000C
6.442111856000000,271,0x4C00,0x0C0C
6.442126480000000,272,0x0300,0x0C0C
6.442144106000000,273,0xCC00,0x0C0C
6.442158700000000,274,0x0000,0x0441
6.442175668000000,275,0x4C00,0x4141
6.442190044000000,276,0x0001,0x4141
6.442206138000000,277,0xC300,0x4141
6.442220418000000,278,0x0000,0x0080
6.442237106000000,279,0xD400,0x8080
6.442251544000000,280,0x0000,0x0102
6.442268136000000,281,0xD500,0x0202
6.442282636000000,282,0x0000,0x1D00
6.442332762000000,283,0x4100,0x0000
6.442347700000000,284,0x0040,0x0000
6.442363512000000,285,0x8FC0,0x0000
6.442433324000000,286,0x0000,0x0201
6.442433824000000,286,0x0000,0x001D
6.442434324000000,286,0x0000,0x0008
6.442434824000000,286,0x0000,0x1001
6.442435324000000,286,0x0000,0x0000
6.442435824000000,286,0x0000,0x0000
6.442436324000000,286,0x0000,0x0E38
6.442436824000000,286,0x0000,0x3008
6.442437324000000,286,0x0000,0x0001
6.442437824000000,286,0x0000,0x0000
6.442438324000000,286,0x0000,0x5D84
6.442438824000000,286,0x0000,0x40D7
6.442439324000000,286,0x0000,0x62B1
6.442439824000000,286,0x0000,0x0205
6.442440324000000,286,0x0000,0x0006
6.442440824000000,286,0x0000,0x0000
6.442441324000000,286,0x0000,0x0000
6.442441824000000,286,0x0000,0x0000
6.442442324000000,286,0x0000,0x0000
6.442442824000000,286,0x0000,0x0000
6.442443324000000,286,0x0000,0x0000
6.442443824000000,286,0x0000,0x0000
6.442444324000000,286,0x0000,0x0000
6.442444824000000,286,0x0000,0x0000
6.442445324000000,286,0x0000,0x0000
6.442445824000000,286,0x0000,0x0000
6.442446324000000,286,0x0000,0x0000
6.442446824000000,286,0x0000,0x0000
6.442447324000000,286,0x0000,0x0000
6.442447824000000,286,0x0000,0x0000
6.442448324000000,286,0x0000,0x0000
6.442448824000000,286,0x0000,0x0000
6.442585480000000,287,0xCC00,0x0000
6.442602386000000,288,0x0000,0x0441
6.442620262000000,289,0x4C00,0x4141
6.442634918000000,290,0x0001,0x4141
6.442650824000000,291,0xC300,0x4141
6.442665356000000,292,0x0000,0x0040
6.442682106000000,293,0xD400,0x4040
6.442696606000000,294,0x0000,0x0102
6.442713136000000,295,0xD500,0x0202
6.442727542000000,296,0x0000,0x1200
6.442777762000000,297,0x4100,0x0000
6.442792480000000,298,0x0020,0x0000
6.442808168000000,299,0x8FE0,0x0000
6.442852386000000,300,0x0000,0x0201
6.442852886000000,300,0x0000,0x0012
6.442853386000000,300,0x0000,0x0108
6.442853886000000,300,0x0000,0x101E
6.442854386000000,300,0x0000,0x0000
6.442854886000000,300,0x0000,0x0000
6.442855386000000,300,0x0000,0x0E38
6.442855886000000,300,0x0000,0x3008
6.442856386000000,300,0x0000,0x0602
6.442856886000000,300,0x0000,0x0000
6.442857386000000,300,0x0000,0x0000
6.442857886000000,300,0x0000,0x0000
6.442858386000000,300,0x0000,0x0000
6.442858886000000,300,0x0000,0x0000
6.442859386000000,300,0x0000,0x0000
6.442859886000000,300,0x0000,0x0000
6.442996574000000,301,0xCC00,0x0000
6.443013294000000,302,0x0000,0x0441
6.443031418000000,303,0x4C00,0x4141
6.443046044000000,304,0x0001,0x4141
6.443062230000000,305,0xC300,0x4141
6.443076950000000,306,0x0000,0x0020
6.443093636000000,307,0xD400,0x2020
6.443108324000000,308,0x0000,0x0102
6.443124886000000,309,0xD500,0x0202
6.443139450000000,310,0x0000,0x1200
6.443189542000000,311,0x4100,0x0000
6.443204230000000,312,0x0020,0x0000
6.443220292000000,313,0x8FE0,0x0000
6.443265042000000,314,0x0000,0x0201
6.443265542000000,314,0x0000,0x0012
6.443266042000000,314,0x0000,0x0208
6.443266542000000,314,0x0000,0x1006
6.443267042000000,314,0x0000,0x0000
6.443267542000000,314,0x0000,0x0000
6.443268042000000,314,0x0000,0x006A
6.443268542000000,314,0x0000,0x4000
6.443269042000000,314,0x0000,0x0602
6.443269542000000,314,0x0000,0x0000
6.443270042000000,314,0x0000,0x0000
6.443270542000000,314,0x0000,0x0000
6.443271042000000,314,0x0000,0x0000
6.443271542000000,314,0x0000,0x0000
6.443272042000000,314,0x0000,0x0000
6.443272542000000,314,0x0000,0x0000
6.443412074000000,315,0xCC00,0x0000
6.443429262000000,316,0x0000,0x0440
6.443447418000000,317,0xC300,0x4040
6.443462356000000,318,0x0000,0x0000
6.443480480000000,319,0x4D00,0x0000
6.443494730000000,320,0x001F,0x0000
6.443614106000000,321,0x4D00,0x0000
6.443629636000000,322,0x001E,0x0000
6.443645636000000,323,0x4100,0x0000
6.443659918000000,324,0x0020,0x0000
6.443675386000000,325,0x0FE0,0x0000
6.443727856000000,326,0x0101,0x0000
6.443728356000000,326,0x0012,0x0000
6.443728856000000,326,0x0000,0x0000
6.443729356000000,326,0xF08D,0x0000
6.443729856000000,326,0x1E50,0x0000
6.443730356000000,326,0xEEBD,0x0000
6.443730856000000,326,0x000C,0x0000
6.443731356000000,326,0x0000,0x0000
6.443731856000000,326,0x0004,0x0000
6.443732354000000,326,0x0000,0x0000
6.443732856000000,326,0x0201,0x0000
6.443733356000000,326,0x0002,0x0000
6.443733856000000,326,0xBDAB,0x0000
6.443734356000000,326,0x168C,0x0000
6.443734856000000,326,0xEDAD,0x0000
6.443735354000000,326,0x7F9F,0x0000
6.443824856000000,327,0x4D00,0x0000
6.443840042000000,328,0x001F,0x0000
6.443961606000000,329,0xCC00,0x0000
6.443979324000000,330,0x0000,0x0461
6.443998418000000,331,0x4D00,0x6161
6.444013106000000,332,0x001E,0x6161
6.444041606000000,333,0xCC00,0x6161
6.444057106000000,334,0x0000,0x0461
6.444074292000000,335,0x4C00,0x6161
6.444088606000000,336,0x0001,0x6161
6.444104386000000,337,0xC300,0x6161
6.444118668000000,338,0x0000,0x0020
6.444135606000000,339,0xD400,0x2020
6.444149856000000,340,0x0000,0x0002
6.444166418000000,341,0xD500,0x0202
6.444180636000000,342,0x0000,0x0C00
6.444231636000000,343,0x4100,0x0000
6.444246198000000,344,0x0020,0x0000
6.444261854000000,345,0x8FE0,0x0000
6.444306448000000,346,0x0000,0x0200
6.444306948000000,346,0x0000,0x000C
6.444307448000000,346,0x0000,0x030C
6.444307948000000,346,0x0000,0x0201
6.444308448000000,346,0x0000,0x0101
6.444308948000000,346,0x0000,0x0602
6.444309448000000,346,0x0000,0x0000
6.444309948000000,346,0x0000,0x0000
6.444310448000000,346,0x0000,0x0000
6.444310948000000,346,0x0000,0x0000
6.444311448000000,346,0x0000,0x0000
6.444311948000000,346,0x0000,0x0000
6.444312448000000,346,0x0000,0x0000
6.444312948000000,346,0x0000,0x0000
6.444313448000000,346,0x0000,0x0000
6.444313948000000,346,0x0000,0x0000
6.444447198000000,347,0xCC00,0x0000
6.444464104000000,348,0x0000,0x0460
6.444482542000000,349,0xC300,0x6060
6.444497854000000,350,0x0000,0x0000
6.444516198000000,351,0x4D00,0x0000
6.444530574000000,352,0x001F,0x0000
6.444609854000000,353,0x4D00,0x0000
6.444625042000000,354,0x001E,0x0000
6.444640854000000,355,0x4100,0x0000
6.444655074000000,356,0x0020,0x0000
6.444670604000000,357,0x0FE0,0x0000
6.444722324000000,358,0x0101,0x0000
6.444722824000000,358,0x001A,0x0000
6.444723324000000,358,0x0100,0x0000
6.444723824000000,358,0x0008,0x0000
6.444724324000000,358,0x1E50,0x0000
6.444724824000000,358,0xEEBD,0x0000
6.444725324000000,358,0x0000,0x0000
6.444725824000000,358,0x0000,0x0000
6.444726324000000,358,0x0000,0x0000
6.444726824000000,358,0x0000,0x0000
6.444727324000000,358,0x0000,0x0000
6.444727824000000,358,0x2F03,0x0000
6.444728324000000,358,0x0000,0x0000
6.444728824000000,358,0x0000,0x0000
6.444729324000000,358,0x0000,0x0000
6.444729824000000,358,0x0000,0x0000
6.444803104000000,359,0x4D00,0x0000
6.444817854000000,360,0x001F,0x0000
6.444864354000000,361,0xCC00,0x0000
6.444880480000000,362,0x0000,0x0461
6.444899262000000,363,0x4D00,0x6161
6.444913542000000,364,0x001E,0x6161
6.444959480000000,365,0xCC00,0x6161
6.444975260000000,366,0x0000,0x0461
6.444992512000000,367,0x4C00,0x6161
6.445007074000000,368,0x0001,0x6161
6.445022824000000,369,0xC300,0x6161
6.445037230000000,370,0x0000,0x0020
6.445053854000000,371,0xD400,0x2020
6.445068448000000,372,0x0000,0x0002
6.445084948000000,373,0xD500,0x0202
6.445099448000000,374,0x0000,0x0C00
6.445149104000000,375,0x4100,0x0000
6.445164136000000,376,0x0020,0x0000
6.445179760000000,377,0x8FE0,0x0000
6.445224198000000,378,0x0000,0x0200
6.445224698000000,378,0x0000,0x000C
6.445225198000000,378,0x0000,0x040C
6.445225698000000,378,0x0000,0x0201
6.445226198000000,378,0x0000,0x0101
6.445226698000000,378,0x0000,0x0602
6.445227198000000,378,0x0000,0x0000
6.445227698000000,378,0x0000,0x0000
6.445228198000000,378,0x0000,0x0000
6.445228698000000,378,0x0000,0x0000
6.445229198000000,378,0x0000,0x0000
6.445229698000000,378,0x0000,0x0000
6.445230198000000,378,0x0000,0x0000
6.445230698000000,378,0x0000,0x0000
6.445231198000000,378,0x0000,0x0000
6.445231698000000,378,0x0000,0x0000
6.445365668000000,379,0xCC00,0x0000
6.445382480000000,380,0x0000,0x0460
6.445401010000000,381,0xC300,0x6060
6.445416042000000,382,0x0000,0x0000
6.445434448000000,383,0x4D00,0x0000
6.445448948000000,384,0x001F,0x0000
6.445563042000000,385,0x4D00,0x0000
6.445578136000000,386,0x001E,0x0000
6.445594292000000,387,0x4100,0x0000
6.445608760000000,388,0x0020,0x0000
6.445624230000000,389,0x0FE0,0x0000
6.445677230000000,390,0x0101,0x0000
6.445677730000000,390,0x0008,0x0000
6.445678230000000,390,0x0200,0x0000
6.445678730000000,390,0xF05E,0x0000
6.445679230000000,390,0x1E50,0x0000
6.445679730000000,390,0xEEBD,0x0000
6.445680230000000,390,0x0101,0x0000
6.445680730000000,390,0xBDAB,0x0000
6.445681230000000,390,0x168C,0x0000
6.445681730000000,390,0xEDAD,0x0000
6.445682230000000,390,0x7F9F,0x0000
6.445682730000000,390,0x20E6,0x0000
6.445683230000000,390,0x351A,0x0000
6.445683730000000,390,0xA88B,0x0000
6.445684230000000,390,0x8DC0,0x0000
6.445684730000000,390,0x7881,0x0000
6.445774010000000,391,0x4D00,0x0000
6.445789074000000,392,0x001F,0x0000
6.445874198000000,393,0xCC00,0x0000
6.445891010000000,394,0x0000,0x0461
6.445909980000000,395,0x4D00,0x6161
6.445924760000000,396,0x001E,0x6161
6.445953636000000,397,0xCC00,0x6161
6.445969074000000,398,0x0000,0x0461
6.445986324000000,399,0x4C00,0x6161
6.446000792000000,400,0x0001,0x6161
6.446016698000000,401,0xC300,0x6161
6.446031104000000,402,0x0000,0x0020
6.446047792000000,403,0xD400,0x2020
6.446062354000000,404,0x0000,0x0002
6.446078916000000,405,0xD500,0x0202
6.446093386000000,406,0x0000,0x0C00
6.446144386000000,407,0x4100,0x0000
6.446159324000000,408,0x0020,0x0000
6.446174948000000,409,0x8FE0,0x0000
6.446219230000000,410,0x0000,0x0200
6.446219730000000,410,0x0000,0x000C
6.446220230000000,410,0x0000,0x050C
6.446220730000000,410,0x0000,0x0201
6.446221230000000,410,0x0000,0x0101
6.446221730000000,410,0x0000,0x0602
6.446222230000000,410,0x0000,0x0000
6.446222730000000,410,0x0000,0x0000
6.446223230000000,410,0x0000,0x0000
6.446223730000000,410,0x0000,0x0000
6.446224230000000,410,0x0000,0x0000
6.446224730000000,410,0x0000,0x0000
6.446225230000000,410,0x0000,0x0000
6.446225730000000,410,0x0000,0x0000
6.446226230000000,410,0x0000,0x0000
6.446226730000000,410,0x0000,0x0000
6.446360854000000,411,0xCC00,0x0000
6.446377416000000,412,0x0000,0x0460
6.446395698000000,413,0xC300,0x6060
6.446410886000000,414,0x0000,0x0000
6.446429010000000,415,0x4D00,0x0000
6.446443572000000,416,0x001F,0x0000
6.446547386000000,417,0x4D00,0x0000
6.446562448000000,418,0x001E,0x0000
6.446578166000000,419,0x4100,0x0000
6.446592324000000,420,0x0020,0x0000
6.446607760000000,421,0x0FE0,0x0000
6.446660698000000,422,0x0101,0x0000
6.446661198000000,422,0x000A,0x0000
6.446661698000000,422,0x0300,0x0000
6.446662198000000,422,0xF01B,0x0000
6.446662698000000,422,0x1E50,0x0000
6.446663198000000,422,0xEEBD,0x0000
6.446663698000000,422,0x0000,0x0000
6.446664198000000,422,0x0000,0x0000
6.446664698000000,422,0xBDAB,0x0000
6.446665198000000,422,0x168C,0x0000
6.446665698000000,422,0xEDAD,0x0000
6.446666198000000,422,0x7F9F,0x0000
6.446666698000000,422,0x20E6,0x0000
6.446667198000000,422,0x351A,0x0000
6.446667698000000,422,0xA88B,0x0000
6.446668198000000,422,0x8DC0,0x0000
6.446758324000000,423,0x4D00,0x0000
6.446773480000000,424,0x001F,0x0000
6.446888916000000,425,0x4600,0x0000
6.446904916000000,426,0x0004,0x0000
6.446921292000000,427,0x4700,0x0000
6.446935698000000,428,0x8420,0x0000
6.446951386000000,429,0xC500,0x0000
6.446966792000000,430,0x0000,0x0023
6.446984166000000,431,0xC800,0x2323
6.447000792000000,432,0x0000,0x0003
6.447015792000000,433,0x0000,0x0000
6.447033542000000,434,0x4C00,0x0000
6.447048136000000,435,0x0300,0x0000
6.447071010000000,436,0x4600,0x0000
6.447085698000000,437,0x0004,0x0000
6.447101480000000,438,0x4700,0x0000
6.447115666000000,439,0x8420,0x0000
6.447130854000000,440,0xC500,0x0000
6.447145166000000,441,0x0000,0x0023
6.447162010000000,442,0xC800,0x2323
6.447178010000000,443,0x0000,0x0003
6.447192542000000,444,0x0000,0x0000
6.447209916000000,445,0x4C00,0x0000
6.447224292000000,446,0x0300,0x0000
6.448516416000000,447,0xCC00,0x0000
6.448533384000000,448,0x0000,0x0461
6.448552416000000,449,0x4D00,0x6161
6.448566854000000,450,0x001E,0x6161
6.448596478000000,451,0xCC00,0x6161
6.448611728000000,452,0x0000,0x0461
6.448628854000000,453,0x4C00,0x6161
6.448643166000000,454,0x0001,0x6161
6.448659228000000,455,0xC300,0x6161
6.448673478000000,456,0x0000,0x0020
6.448690010000000,457,0xD400,0x2020
6.448704478000000,458,0x0000,0x0002
6.448721042000000,459,0xD500,0x0202
6.448735354000000,460,0x0000,0x0C00
6.448787854000000,461,0x4100,0x0000
6.448803260000000,462,0x0020,0x0000
6.448819572000000,463,0x8FE0,0x0000
6.448864198000000,464,0x0000,0x0200
6.448864698000000,464,0x0000,0x000C
6.448865198000000,464,0x0000,0x060C
6.448865698000000,464,0x0000,0x0201
6.448866196000000,464,0x0000,0x0101
6.448866698000000,464,0x0000,0x0602
6.448867198000000,464,0x0000,0x0000
6.448867696000000,464,0x0000,0x0000
6.448868198000000,464,0x0000,0x0000
6.448868698000000,464,0x0000,0x0000
6.448869196000000,464,0x0000,0x0000
6.448869698000000,464,0x0000,0x0000
6.448870198000000,464,0x0000,0x0000
6.448870698000000,464,0x0000,0x0000
6.448871198000000,464,0x0000,0x0000
6.448871696000000,464,0x0000,0x0000
6.449014760000000,465,0x4100,0x0000
6.449030198000000,466,0x0020,0x0000
6.449046322000000,467,0x0FE0,0x0000
6.449099384000000,468,0x0101,0x0000
6.449099884000000,468,0x000E,0x0000
6.449100384000000,468,0x0400,0x0000
6.449100884000000,468,0x0009,0x0000
6.449101384000000,468,0x1E50,0x0000
6.449101884000000,468,0xEEBD,0x0000
6.449102384000000,468,0xAE00,0x0000
6.449102884000000,468,0x4005,0x0000
6.449103384000000,468,0x0000,0x0000
6.449103884000000,468,0x0000,0x0000
6.449104384000000,468,0xBDAB,0x0000
6.449104884000000,468,0x168C,0x0000
6.449105384000000,468,0xEDAD,0x0000
6.449105884000000,468,0x7F9F,0x0000
6.449106384000000,468,0x20E6,0x0000
6.449106884000000,468,0x351A,0x0000
6.449218510000000,469,0xCC00,0x0000
6.449235290000000,470,0x0000,0x0461
6.449258040000000,471,0x4C00,0x6161
6.449272916000000,472,0x0001,0x6161
6.449289104000000,473,0xC300,0x6161
6.449303604000000,474,0x0000,0x0020
6.449320572000000,475,0xD400,0x2020
6.449335260000000,476,0x0000,0x0002
6.449351760000000,477,0xD500,0x0202
6.449366416000000,478,0x0000,0x0C00
6.449417510000000,479,0x4100,0x0000
6.449432384000000,480,0x0020,0x0000
6.449447948000000,481,0x8FE0,0x0000
6.449492384000000,482,0x0000,0x0200
6.449492884000000,482,0x0000,0x000C
6.449493384000000,482,0x0000,0x070C
6.449493884000000,482,0x0000,0x0201
6.449494384000000,482,0x0000,0x0101
6.449494884000000,482,0x0000,0x0602
6.449495384000000,482,0x0000,0x0000
6.449495884000000,482,0x0000,0x0000
6.449496384000000,482,0x0000,0x0000
6.449496884000000,482,0x0000,0x0000
6.449497384000000,482,0x0000,0x0000
6.449497884000000,482,0x0000,0x0000
6.449498384000000,482,0x0000,0x0000
6.449498884000000,482,0x0000,0x0000
6.449499384000000,482,0x0000,0x0000
6.449499884000000,482,0x0000,0x0000
6.449629322000000,483,0xCC00,0x0000
6.449646510000000,484,0x0000,0x0460
6.449664790000000,485,0xC300,0x6060
6.449679634000000,486,0x0000,0x0000
6.449697634000000,487,0x4D00,0x0000
6.449711916000000,488,0x001F,0x0000
6.472746846000000,489,0x4D00,0x0000
6.472762564000000,490,0x001E,0x0000
6.472778626000000,491,0x4100,0x0000
6.472793064000000,492,0x0080,0x0000
6.472808688000000,493,0x0F80,0x0000
6.472870782000000,494,0x0101,0x0000
6.472871282000000,494,0x0068,0x0000
6.472871782000000,494,0x0500,0x0000
6.472872282000000,494,0xF048,0x0000
6.472872782000000,494,0x1E50,0x0000
6.472873282000000,494,0xEEBD,0x0000
6.472873782000000,494,0x614A,0x0000
6.472874282000000,494,0x3878,0x0000
6.472874782000000,494,0x0000,0x0000
6.472875282000000,494,0x0000,0x0000
6.472875782000000,494,0x0000,0x0000
6.472876282000000,494,0x0000,0x0000
6.472876782000000,494,0x0000,0x0000
6.472877282000000,494,0x0000,0x0000
6.472877782000000,494,0x0000,0x0000
6.472878282000000,494,0x0000,0x0000
6.472878782000000,494,0x0000,0x0000
6.472879282000000,494,0x0000,0x0000
6.472879782000000,494,0x0000,0x0000
6.472880282000000,494,0x0000,0x0000
6.472880782000000,494,0x0000,0x0000
6.472881282000000,494,0x0000,0x0000
6.472881782000000,494,0x3131,0x0000
6.472882282000000,494,0x3232,0x0000
6.472882782000000,494,0x3333,0x0000
6.472883282000000,494,0x3434,0x0000
6.472883782000000,494,0x3535,0x0000
6.472884282000000,494,0x3636,0x0000
6.472884782000000,494,0x0000,0x0000
6.472885282000000,494,0x0000,0x0000
6.472885782000000,494,0x0000,0x0000
6.472886282000000,494,0x0000,0x0000
6.472886782000000,494,0x0000,0x0000
6.472887282000000,494,0x0000,0x0000
6.472887782000000,494,0x0000,0x0000
6.472888282000000,494,0x0000,0x0000
6.472888782000000,494,0x0000,0x0000
6.472889282000000,494,0x0000,0x0000
6.472889782000000,494,0x839C,0x0000
6.472890282000000,494,0x4005,0x0000
6.472890782000000,494,0x0000,0x0000
6.472891282000000,494,0x0000,0x0000
6.472891782000000,494,0x83A4,0x0000
6.472892282000000,494,0x4005,0x0000
6.472892782000000,494,0x0000,0x0000
6.472893282000000,494,0x0000,0x0000
6.472893782000000,494,0x0000,0x0000
6.472894282000000,494,0x0000,0x0000
6.472894782000000,494,0x6F44,0x0000
6.472895282000000,494,0x4004,0x0000
6.472895782000000,494,0x0000,0x0000
6.472896282000000,494,0x0000,0x0000
6.472896782000000,494,0x0000,0x0000
6.472897282000000,494,0x0000,0x0000
6.472897782000000,494,0x0C04,0x0000
6.472898282000000,494,0xBDAB,0x0000
6.472898782000000,494,0x168C,0x0000
6.472899282000000,494,0xEDAD,0x0000
6.472899782000000,494,0x7F9F,0x0000
6.472900282000000,494,0x20E6,0x0000
6.472900782000000,494,0x351A,0x0000
6.472901282000000,494,0xA88B,0x0000
6.472901782000000,494,0x8DC0,0x0000
6.472902282000000,494,0x7881,0x0000
6.472974940000000,495,0x4D00,0x0000
6.472990376000000,496,0x001F,0x0000
6.473112688000000,497,0x4600,0x0000
6.473128314000000,498,0x0004,0x0000
6.473144752000000,499,0x4700,0x0000
6.473158938000000,500,0x8420,0x0000
6.473174502000000,501,0xC500,0x0000
6.473189970000000,502,0x0000,0x0023
6.473207564000000,503,0xC800,0x2323
6.473224252000000,504,0x0000,0x0005
6.473239064000000,505,0x0000,0x0000
6.473256564000000,506,0x4C00,0x0000
6.473271314000000,507,0x0300,0x0000
6.473294126000000,508,0x4600,0x0000
6.473308814000000,509,0x0004,0x0000
6.473324408000000,510,0x4700,0x0000
6.473338532000000,511,0x8420,0x0000
6.473353720000000,512,0xC500,0x0000
6.473368282000000,513,0x0000,0x0023
6.473385282000000,514,0xC800,0x2323
6.473401532000000,515,0x0000,0x0005
6.473416220000000,516,0x0000,0x0000
6.473433408000000,517,0x4C00,0x0000
6.473447814000000,518,0x0300,0x0000
6.473568002000000,519,0x4600,0x0000
6.473583814000000,520,0x0004,0x0000
6.473599814000000,521,0x4700,0x0000
6.473613938000000,522,0x8420,0x0000
6.473629376000000,523,0xC500,0x0000
6.473644688000000,524,0x0000,0x0023
6.473688720000000,525,0xC800,0x2323
6.473706782000000,526,0x0000,0x0005
6.473722282000000,527,0x0000,0x0000
6.473740844000000,528,0x4C00,0x0000
6.473755594000000,529,0x0300,0x0000
6.473778158000000,530,0x4600,0x0000
6.473793032000000,531,0x0004,0x0000
6.473808814000000,532,0x4700,0x0000
6.473823188000000,533,0x8420,0x0000
6.473838658000000,534,0xC500,0x0000
6.473853250000000,535,0x0000,0x0023
6.473870626000000,536,0xC800,0x2323
6.473887002000000,537,0x0000,0x0005
6.473901594000000,538,0x0000,0x0000
6.473918844000000,539,0x4C00,0x0000
6.473933908000000,540,0x0300,0x0000
7.568396554000000,541,0xCC00,0x0000
7.568413836000000,542,0x0000,0x0461
7.568433086000000,543,0x4D00,0x6161
7.568447366000000,544,0x001E,0x6161
7.568477398000000,545,0xCC00,0x6161
7.568492680000000,546,0x0000,0x0461
7.568513680000000,547,0x4C00,0x6161
7.568527804000000,548,0x0001,0x6161
7.568543648000000,549,0xC300,0x6161
7.568558054000000,550,0x0000,0x0020
7.568574616000000,551,0xD400,0x2020
7.568589054000000,552,0x0000,0x0002
7.568605554000000,553,0xD500,0x0202
7.568620086000000,554,0x0000,0x0C00
7.568670930000000,555,0x4100,0x0000
7.568685680000000,556,0x0020,0x0000
7.568701366000000,557,0x8FE0,0x0000
7.568746554000000,558,0x0000,0x0200
7.568747054000000,558,0x0000,0x000C
7.568747554000000,558,0x0000,0x080C
7.568748054000000,558,0x0000,0x0201
7.568748554000000,558,0x0000,0x0101
7.568749054000000,558,0x0000,0x0602
7.568749554000000,558,0x0000,0x0000
7.568750054000000,558,0x0000,0x0000
7.568750554000000,558,0x0000,0x0000
7.568751054000000,558,0x0000,0x0000
7.568751554000000,558,0x0000,0x0000
7.568752054000000,558,0x0000,0x0000
7.568752554000000,558,0x0000,0x0000
7.568753054000000,558,0x0000,0x0000
7.568753554000000,558,0x0000,0x0000
7.568754054000000,558,0x0000,0x0000
7.568895272000000,559,0x4100,0x0000
7.568910836000000,560,0x0020,0x0000
7.568926804000000,561,0x0FE0,0x0000
7.568979992000000,562,0x0101,0x0000
7.568980492000000,562,0x0007,0x0000
7.568980992000000,562,0x0600,0x0000
7.568981492000000,562,0x0012,0x0000
7.568981992000000,562,0x1E50,0x0000
7.568982492000000,562,0xEEBD,0x0000
7.568982992000000,562,0xAB02,0x0000
7.568983492000000,562,0x8CBD,0x0000
7.568983992000000,562,0xAD16,0x0000
7.568984492000000,562,0x9FED,0x0000
7.568984992000000,562,0xE67F,0x0000
7.568985492000000,562,0x1A20,0x0000
7.568985992000000,562,0x8B35,0x0000
7.568986492000000,562,0xC0A8,0x0000
7.568986992000000,562,0x818D,0x0000
7.568987492000000,562,0x1D78,0x0000
7.569098960000000,563,0xCC00,0x0000
7.569115680000000,564,0x0000,0x0461
7.569133522000000,565,0x4C00,0x6161
7.569148054000000,566,0x0001,0x6161
7.569164366000000,567,0xC300,0x6161
7.569178928000000,568,0x0000,0x0020
7.569195586000000,569,0xD400,0x2020
7.569209960000000,570,0x0000,0x0002
7.569226366000000,571,0xD500,0x0202
7.569240742000000,572,0x0000,0x0C00
7.569292866000000,573,0x4100,0x0000
7.569307804000000,574,0x0020,0x0000
7.569323522000000,575,0x8FE0,0x0000
7.569367898000000,576,0x0000,0x0200
7.569368398000000,576,0x0000,0x000C
7.569368898000000,576,0x0000,0x090C
7.569369398000000,576,0x0000,0x0201
7.569369898000000,576,0x0000,0x0101
7.569370398000000,576,0x0000,0x0602
7.569370898000000,576,0x0000,0x0000
7.569371398000000,576,0x0000,0x0000
7.569371898000000,576,0x0000,0x0000
7.569372398000000,576,0x0000,0x0000
7.569372898000000,576,0x0000,0x0000
7.569373398000000,576,0x0000,0x0000
7.569373898000000,576,0x0000,0x0000
7.569374398000000,576,0x0000,0x0000
7.569374898000000,576,0x0000,0x0000
7.569375398000000,576,0x0000,0x0000
7.569521148000000,577,0x4100,0x0000
7.569536742000000,578,0x0080,0x0000
7.569552960000000,579,0x0F80,0x0000
7.569614898000000,580,0x0101,0x0000
7.569615398000000,580,0x006E,0x0000
7.569615898000000,580,0x0700,0x0000
7.569616398000000,580,0xF08D,0x0000
7.569616898000000,580,0xFB80,0x0000
7.569617398000000,580,0x194E,0x0000
7.569617898000000,580,0x000A,0x0000
7.569618398000000,580,0x0000,0x0000
7.569618898000000,580,0x0060,0x0000
7.569619398000000,580,0x0000,0x0000
7.569619898000000,580,0x0001,0x0000
7.569620398000000,580,0x0000,0x0000
7.569620898000000,580,0x0101,0x0000
7.569621398000000,580,0xC0A8,0x0000
7.569621898000000,580,0xFF00,0x0000
7.569622398000000,580,0xFFFF,0x0000
7.569622898000000,580,0x0000,0x0000
7.569623398000000,580,0x0000,0x0000
7.569623898000000,580,0x0000,0x0000
7.569624398000000,580,0x0000,0x0000
7.569624898000000,580,0x0000,0x0000
7.569625398000000,580,0x0000,0x0000
7.569625898000000,580,0x0000,0x0000
7.569626398000000,580,0x0000,0x0000
7.569626898000000,580,0x839C,0x0000
7.569627398000000,580,0x4005,0x0000
7.569627898000000,580,0x0000,0x0000
7.569628398000000,580,0x0000,0x0000
7.569628898000000,580,0x0001,0x0000
7.569629398000000,580,0x0000,0x0000
7.569629898000000,580,0x0000,0x0000
7.569630398000000,580,0x0000,0x0000
7.569630898000000,580,0x0000,0x0000
7.569631398000000,580,0x0000,0x0000
7.569631898000000,580,0x0000,0x0000
7.569632398000000,580,0x0000,0x0000
7.569632898000000,580,0x647C,0x0000
7.569633398000000,580,0x4005,0x0000
7.569633898000000,580,0x0000,0x0000
7.569634398000000,580,0x0000,0x0000
7.569634898000000,580,0x3C94,0x0000
7.569635398000000,580,0x4000,0x0000
7.569635898000000,580,0x0000,0x0000
7.569636398000000,580,0x0000,0x0000
7.569636898000000,580,0x647C,0x0000
7.569637398000000,580,0x4005,0x0000
7.569637898000000,580,0x83E8,0x0000
7.569638398000000,580,0x4005,0x0000
7.569638898000000,580,0x95A0,0x0000
7.569639398000000,580,0x4005,0x0000
7.569639898000000,580,0x83E0,0x0000
7.569640398000000,580,0x4005,0x0000
7.569640898000000,580,0x0001,0x0000
7.569641398000000,580,0x0000,0x0000
7.569641898000000,580,0x83E8,0x0000
7.569642398000000,580,0x4005,0x0000
7.569642898000000,580,0x0000,0x0000
7.569643398000000,580,0x0000,0x0000
7.569643898000000,580,0xBDAB,0x0000
7.569644398000000,580,0x168C,0x0000
7.569644898000000,580,0xEDAD,0x0000
7.569645398000000,580,0x7F9F,0x0000
7.569645898000000,580,0x20E6,0x0000
7.569646398000000,580,0x351A,0x0000
7.569739304000000,581,0xCC00,0x0000
7.569756178000000,582,0x0000,0x0461
7.569774178000000,583,0x4C00,0x6161
7.569788616000000,584,0x0001,0x6161
7.569804210000000,585,0xC300,0x6161
7.569818554000000,586,0x0000,0x01E0
7.569835428000000,587,0xD400,0xE0E0
7.569849834000000,588,0x0000,0x0102
7.569866398000000,589,0xD500,0x0202
7.569880742000000,590,0x0000,0xAB01
7.569934554000000,591,0x4100,0x0101
7.569949678000000,592,0x01C0,0x0101
7.569965398000000,593,0x8E40,0x0101
7.570009772000000,594,0x0000,0x0201
7.570010272000000,594,0x0000,0x01AB
7.570010772000000,594,0x0000,0x0A08
7.570011272000000,594,0x0000,0x9016
7.570011772000000,594,0x0000,0x0000
7.570012272000000,594,0x0000,0x0000
7.570012772000000,594,0x0000,0x000A
7.570013272000000,594,0x0000,0x0000
7.570013772000000,594,0x0000,0x0001
7.570014272000000,594,0x0000,0x0000
7.570014772000000,594,0x0000,0x0000
7.570015272000000,594,0x0000,0x0000
7.570015772000000,594,0x0000,0x0000
7.570016272000000,594,0x0000,0x0000
7.570016772000000,594,0x0000,0x0000
7.570017272000000,594,0x0000,0x0000
7.570017772000000,594,0x0000,0x0000
7.570018272000000,594,0x0000,0x0000
7.570018772000000,594,0x0000,0x0000
7.570019272000000,594,0x0000,0x0000
7.570019772000000,594,0x0000,0x0000
7.570020272000000,594,0x0000,0x0000
7.570020772000000,594,0x0000,0x0000
7.570021272000000,594,0x0000,0x0000
7.570021772000000,594,0x0000,0x0000
7.570022272000000,594,0x0000,0x0000
7.570022772000000,594,0x0000,0x0000
7.570023272000000,594,0x0000,0x0000
7.570023772000000,594,0x0000,0x0000
7.570024272000000,594,0x0000,0x0000
7.570024772000000,594,0x0000,0x0000
7.570025272000000,594,0x0000,0x0000
7.570025772000000,594,0x0000,0x0000
7.570026272000000,594,0x0000,0x0000
7.570026772000000,594,0x0000,0x0000
7.570027272000000,594,0x0000,0x0000
7.570027772000000,594,0x0000,0x0000
7.570028272000000,594,0x0000,0x0000
7.570028772000000,594,0x0000,0x0000
7.570029272000000,594,0x0000,0x0000
7.570029772000000,594,0x0000,0x0000
7.570030272000000,594,0x0000,0x0000
7.570030772000000,594,0x0000,0x0000
7.570031272000000,594,0x0000,0x0000
7.570031772000000,594,0x0000,0x0000
7.570032272000000,594,0x0000,0x0000
7.570032772000000,594,0x0000,0x0000
7.570033272000000,594,0x0000,0x0000
7.570033772000000,594,0x0000,0x0000
7.570034272000000,594,0x0000,0x0000
7.570034772000000,594,0x0000,0x0000
7.570035272000000,594,0x0000,0x0000
7.570035772000000,594,0x0000,0x0000
7.570036272000000,594,0x0000,0x0000
7.570036772000000,594,0x0000,0x0000
7.570037272000000,594,0x0000,0x0000
7.570037772000000,594,0x0000,0x0000
7.570038272000000,594,0x0000,0x0000
7.570038772000000,594,0x0000,0x0000
7.570039272000000,594,0x0000,0x0000
7.570039772000000,594,0x0000,0x0000
7.570040272000000,594,0x0000,0x0000
7.570040772000000,594,0x0000,0x0000
7.570041272000000,594,0x0000,0x0000
7.570041772000000,594,0x0000,0x0000
7.570042272000000,594,0x0000,0x0000
7.570042772000000,594,0x0000,0x0000
7.570043272000000,594,0x0000,0x0000
7.570043772000000,594,0x0000,0x0000
7.570044272000000,594,0x0000,0x0000
7.570044772000000,594,0x0000,0x0000
7.570045272000000,594,0x0000,0x0000
7.570045772000000,594,0x0000,0x0000
7.570046272000000,594,0x0000,0x0000
7.570046772000000,594,0x0000,0x0000
7.570047272000000,594,0x0000,0x0000
7.570047772000000,594,0x0000,0x0000
7.570048272000000,594,0x0000,0x0000
7.570048772000000,594,0x0000,0x0000
7.570049272000000,594,0x0000,0x0000
7.570049772000000,594,0x0000,0x0000
7.570050272000000,594,0x0000,0x0000
7.570050772000000,594,0x0000,0x0000
7.570051272000000,594,0x0000,0x0000
7.570051772000000,594,0x0000,0x0000
7.570052272000000,594,0x0000,0x0000
7.570052772000000,594,0x0000,0x0000
7.570053272000000,594,0x0000,0x0000
7.570053772000000,594,0x0000,0x0000
7.570054272000000,594,0x0000,0x0000
7.570054772000000,594,0x0000,0x0000
7.570055272000000,594,0x0000,0x0000
7.570055772000000,594,0x0000,0x0000
7.570056272000000,594,0x0000,0x0000
7.570056772000000,594,0x0000,0x0000
7.570057272000000,594,0x0000,0x0000
7.570057772000000,594,0x0000,0x0000
7.570058272000000,594,0x0000,0x0000
7.570058772000000,594,0x0000,0x0000
7.570059272000000,594,0x0000,0x0000
7.570059772000000,594,0x0000,0x0000
7.570060272000000,594,0x0000,0x0000
7.570060772000000,594,0x0000,0x0000
7.570061272000000,594,0x0000,0x0000
7.570061772000000,594,0x0000,0x0000
7.570062272000000,594,0x0000,0x0000
7.570062772000000,594,0x0000,0x0000
7.570063272000000,594,0x0000,0x0000
7.570063772000000,594,0x0000,0x0000
7.570064272000000,594,0x0000,0x0000
7.570064772000000,594,0x0000,0x0000
7.570065272000000,594,0x0000,0x0000
7.570065772000000,594,0x0000,0x0000
7.570066272000000,594,0x0000,0x0000
7.570066772000000,594,0x0000,0x0000
7.570067272000000,594,0x0000,0x0000
7.570067772000000,594,0x0000,0x0000
7.570068272000000,594,0x0000,0x0000
7.570068772000000,594,0x0000,0x0000
7.570069272000000,594,0x0000,0x0000
7.570069772000000,594,0x0000,0x0000
7.570070272000000,594,0x0000,0x0000
7.570070772000000,594,0x0000,0x0000
7.570071272000000,594,0x0000,0x0000
7.570071772000000,594,0x0000,0x0000
7.570072272000000,594,0x0000,0x0000
7.570072772000000,594,0x0000,0x0000
7.570073272000000,594,0x0000,0x0000
7.570073772000000,594,0x0000,0x0000
7.570074272000000,594,0x0000,0x0000
7.570074772000000,594,0x0000,0x0000
7.570075272000000,594,0x0000,0x0000
7.570075772000000,594,0x0000,0x0000
7.570076272000000,594,0x0000,0x0000
7.570076772000000,594,0x0000,0x0000
7.570077272000000,594,0x0000,0x0000
7.570077772000000,594,0x0000,0x0000
7.570078272000000,594,0x0000,0x0000
7.570078772000000,594,0x0000,0x0000
7.570079272000000,594,0x0000,0x0000
7.570079772000000,594,0x0000,0x0000
7.570080272000000,594,0x0000,0x0000
7.570080772000000,594,0x0000,0x0000
7.570081272000000,594,0x0000,0x0000
7.570081772000000,594,0x0000,0x0000
7.570082272000000,594,0x0000,0x0000
7.570082772000000,594,0x0000,0x0000
7.570083272000000,594,0x0000,0x0000
7.570083772000000,594,0x0000,0x0000
7.570084272000000,594,0x0000,0x0000
7.570084772000000,594,0x0000,0x0000
7.570085272000000,594,0x0000,0x0000
7.570085772000000,594,0x0000,0x0000
7.570086272000000,594,0x0000,0x0000
7.570086772000000,594,0x0000,0x0000
7.570087272000000,594,0x0000,0x0000
7.570087772000000,594,0x0000,0x0000
7.570088272000000,594,0x0000,0x0000
7.570088772000000,594,0x0000,0x0000
7.570089272000000,594,0x0000,0x0000
7.570089772000000,594,0x0000,0x0000
7.570090272000000,594,0x0000,0x0000
7.570090772000000,594,0x0000,0x0000
7.570091272000000,594,0x0000,0x0000
7.570091772000000,594,0x0000,0x0000
7.570092272000000,594,0x0000,0x0000
7.570092772000000,594,0x0000,0x0000
7.570093272000000,594,0x0000,0x0000
7.570093772000000,594,0x0000,0x0000
7.570094272000000,594,0x0000,0x0000
7.570094772000000,594,0x0000,0x0000
7.570095272000000,594,0x0000,0x0000
7.570095772000000,594,0x0000,0x0000
7.570096272000000,594,0x0000,0x0000
7.570096772000000,594,0x0000,0x0000
7.570097272000000,594,0x0000,0x0000
7.570097772000000,594,0x0000,0x0000
7.570098272000000,594,0x0000,0x0000
7.570098772000000,594,0x0000,0x0000
7.570099272000000,594,0x0000,0x0000
7.570099772000000,594,0x0000,0x0000
7.570100272000000,594,0x0000,0x0000
7.570100772000000,594,0x0000,0x0000
7.570101272000000,594,0x0000,0x0000
7.570101772000000,594,0x0000,0x0000
7.570102272000000,594,0x0000,0x0000
7.570102772000000,594,0x0000,0x0000
7.570103272000000,594,0x0000,0x0000
7.570103772000000,594,0x0000,0x0000
7.570104272000000,594,0x0000,0x0000
7.570104772000000,594,0x0000,0x0000
7.570105272000000,594,0x0000,0x0000
7.570105772000000,594,0x0000,0x0000
7.570106272000000,594,0x0000,0x0000
7.570106772000000,594,0x0000,0x0000
7.570107272000000,594,0x0000,0x0000
7.570107772000000,594,0x0000,0x0000
7.570108272000000,594,0x0000,0x0000
7.570108772000000,594,0x0000,0x0000
7.570109272000000,594,0x0000,0x0000
7.570109772000000,594,0x0000,0x0000
7.570110272000000,594,0x0000,0x0000
7.570110772000000,594,0x0000,0x0000
7.570111272000000,594,0x0000,0x0000
7.570111772000000,594,0x0000,0x0000
7.570112272000000,594,0x0000,0x0000
7.570112772000000,594,0x0000,0x0000
7.570113272000000,594,0x0000,0x0000
7.570113772000000,594,0x0000,0x0000
7.570114272000000,594,0x0000,0x0000
7.570114772000000,594,0x0000,0x0000
7.570115272000000,594,0x0000,0x0000
7.570115772000000,594,0x0000,0x0200
7.570116272000000,594,0x0000,0xAA06
7.570116772000000,594,0x0000,0x0200
7.570117272000000,594,0x0000,0x000C
7.570117772000000,594,0x0000,0x0155
7.570118272000000,594,0x0000,0x0201
7.570118772000000,594,0x0000,0x0006
7.570119272000000,594,0x0000,0x0000
7.570119772000000,594,0x0000,0x0000
7.570120272000000,594,0x0000,0x0000
7.570120772000000,594,0x0000,0x0000
7.570121272000000,594,0x0000,0x0000
7.570263772000000,595,0xCC00,0x0000
7.570280616000000,596,0x0000,0x0461
7.570299334000000,597,0x4C00,0x6161
7.570313834000000,598,0x0001,0x6161
7.570329740000000,599,0xC300,0x6161
7.570344148000000,600,0x0000,0x0020
7.570360866000000,601,0xD400,0x2020
7.570375240000000,602,0x0000,0x0002
7.570391554000000,603,0xD500,0x0202
7.570405990000000,604,0x0000,0x0C00
7.570461960000000,605,0x4100,0x0000
7.570476866000000,606,0x0020,0x0000
7.570492460000000,607,0x8FE0,0x0000
7.570536710000000,608,0x0000,0x0200
7.570537210000000,608,0x0000,0x000C
7.570537710000000,608,0x0000,0x0B0C
7.570538210000000,608,0x0000,0x0201
7.570538710000000,608,0x0000,0x0101
7.570539210000000,608,0x0000,0x0602
7.570539710000000,608,0x0000,0x0000
7.570540210000000,608,0x0000,0x0000
7.570540710000000,608,0x0000,0x0000
7.570541210000000,608,0x0000,0x0000
7.570541710000000,608,0x0000,0x0000
7.570542210000000,608,0x0000,0x0000
7.570542710000000,608,0x0000,0x0000
7.570543210000000,608,0x0000,0x0000
7.570543710000000,608,0x0000,0x0000
7.570544210000000,608,0x0000,0x0000
7.570673960000000,609,0xCC00,0x0000
7.570690772000000,610,0x0000,0x0460
7.570709210000000,611,0xC300,0x6060
7.570723896000000,612,0x0000,0x0000
7.570742116000000,613,0x4D00,0x0000
7.570756460000000,614,0x001F,0x0000
7.570883804000000,615,0x4D00,0x0000
7.570899146000000,616,0x001E,0x0000
7.570914740000000,617,0x4100,0x0000
7.570928866000000,618,0x0020,0x0000
7.570944398000000,619,0x0FE0,0x0000
7.570996210000000,620,0x0101,0x0000
7.570996710000000,620,0x001A,0x0000
7.570997210000000,620,0x0800,0x0000
7.570997710000000,620,0xF08D,0x0000
7.570998210000000,620,0x1E50,0x0000
7.570998710000000,620,0xEEBD,0x0000
7.570999210000000,620,0x0010,0x0000
7.570999710000000,620,0x0000,0x0000
7.571000210000000,620,0x000C,0x0000
7.571000710000000,620,0x0000,0x0000
7.571001210000000,620,0x0102,0x0000
7.571001710000000,620,0xC0A8,0x0000
7.571002210000000,620,0x01FF,0x0000
7.571002710000000,620,0xC0A8,0x0000
7.571003210000000,620,0xFFFF,0x0000
7.571003710000000,620,0x0000,0x0000
7.571093866000000,621,0x4D00,0x0000
7.571108772000000,622,0x001F,0x0000
7.571156428000000,623,0xCC00,0x0000
7.571172928000000,624,0x0000,0x0461
7.571191804000000,625,0x4D00,0x6161
7.571206052000000,626,0x001E,0x6161
7.571252210000000,627,0xCC00,0x6161
7.571268084000000,628,0x0000,0x0461
7.571285866000000,629,0x4C00,0x6161
7.571300490000000,630,0x0001,0x6161
7.571316616000000,631,0xC300,0x6161
7.571331022000000,632,0x0000,0x0020
7.571347896000000,633,0xD400,0x2020
7.571362240000000,634,0x0000,0x0002
7.571378772000000,635,0xD500,0x0202
7.571393178000000,636,0x0000,0x0C00
7.571448646000000,637,0x4100,0x0000
7.571463366000000,638,0x0020,0x0000
7.571479054000000,639,0x8FE0,0x0000
7.571523740000000,640,0x0000,0x0200
7.571524240000000,640,0x0000,0x000C
7.571524740000000,640,0x0000,0x0C0C
7.571525240000000,640,0x0000,0x0201
7.571525740000000,640,0x0000,0x0101
7.571526240000000,640,0x0000,0x0602
7.571526740000000,640,0x0000,0x0000
7.571527240000000,640,0x0000,0x0000
7.571527740000000,640,0x0000,0x0000
7.571528240000000,640,0x0000,0x0000
7.571528740000000,640,0x0000,0x0000
7.571529240000000,640,0x0000,0x0000
7.571529740000000,640,0x0000,0x0000
7.571530240000000,640,0x0000,0x0000
7.571530740000000,640,0x0000,0x0000
7.571531240000000,640,0x0000,0x0000
7.571660802000000,641,0xCC00,0x0000
7.571677802000000,642,0x0000,0x0460
7.571696366000000,643,0xC300,0x6060
7.571711428000000,644,0x0000,0x0000
7.571729584000000,645,0x4D00,0x0000
7.571743584000000,646,0x001F,0x0000
7.571888366000000,647,0x4D00,0x0000
7.571903646000000,648,0x001E,0x0000
7.571919584000000,649,0x4100,0x0000
7.571933646000000,650,0x0040,0x0000
7.571948990000000,651,0x0FC0,0x0000
7.572003490000000,652,0x0101,0x0000
7.572003990000000,652,0x003A,0x0000
7.572004490000000,652,0x0900,0x0000
7.572004990000000,652,0xF00F,0x0000
7.572005490000000,652,0x1E50,0x0000
7.572005990000000,652,0xEEBD,0x0000
7.572006490000000,652,0x0110,0x0000
7.572006990000000,652,0x0810,0x0000
7.572007490000000,652,0x0800,0x0000
7.572007990000000,652,0x0400,0x0000
7.572008490000000,652,0x614A,0x0000
7.572008990000000,652,0x3878,0x0000
7.572009490000000,652,0x0000,0x0000
7.572009990000000,652,0x0000,0x0000
7.572010490000000,652,0x0000,0x0000
7.572010990000000,652,0x0000,0x0000
7.572011490000000,652,0x0000,0x0000
7.572011990000000,652,0x0000,0x0000
7.572012490000000,652,0x0000,0x0000
7.572012990000000,652,0x0000,0x0000
7.572013490000000,652,0x0000,0x0000
7.572013990000000,652,0x0000,0x0000
7.572014490000000,652,0x0000,0x0000
7.572014990000000,652,0x0000,0x0000
7.572015490000000,652,0x0000,0x0000
7.572015990000000,652,0x0000,0x0000
7.572016490000000,652,0x0000,0x0000
7.572016990000000,652,0x0000,0x0000
7.572017490000000,652,0x0000,0x0000
7.572017990000000,652,0x0000,0x0000
7.572018490000000,652,0x0044,0x0000
7.572018990000000,652,0x0000,0x0000
7.572098302000000,653,0x4D00,0x0000
7.572113240000000,654,0x001F,0x0000
7.572741614000000,655,0xCC00,0x0000
7.572758834000000,656,0x0000,0x0461
7.572777646000000,657,0x4D00,0x6161
7.572792240000000,658,0x001E,0x6161
7.572821552000000,659,0xCC00,0x6161
7.572836616000000,660,0x0000,0x0461
7.572853740000000,661,0x4C00,0x6161
7.572868302000000,662,0x0001,0x6161
7.572884146000000,663,0xC300,0x6161
7.572898614000000,664,0x0000,0x0020
7.572915646000000,665,0xD400,0x2020
7.572930146000000,666,0x0000,0x0102
7.572946614000000,667,0xD500,0x0202
7.572961114000000,668,0x0000,0x1200
7.573010678000000,669,0x4100,0x0000
7.573025772000000,670,0x0020,0x0000
7.573041802000000,671,0x8FE0,0x0000
7.573086272000000,672,0x0000,0x0201
7.573086772000000,672,0x0000,0x0012
7.573087270000000,672,0x0000,0x0D08
7.573087770000000,672,0x0000,0x1006
7.573088270000000,672,0x0000,0x0000
7.573088770000000,672,0x0000,0x0000
7.573089272000000,672,0x0000,0x0348
7.573089772000000,672,0x0000,0x8000
7.573090270000000,672,0x0000,0x0602
7.573090770000000,672,0x0000,0x0000
7.573091272000000,672,0x0000,0x0000
7.573091772000000,672,0x0000,0x0000
7.573092270000000,672,0x0000,0x0000
7.573092770000000,672,0x0000,0x0000
7.573093270000000,672,0x0000,0x0000
7.573093770000000,672,0x0000,0x0000
7.573229270000000,673,0xCC00,0x0000
7.573246272000000,674,0x0000,0x0461
7.573264740000000,675,0x4C00,0x6161
7.573279458000000,676,0x0001,0x6161
7.573295490000000,677,0xC300,0x6161
7.573310146000000,678,0x0000,0x0020
7.573326990000000,679,0xD400,0x2020
7.573341428000000,680,0x0000,0x0002
7.573357928000000,681,0xD500,0x0202
7.573372240000000,682,0x0000,0x0C00
7.573426520000000,683,0x4100,0x0000
7.573441614000000,684,0x0020,0x0000
7.573457614000000,685,0x8FE0,0x0000
7.573502114000000,686,0x0000,0x0200
7.573502614000000,686,0x0000,0x000C
7.573503114000000,686,0x0000,0x0E0C
7.573503614000000,686,0x0000,0x0201
7.573504114000000,686,0x0000,0x0101
7.573504614000000,686,0x0000,0x0602
7.573505114000000,686,0x0000,0x0000
7.573505614000000,686,0x0000,0x0000
7.573506114000000,686,0x0000,0x0000
7.573506614000000,686,0x0000,0x0000
7.573507114000000,686,0x0000,0x0000
7.573507614000000,686,0x0000,0x0000
7.573508114000000,686,0x0000,0x0000
7.573508614000000,686,0x0000,0x0000
7.573509114000000,686,0x0000,0x0000
7.573509614000000,686,0x0000,0x0000
7.573624302000000,687,0xCC00,0x0000
7.573640864000000,688,0x0000,0x0460
7.573658896000000,689,0xC300,0x6060
7.573673708000000,690,0x0000,0x0000
7.573691772000000,691,0x4D00,0x0000
7.573705958000000,692,0x001F,0x0000
8.548203881999999,693,0x4D00,0x0000
8.548219381999999,694,0x001E,0x0000
8.548235602000000,695,0x4100,0x0000
8.548250008000000,696,0x0020,0x0000
8.548265914000000,697,0x0FE0,0x0000
8.548318038000000,698,0x0101,0x0000
8.548318538000000,698,0x001A,0x0000
8.548319038000001,698,0x0A00,0x0000
8.548319537999999,698,0xF08D,0x0000
8.548320038000000,698,0x1E50,0x0000
8.548320538000000,698,0xEEBD,0x0000
8.548321037999999,698,0x0000,0x0000
8.548321538000000,698,0x0000,0x0000
8.548322038000000,698,0x000C,0x0000
8.548322538000001,698,0x0000,0x0000
8.548323037999999,698,0x0002,0x0000
8.548323538000000,698,0x0000,0x0000
8.548324038000001,698,0x0001,0x0000
8.548324537999999,698,0x0000,0x0000
8.548325038000000,698,0x0000,0x0000
8.548325538000000,698,0x0000,0x0000
8.548414976000000,699,0x4D00,0x0000
8.548430037999999,700,0x001F,0x0000
8.548477414000001,701,0xCC00,0x0000
8.548493164000000,702,0x0000,0x0461
8.548511788000001,703,0x4D00,0x6161
8.548526131999999,704,0x001E,0x6161
8.548572820000000,705,0xCC00,0x6161
8.548588413999999,706,0x0000,0x0461
8.548605414000001,707,0x4C00,0x6161
8.548619882000001,708,0x0001,0x6161
8.548635852000000,709,0xC300,0x6161
8.548650225999999,710,0x0000,0x0060
8.548666788000000,711,0xD400,0x6060
8.548681287999999,712,0x0000,0x0102
8.548698070000000,713,0xD500,0x0202
8.548712352000001,714,0x0000,0x1B00
8.548764414000001,715,0x4100,0x0000
8.548779443999999,716,0x0040,0x0000
8.548795444000000,717,0x8FC0,0x0000
8.548839664000001,718,0x0000,0x0201
8.548840164000000,718,0x0000,0x001B
8.548840664000000,718,0x0000,0x0F08
8.548841164000001,718,0x0000,0x9016
8.548841663999999,718,0x0000,0x0000
8.548842164000000,718,0x0000,0x0000
8.548842664000000,718,0x0000,0x0000
8.548843164000001,718,0x0000,0x0000
8.548843664000000,718,0x0000,0x8E18
8.548844164000000,718,0x0000,0x0045
8.548844664000001,718,0x0000,0x8E18
8.548845163999999,718,0x0000,0x0045
8.548845664000000,718,0x0000,0x0200
8.548846164000000,718,0x0000,0x0006
8.548846663999999,718,0x0000,0x0000
8.548847164000000,718,0x0000,0x0000
8.548847664000000,718,0x0000,0x0000
8.548848164000001,718,0x0000,0x0000
8.548848663999999,718,0x0000,0x0000
8.548849164000000,718,0x0000,0x0000
8.548849664000000,718,0x0000,0x0000
8.548850163999999,718,0x0000,0x0000
8.548850664000000,718,0x0000,0x0000
8.548851164000000,718,0x0000,0x0000
8.548851664000001,718,0x0000,0x0000
8.548852163999999,718,0x0000,0x0000
8.548852664000000,718,0x0000,0x0000
8.548853164000001,718,0x0000,0x0000
8.548853663999999,718,0x0000,0x0000
8.548854164000000,718,0x0000,0x0000
8.548854664000000,718,0x0000,0x0000
8.548855164000001,718,0x0000,0x0000
8.548983414000000,719,0xCC00,0x0000
8.549000350000000,720,0x0000,0x0461
8.549018508000000,721,0x4C00,0x6161
8.549032820000001,722,0x0001,0x6161
8.549048508000000,723,0xC300,0x6161
8.549062758000000,724,0x0000,0x0020
8.549083632000000,725,0xD400,0x2020
8.549098038000000,726,0x0000,0x0002
8.549114319999999,727,0xD500,0x0202
8.549128694000000,728,0x0000,0x0C00
8.549178350000000,729,0x4100,0x0000
8.549193164000000,730,0x0020,0x0000
8.549208849999999,731,0x8FE0,0x0000
8.549253350000001,732,0x0000,0x0200
8.549253849999999,732,0x0000,0x000C
8.549254350000000,732,0x0000,0x100C
8.549254850000001,732,0x0000,0x0201
8.549255349999999,732,0x0000,0x0101
8.549255850000000,732,0x0000,0x0602
8.549256350000000,732,0x0000,0x0000
8.549256850000001,732,0x0000,0x0000
8.549257350000000,732,0x0000,0x0000
8.549257850000000,732,0x0000,0x0000
8.549258350000001,732,0x0000,0x0000
8.549258849999999,732,0x0000,0x0000
8.549259350000000,732,0x0000,0x0000
8.549259850000000,732,0x0000,0x0000
8.549260350000001,732,0x0000,0x0000
8.549260850000000,732,0x0000,0x0000
8.549390788000000,733,0xCC00,0x0000
8.549407850000000,734,0x0000,0x0460
8.549425914000000,735,0xC300,0x6060
8.549440755999999,736,0x0000,0x0000
8.549459100000000,737,0x4D00,0x0000
8.549473288000000,738,0x001F,0x0000
8.549626664000000,739,0x4D00,0x0000
8.549642570000000,740,0x001E,0x0000
8.549658664000001,741,0x4100,0x0000
8.549673194000000,742,0x0040,0x0000
8.549688694000000,743,0x0FC0,0x0000
8.549744382000000,744,0x0101,0x0000
8.549744882000001,744,0x0032,0x0000
8.549745381999999,744,0x0B00,0x0000
8.549745882000000,744,0xF08D,0x0000
8.549746382000000,744,0x1E50,0x0000
8.549746882000001,744,0xEEBD,0x0000
8.549747382000000,744,0x0003,0x0000
8.549747882000000,744,0x0000,0x0000
8.549748382000001,744,0x0024,0x0000
8.549748881999999,744,0x0000,0x0000
8.549749382000000,744,0x8E18,0x0000
8.549749882000000,744,0x0045,0x0000
8.549750381999999,744,0x0050,0x0000
8.549750882000000,744,0x0002,0x0000
8.549751382000000,744,0x0101,0x0000
8.549751882000001,744,0xC0A8,0x0000
8.549752381999999,744,0x0008,0x0000
8.549752882000000,744,0x0000,0x0000
8.549753382000000,744,0x95A0,0x0000
8.549753881999999,744,0x4005,0x0000
8.549754382000000,744,0x8410,0x0000
8.549754882000000,744,0x4005,0x0000
8.549755382000001,744,0x8E18,0x0000
8.549755881999999,744,0x0045,0x0000
8.549756382000000,744,0x0008,0x0000
8.549756882000001,744,0x0000,0x0000
8.549757381999999,744,0x0008,0x0000
8.549757882000000,744,0x0000,0x0000
8.549758382000000,744,0xBDAB,0x0000
8.549758882000001,744,0x168C,0x0000
8.549759382000000,744,0xEDAD,0x0000
8.549759882000000,744,0x7F9F,0x0000
8.549840288000000,745,0x4D00,0x0000
8.549855131999999,746,0x001F,0x0000
8.549902914000000,747,0xCC00,0x0000
8.549919100000000,748,0x0000,0x0461
8.549938038000001,749,0x4D00,0x6161
8.549952599999999,750,0x001E,0x6161
8.549999882000000,751,0xCC00,0x6161
8.550015820000000,752,0x0000,0x0461
8.550033288000000,753,0x4C00,0x6161
8.550047976000000,754,0x0001,0x6161
8.550068226000000,755,0xC300,0x6161
8.550082787999999,756,0x0000,0x0060
8.550099255999999,757,0xD400,0x6060
8.550113694000000,758,0x0000,0x0102
8.550130038000001,759,0xD500,0x0202
8.550144412000000,760,0x0000,0x1B00
8.550195100000000,761,0x4100,0x0000
8.550209755999999,762,0x0040,0x0000
8.550225350000000,763,0x8FC0,0x0000
8.550269944000000,764,0x0000,0x0201
8.550270444000001,764,0x0000,0x001B
8.550270943999999,764,0x0000,0x1108
8.550271444000000,764,0x0000,0x9016
8.550271944000000,764,0x0000,0x0000
8.550272444000001,764,0x0000,0x0000
8.550272944000000,764,0x0000,0x0003
8.550273444000000,764,0x0000,0x0000
8.550273944000001,764,0x0000,0x8E18
8.550274443999999,764,0x0000,0x0045
8.550274944000000,764,0x0000,0x0000
8.550275444000000,764,0x0000,0x0000
8.550275943999999,764,0x0000,0x0200
8.550276444000000,764,0x0000,0x0006
8.550276944000000,764,0x0000,0x0200
8.550277444000001,764,0x0000,0x000C
8.550277943999999,764,0x0000,0x0000
8.550278444000000,764,0x0000,0x0000
8.550278944000000,764,0x0000,0x0000
8.550279443999999,764,0x0000,0x0000
8.550279944000000,764,0x0000,0x0000
8.550280444000000,764,0x0000,0x0000
8.550280944000001,764,0x0000,0x0000
8.550281443999999,764,0x0000,0x0000
8.550281944000000,764,0x0000,0x0000
8.550282444000000,764,0x0000,0x0000
8.550282943999999,764,0x0000,0x0000
8.550283444000000,764,0x0000,0x0000
8.550283944000000,764,0x0000,0x0000
8.550284444000001,764,0x0000,0x0000
8.550284943999999,764,0x0000,0x0000
8.550285444000000,764,0x0000,0x0000
8.550413069999999,765,0xCC00,0x0000
8.550430038000000,766,0x0000,0x0461
8.550448132000000,767,0x4C00,0x6161
8.550462788000001,768,0x0001,0x6161
8.550478569999999,769,0xC300,0x6161
8.550492882000000,770,0x0000,0x0020
8.550509820000000,771,0xD400,0x2020
8.550524255999999,772,0x0000,0x0002
8.550540694000000,773,0xD500,0x0202
8.550555100000000,774,0x0000,0x0C00
8.550604944000000,775,0x4100,0x0000
8.550620100000000,776,0x0020,0x0000
8.550635882000000,777,0x8FE0,0x0000
8.550680099999999,778,0x0000,0x0200
8.550680600000000,778,0x0000,0x000C
8.550681100000000,778,0x0000,0x120C
8.550681600000001,778,0x0000,0x0201
8.550682100000000,778,0x0000,0x0101
8.550682600000000,778,0x0000,0x0602
8.550683100000001,778,0x0000,0x0000
8.550683599999999,778,0x0000,0x0000
8.550684100000000,778,0x0000,0x0000
8.550684600000000,778,0x0000,0x0000
8.550685100000001,778,0x0000,0x0000
8.550685600000000,778,0x0000,0x0000
8.550686100000000,778,0x0000,0x0000
8.550686600000001,778,0x0000,0x0000
8.550687099999999,778,0x0000,0x0000
8.550687600000000,778,0x0000,0x0000
8.550817225999999,779,0xCC00,0x0000
8.550833881999999,780,0x0000,0x0460
8.550852320000001,781,0xC300,0x6060
8.550867287999999,782,0x0000,0x0000
8.550885570000000,783,0x4D00,0x0000
8.550899818000000,784,0x001F,0x0000
8.551072756000000,785,0x4D00,0x0000
8.551088225999999,786,0x001E,0x0000
8.551104162000000,787,0x4100,0x0000
8.551118568000000,788,0x0020,0x0000
8.551134288000000,789,0x0FE0,0x0000
8.551187726000000,790,0x0101,0x0000
8.551188224000001,790,0x0016,0x0000
8.551188725999999,790,0x0C00,0x0000
8.551189224000000,790,0xF08D,0x0000
8.551189724000000,790,0x8770,0x0000
8.551190224000001,790,0x604B,0x0000
8.551190726000000,790,0x0004,0x0000
8.551191226000000,790,0x0000,0x0000
8.551191726000001,790,0x0008,0x0000
8.551192223999999,790,0x0000,0x0000
8.551192726000000,790,0x8E18,0x0000
8.551193226000001,790,0x0045,0x0000
8.551193724000001,790,0x0001,0x0000
8.551194224000000,790,0x0000,0x0000
8.551194724000000,790,0xBDAB,0x0000
8.551195226000001,790,0x168C,0x0000
8.551284100000000,791,0x4D00,0x0000
8.551299038000000,792,0x001F,0x0000
8.551346444000000,793,0xCC00,0x0000
8.551362506000000,794,0x0000,0x0461
8.551381599999999,795,0x4D00,0x6161
8.551396412000001,796,0x001E,0x6161
8.551443850000000,797,0xCC00,0x6161
8.551459850000001,798,0x0000,0x0461
8.551476943999999,799,0x4C00,0x6161
8.551491287999999,800,0x0001,0x6161
8.551507162000000,801,0xC300,0x6161
8.551521599999999,802,0x0000,0x0020
8.551538288000000,803,0xD400,0x2020
8.551552817999999,804,0x0000,0x0002
8.551569162000000,805,0xD500,0x0202
8.551583600000001,806,0x0000,0x0C00
8.551634443999999,807,0x4100,0x0000
8.551649474000000,808,0x0020,0x0000
8.551664973999999,809,0x8FE0,0x0000
8.551709256000001,810,0x0000,0x0200
8.551709755999999,810,0x0000,0x000C
8.551710256000000,810,0x0000,0x130C
8.551710756000000,810,0x0000,0x0201
8.551711256000001,810,0x0000,0x0101
8.551711756000000,810,0x0000,0x0602
8.551712256000000,810,0x0000,0x0000
8.551712756000001,810,0x0000,0x0000
8.551713255999999,810,0x0000,0x0000
8.551713756000000,810,0x0000,0x0000
8.551714256000000,810,0x0000,0x0000
8.551714756000001,810,0x0000,0x0000
8.551715256000000,810,0x0000,0x0000
8.551715756000000,810,0x0000,0x0000
8.551716256000001,810,0x0000,0x0000
8.551716755999999,810,0x0000,0x0000
8.551847068000001,811,0xCC00,0x0000
8.551863944000001,812,0x0000,0x0460
8.551882568000000,813,0xC300,0x6060
8.551897631999999,814,0x0000,0x0000
8.551916068000001,815,0x4D00,0x0000
8.551930444000000,816,0x001F,0x0000
8.786387324000000,817,0xCC00,0x0000
8.786428168000000,818,0x0000,0x0461
8.786447856000001,819,0x4D00,0x6161
8.786462761999999,820,0x001E,0x6161
8.786492824000000,821,0xCC00,0x6161
8.786508230000001,822,0x0000,0x0461
8.786525667999999,823,0x4C00,0x6161
8.786539950000000,824,0x0001,0x6161
8.786555979999999,825,0xC300,0x6161
8.786570418000000,826,0x0000,0x00E0
8.786587230000000,827,0xD400,0xE0E0
8.786601512000001,828,0x0000,0x0102
8.786618074000000,829,0xD500,0x0202
8.786632480000000,830,0x0000,0xD200
8.786683635999999,831,0x4100,0x0000
8.786698418000000,832,0x00E0,0x0000
8.786714136000001,833,0x8F20,0x0000
8.786758824000000,834,0x0000,0x0201
8.786759324000000,834,0x0000,0x00D2
8.786759824000001,834,0x0000,0x1408
8.786760323999999,834,0x0000,0x1002
8.786760824000000,834,0x0000,0x0000
8.786761324000000,834,0x0000,0x0000
8.786761823999999,834,0x0000,0x096C
8.786762324000000,834,0x0000,0x5D84
8.786762824000000,834,0x0000,0x40D7
8.786763324000001,834,0x0000,0x62B1
8.786763823999999,834,0x0000,0x005A
8.786764324000000,834,0x0000,0x0000
8.786764824000000,834,0x0000,0x0000
8.786765323999999,834,0x0000,0x0000
8.786765824000000,834,0x0000,0x169A
8.786766324000000,834,0x0000,0x0000
8.786766824000001,834,0x0000,0x0000
8.786767323999999,834,0x0000,0x0000
8.786767824000000,834,0x0000,0x0000
8.786768324000001,834,0x0000,0x6400
8.786768823999999,834,0x0000,0x3100
8.786769324000000,834,0x0000,0x0004
8.786769824000000,834,0x0000,0x4A04
8.786770324000001,834,0x0000,0x7861
8.786770824000000,834,0x0000,0x0138
8.786771324000000,834,0x0000,0x8208
8.786771824000001,834,0x0000,0x8B84
8.786772323999999,834,0x0000,0x120C
8.786772824000000,834,0x0000,0x1896
8.786773324000000,834,0x0000,0x0324
8.786773824000001,834,0x0000,0x0101
8.786774324000000,834,0x0000,0x0405
8.786774824000000,834,0x0000,0x0101
8.786775324000001,834,0x0000,0x0000
8.786775823999999,834,0x0000,0x0607
8.786776324000000,834,0x0000,0x5355
8.786776824000000,834,0x0000,0x0120
8.786777323999999,834,0x0000,0x1E0B
8.786777824000000,834,0x0000,0x012A
8.786778324000000,834,0x0000,0x3200
8.786778824000001,834,0x0000,0x3004
8.786779323999999,834,0x0000,0x6048
8.786779824000000,834,0x0000,0x2D6C
8.786780324000000,834,0x0000,0x201A
8.786780823999999,834,0x0000,0x0201
8.786781324000000,834,0x0000,0x00FF
8.786781824000000,834,0x0000,0x0000
8.786782324000001,834,0x0000,0x0000
8.786782823999999,834,0x0000,0x0000
8.786783324000000,834,0x0000,0x0000
8.786783824000000,834,0x0000,0x0000
8.786784323999999,834,0x0000,0x0000
8.786784824000000,834,0x0000,0x0000
8.786785324000000,834,0x0000,0x0000
8.786785824000001,834,0x0000,0x0000
8.786786323999999,834,0x0000,0x0000
8.786786824000000,834,0x0000,0x3D00
8.786787324000001,834,0x0000,0x0116
8.786787823999999,834,0x0000,0x0000
8.786788324000000,834,0x0000,0x0000
8.786788824000000,834,0x0000,0x0000
8.786789324000001,834,0x0000,0x0000
8.786789824000000,834,0x0000,0x0000
8.786790324000000,834,0x0000,0x0000
8.786790824000001,834,0x0000,0x0000
8.786791323999999,834,0x0000,0x0000
8.786791824000000,834,0x0000,0x0000
8.786792324000000,834,0x0000,0x0000
8.786792824000001,834,0x0000,0x3000
8.786793324000000,834,0x0000,0x0114
8.786793824000000,834,0x0000,0x0000
8.786794324000001,834,0x0000,0xAC0F
8.786794823999999,834,0x0000,0x0104
8.786795324000000,834,0x0000,0x0000
8.786795824000000,834,0x0000,0xAC0F
8.786796324000001,834,0x0000,0x0104
8.786796824000000,834,0x0000,0x0000
8.786797324000000,834,0x0000,0xAC0F
8.786797824000001,834,0x0000,0x0002
8.786798323999999,834,0x0000,0xDD00
8.786798824000000,834,0x0000,0x0018
8.786799324000000,834,0x0000,0xF250
8.786799823999999,834,0x0000,0x0102
8.786800324000000,834,0x0000,0x0001
8.786800824000000,834,0x0000,0x0300
8.786801324000001,834,0x0000,0x00A4
8.786801823999999,834,0x0000,0x2700
8.786802324000000,834,0x0000,0x00A4
8.786802824000000,834,0x0000,0x4200
8.786803323999999,834,0x0000,0x5E43
8.786803824000000,834,0x0000,0x6200
8.786804324000000,834,0x0000,0x2F32
8.786804824000001,834,0x0000,0x3000
8.786805323999999,834,0x0000,0x0114
8.786805824000000,834,0x0000,0x0000
8.786806324000001,834,0x0000,0xAC0F
8.786806823999999,834,0x0000,0x0104
8.786807324000000,834,0x0000,0x0000
8.786807824000000,834,0x0000,0xAC0F
8.786808324000001,834,0x0000,0x0104
8.786808824000000,834,0x0000,0x0000
8.786809324000000,834,0x0000,0xAC0F
8.786809824000001,834,0x0000,0x0002
8.786810323999999,834,0x0000,0x0000
8.786810824000000,834,0x0000,0x0602
8.786811324000000,834,0x0000,0x0000
8.786811824000001,834,0x0000,0x0000
8.786812324000000,834,0x0000,0x0000
8.786812824000000,834,0x0000,0x0000
8.786813324000001,834,0x0000,0x0000
8.786813823999999,834,0x0000,0x0000
8.786814324000000,834,0x0000,0x0000
8.786952948000000,835,0xCC00,0x0000
8.786969606000000,836,0x0000,0x0460
8.786988261999999,837,0xC300,0x6060
8.787003324000001,838,0x0000,0x0000
8.787021385999999,839,0x4D00,0x0000
8.787035511999999,840,0x001F,0x0000
15.538030148000001,841,0xCC00,0x0000
15.538047524000000,842,0x0000,0x0461
15.538067024000000,843,0x4D00,0x6161
15.538081430000000,844,0x001E,0x6161
15.538115460000000,845,0xCC00,0x6161
15.538131024000000,846,0x0000,0x0461
15.538148992000000,847,0x4C00,0x6161
15.538163618000000,848,0x0001,0x6161
15.538179804000000,849,0xC300,0x6161
15.538194618000000,850,0x0000,0x00A0
15.538211430000000,851,0xD400,0xA0A0
15.538225868000000,852,0x0000,0x0102
15.538242398000000,853,0xD500,0x0202
15.538257118000001,854,0x0000,0x9700
15.538307304000000,855,0x4100,0x0000
15.538322118000000,856,0x00A0,0x0000
15.538337742000000,857,0x8F60,0x0000
15.538382523999999,858,0x0000,0x0201
15.538383024000000,858,0x0000,0x0097
15.538383524000000,858,0x0000,0x1508
15.538384024000001,858,0x0000,0x1002
15.538384524000000,858,0x0000,0x0000
15.538385024000000,858,0x0000,0x0000
15.538385524000001,858,0x0000,0x0105
15.538386023999999,858,0x0000,0x5CF4
15.538386524000000,858,0x0000,0x9E89
15.538387024000000,858,0x0000,0x0575
15.538387523999999,858,0x0000,0x1001
15.538388024000000,858,0x0000,0x0008
15.538388524000000,858,0x0000,0x0000
15.538389024000001,858,0x0000,0x0000
15.538389523999999,858,0x0000,0x7500
15.538390024000000,858,0x0000,0x0000
15.538390524000000,858,0x0000,0x3A00
15.538391023999999,858,0x0000,0x8401
15.538391524000000,858,0x0000,0xD75D
15.538392024000000,858,0x0000,0xB140
15.538392524000001,858,0x0000,0xF462
15.538393023999999,858,0x0000,0x895C
15.538393524000000,858,0x0000,0x759E
15.538394024000000,858,0x0000,0x8405
15.538394522000001,858,0x0000,0xD75D
15.538395022000000,858,0x0000,0xB140
15.538395524000000,858,0x0000,0xB062
15.538396024000001,858,0x0000,0x31E6
15.538396521999999,858,0x0000,0x0A04
15.538397024000000,858,0x0000,0x0000
15.538397524000001,858,0x0000,0x4A04
15.538398023999999,858,0x0000,0x7861
15.538398524000000,858,0x0000,0x0138
15.538399024000000,858,0x0000,0x8208
15.538399524000001,858,0x0000,0x8B84
15.538400021999999,858,0x0000,0x2496
15.538400522000000,858,0x0000,0x4830
15.538401024000001,858,0x0000,0x326C
15.538401523999999,858,0x0000,0x0C04
15.538402024000000,858,0x0000,0x1812
15.538402522000000,858,0x0000,0x2160
15.538403022000001,858,0x0000,0x0602
15.538403524000000,858,0x0000,0x2414
15.538404024000000,858,0x0000,0x0102
15.538404522000000,858,0x0000,0x300D
15.538405021999999,858,0x0000,0x0114
15.538405522000000,858,0x0000,0x0000
15.538406024000000,858,0x0000,0xAC0F
15.538406522000001,858,0x0000,0x0104
15.538407021999999,858,0x0000,0x0000
15.538407524000000,858,0x0000,0xAC0F
15.538408024000001,858,0x0000,0x0104
15.538408523999999,858,0x0000,0x0000
15.538409024000000,858,0x0000,0xAC0F
15.538409522000000,858,0x0000,0x0002
15.538410022000001,858,0x0000,0x2D00
15.538410524000000,858,0x0000,0xAD1A
15.538411022000000,858,0x0000,0x1749
15.538411524000001,858,0x0000,0x00FF
15.538412021999999,858,0x0000,0x0000
15.538412524000000,858,0x0000,0x0000
15.538413024000000,858,0x0000,0x0000
15.538413522000001,858,0x0000,0x0000
15.538414022000000,858,0x0000,0x0000
15.538414522000000,858,0x0000,0x0000
15.538415022000001,858,0x0000,0x0000
15.538415523999999,858,0x0000,0x0000
15.538416024000000,858,0x0000,0x0000
15.538416522000000,858,0x0000,0x0000
15.538417023999999,858,0x0000,0xDD00
15.538417524000000,858,0x0000,0x0007
15.538418024000000,858,0x0000,0xF250
15.538418524000001,858,0x0000,0x0002
15.538419021999999,858,0x0000,0x0001
15.538419522000000,858,0x0000,0x0200
15.538420024000001,858,0x0000,0x0006
15.538420523999999,858,0x0000,0x0000
15.538421024000000,858,0x0000,0xAC0F
15.538421524000000,858,0x0000,0x0000
15.538422024000001,858,0x0000,0xDD00
15.538560304000001,859,0xCC00,0x0000
15.538576991999999,860,0x0000,0x0460
15.538595303999999,861,0xC300,0x6060
15.538610459999999,862,0x0000,0x0000
15.538628930000000,863,0x4D00,0x0000
15.538643430000000,864,0x001F,0x0000
15.680247052000000,865,0xCC00,0x0000
15.680264520000000,866,0x0000,0x0461
15.680283396000000,867,0x4D00,0x6161
15.680298113999999,868,0x001E,0x6161
15.680327114000001,869,0xCC00,0x6161
15.680342208000001,870,0x0000,0x0461
15.680359301999999,871,0x4C00,0x6161
15.680373552000001,872,0x0001,0x6161
15.680389520000000,873,0xC300,0x6161
15.680403896000000,874,0x0000,0x0040
15.680420584000000,875,0xD400,0x4040
15.680435052000000,876,0x0000,0x0102
15.680451520000000,877,0xD500,0x0202
15.680465770000000,878,0x0000,0x3600
15.680515614000001,879,0x4100,0x0000
15.680530584000000,880,0x0040,0x0000
15.680546302000000,881,0x8FC0,0x0000
15.680590614000000,882,0x0000,0x0201
15.680591114000000,882,0x0000,0x0036
15.680591614000001,882,0x0000,0x1608
15.680592114000000,882,0x0000,0x9014
15.680592614000000,882,0x0000,0x0000
15.680593114000001,882,0x0000,0x0000
15.680593613999999,882,0x0000,0x0005
15.680594114000000,882,0x0000,0x001F
15.680594614000000,882,0x0000,0x0000
15.680595114000001,882,0x0000,0x0000
15.680595614000000,882,0x0000,0x0000
15.680596114000000,882,0x0000,0x0000
15.680596614000001,882,0x0000,0x0000
15.680597113999999,882,0x0000,0x0000
15.680597614000000,882,0x0000,0x0000
15.680598114000000,882,0x0000,0x0000
15.680598614000001,882,0x0000,0x0000
15.680599114000000,882,0x0000,0x0000
15.680599614000000,882,0x0000,0x0000
15.680600114000001,882,0x0000,0x0000
15.680600613999999,882,0x0000,0x0000
15.680601114000000,882,0x0000,0x0000
15.680601614000000,882,0x0000,0x0000
15.680602113999999,882,0x0000,0x0000
15.680602614000000,882,0x0000,0x0000
15.680603114000000,882,0x0000,0x0000
15.680603614000001,882,0x0000,0x0602
15.680604113999999,882,0x0000,0x0000
15.680604614000000,882,0x0000,0x130C
15.680605114000000,882,0x0000,0x0001
15.680605613999999,882,0x0000,0x0101
15.680606114000000,882,0x0000,0x0602
15.680777084000001,883,0xCC00,0x0202
15.680794084000000,884,0x0000,0x0460
15.680812425999999,885,0xC300,0x6060
15.680827146000000,886,0x0000,0x0000
15.680845676000001,887,0x4D00,0x0000
15.680859802000001,888,0x001F,0x0000
15.814059990000001,889,0xCC00,0x0000
15.814077116000000,890,0x0000,0x0461
15.814096084000001,891,0x4D00,0x6161
15.814110928000000,892,0x001E,0x6161
15.814141272000001,893,0xCC00,0x6161
15.814156583999999,894,0x0000,0x0461
15.814173866000001,895,0x4C00,0x6161
15.814188428000000,896,0x0001,0x6161
15.814204522000001,897,0xC300,0x6161
15.814218960000000,898,0x0000,0x0040
15.814235802000001,899,0xD400,0x4040
15.814250116000000,900,0x0000,0x0102
15.814266710000000,901,0xD500,0x0202
15.814281240000000,902,0x0000,0x3600
15.814331146000001,903,0x4100,0x0000
15.814346302000001,904,0x0040,0x0000
15.814362239999999,905,0x8FC0,0x0000
15.814406646000000,906,0x0000,0x0201
15.814407146000001,906,0x0000,0x0036
15.814407645999999,906,0x0000,0x1708
15.814408146000000,906,0x0000,0x9014
15.814408646000000,906,0x0000,0x0000
15.814409145999999,906,0x0000,0x0000
15.814409646000000,906,0x0000,0x0005
15.814410146000000,906,0x0000,0x0000
15.814410646000001,906,0x0000,0x0000
15.814411145999999,906,0x0000,0x0000
15.814411646000000,906,0x0000,0x0000
15.814412146000000,906,0x0000,0x0000
15.814412645999999,906,0x0000,0x0000
15.814413146000000,906,0x0000,0x0000
15.814413646000000,906,0x0000,0x0000
15.814414146000001,906,0x0000,0x0000
15.814414645999999,906,0x0000,0x0000
15.814415146000000,906,0x0000,0x0000
15.814415646000000,906,0x0000,0x0000
15.814416145999999,906,0x0000,0x0000
15.814416646000000,906,0x0000,0x0000
15.814417146000000,906,0x0000,0x0000
15.814417646000001,906,0x0000,0x0000
15.814418146000000,906,0x0000,0x0000
15.814418646000000,906,0x0000,0x0000
15.814419146000001,906,0x0000,0x0000
15.814419645999999,906,0x0000,0x0602
15.814420146000000,906,0x0000,0x0000
15.814420646000000,906,0x0000,0x130C
15.814421146000001,906,0x0000,0x0001
15.814421646000000,906,0x0000,0x0101
15.814422146000000,906,0x0000,0x0602
15.814550240000001,907,0xCC00,0x0202
15.814567084000000,908,0x0000,0x0460
15.814585522000000,909,0xC300,0x6060
15.814600646000001,910,0x0000,0x0000
15.814618707999999,911,0x4D00,0x0000
15.814632866000000,912,0x001F,0x0000
15.858874502000001,913,0xCC00,0x0000
15.858891002000000,914,0x0000,0x0461
15.858909626000001,915,0x4D00,0x6161
15.858923814000001,916,0x001E,0x6161
15.858952720000000,917,0xCC00,0x6161
15.858967720000001,918,0x0000,0x0461
15.858985157999999,919,0x4C00,0x6161
15.858999844000000,920,0x0001,0x6161
15.859016002000001,921,0xC300,0x6161
15.859030470000000,922,0x0000,0x0040
15.859047064000000,923,0xD400,0x4040
15.859061626000001,924,0x0000,0x0102
15.859078093999999,925,0xD500,0x0202
15.859092532000000,926,0x0000,0x3600
15.859142031999999,927,0x4100,0x0000
15.859157408000000,928,0x0040,0x0000
15.859173188000000,929,0x8FC0,0x0000
15.859217532000001,930,0x0000,0x0201
15.859218031999999,930,0x0000,0x0036
15.859218532000000,930,0x0000,0x1808
15.859219032000000,930,0x0000,0x9014
15.859219531999999,930,0x0000,0x0000
15.859220032000000,930,0x0000,0x0000
15.859220532000000,930,0x0000,0x0005
15.859221032000001,930,0x0000,0x001F
15.859221531999999,930,0x0000,0x0000
15.859222032000000,930,0x0000,0x0000
15.859222532000000,930,0x0000,0x0000
15.859223031999999,930,0x0000,0x0000
15.859223532000000,930,0x0000,0x0000
15.859224032000000,930,0x0000,0x0000
15.859224532000001,930,0x0000,0x0000
15.859225031999999,930,0x0000,0x0000
15.859225532000000,930,0x0000,0x0000
15.859226032000000,930,0x0000,0x0000
15.859226531999999,930,0x0000,0x0000
15.859227032000000,930,0x0000,0x0000
15.859227532000000,930,0x0000,0x0000
15.859228032000001,930,0x0000,0x0000
15.859228531999999,930,0x0000,0x0000
15.859229032000000,930,0x0000,0x0000
15.859229532000001,930,0x0000,0x0000
15.859230031999999,930,0x0000,0x0000
15.859230532000000,930,0x0000,0x0602
15.859231032000000,930,0x0000,0x0000
15.859231532000001,930,0x0000,0x130C
15.859232032000000,930,0x0000,0x0001
15.859232532000000,930,0x0000,0x0101
15.859233032000001,930,0x0000,0x0602
15.859358688000000,931,0xCC00,0x0202
15.859375252000000,932,0x0000,0x0460
15.859393499999999,933,0xC300,0x6060
15.859408719999999,934,0x0000,0x0000
15.859430937999999,935,0x4D00,0x0000
15.859445188000000,936,0x001F,0x0000
15.988713347999999,937,0xCC00,0x0000
15.988730786000000,938,0x0000,0x0461
15.988750253999999,939,0x4D00,0x6161
15.988764566000000,940,0x001E,0x6161
15.988794348000001,941,0xCC00,0x6161
15.988809536000000,942,0x0000,0x0461
15.988826660000001,943,0x4C00,0x6161
15.988841066000001,944,0x0001,0x6161
15.988856972000001,945,0xC300,0x6161
15.988871533999999,946,0x0000,0x0040
15.988888316000001,947,0xD400,0x4040
15.988903036000000,948,0x0000,0x0102
15.988919598000001,949,0xD500,0x0202
15.988933972000000,950,0x0000,0x3600
15.988983660000001,951,0x4100,0x0000
15.988998754000001,952,0x0040,0x0000
15.989014442000000,953,0x8FC0,0x0000
15.989059222000000,954,0x0000,0x0201
15.989059722000000,954,0x0000,0x0036
15.989060222000001,954,0x0000,0x1908
15.989060722000000,954,0x0000,0x9014
15.989061222000000,954,0x0000,0x0000
15.989061722000001,954,0x0000,0x0000
15.989062221999999,954,0x0000,0x0005
15.989062722000000,954,0x0000,0x0000
15.989063222000000,954,0x0000,0x0000
15.989063721999999,954,0x0000,0x0000
15.989064222000000,954,0x0000,0x0000
15.989064722000000,954,0x0000,0x0000
15.989065222000001,954,0x0000,0x0000
15.989065721999999,954,0x0000,0x0000
15.989066222000000,954,0x0000,0x0000
15.989066722000000,954,0x0000,0x0000
15.989067221999999,954,0x0000,0x0000
15.989067722000000,954,0x0000,0x0000
15.989068222000000,954,0x0000,0x0000
15.989068722000001,954,0x0000,0x0000
15.989069221999999,954,0x0000,0x0000
15.989069722000000,954,0x0000,0x0000
15.989070222000000,954,0x0000,0x0000
15.989070721999999,954,0x0000,0x0000
15.989071222000000,954,0x0000,0x0000
15.989071722000000,954,0x0000,0x0000
15.989072222000001,954,0x0000,0x0602
15.989072722000000,954,0x0000,0x0000
15.989073222000000,954,0x0000,0x130C
15.989073722000001,954,0x0000,0x0001
15.989074221999999,954,0x0000,0x0101
15.989074722000000,954,0x0000,0x0602
15.989199348000000,955,0xCC00,0x0202
15.989216504000000,956,0x0000,0x0460
15.989235003999999,957,0xC300,0x6060
15.989249942000001,958,0x0000,0x0000
15.989268409999999,959,0x4D00,0x0000
15.989283004000001,960,0x001F,0x0000
16.034695637999999,961,0xCC00,0x0000
16.034712826000000,962,0x0000,0x0461
16.034732045999998,963,0x4D00,0x6161
16.034746731999999,964,0x001E,0x6161
16.034775826000001,965,0xCC00,0x6161
16.034790732000001,966,0x0000,0x0461
16.034808045999998,967,0x4C00,0x6161
16.034822576000000,968,0x0001,0x6161
16.034838451999999,969,0xC300,0x6161
16.034852858000001,970,0x0000,0x0040
16.034869575999998,971,0xD400,0x4040
16.034884076000001,972,0x0000,0x0102
16.034900575999998,973,0xD500,0x0202
16.034915076000001,974,0x0000,0x3600
16.034964326000001,975,0x4100,0x0000
16.034979452000002,976,0x0040,0x0000
16.034995202000001,977,0x8FC0,0x0000
16.035039919999999,978,0x0000,0x0201
16.035040420000001,978,0x0000,0x0036
16.035040920000000,978,0x0000,0x1A08
16.035041419999999,978,0x0000,0x9014
16.035041920000001,978,0x0000,0x0000
16.035042420000000,978,0x0000,0x0000
16.035042919999999,978,0x0000,0x0005
16.035043420000001,978,0x0000,0x001F
16.035043920000000,978,0x0000,0x0000
16.035044419999998,978,0x0000,0x0000
16.035044920000001,978,0x0000,0x0000
16.035045419999999,978,0x0000,0x0000
16.035045920000002,978,0x0000,0x0000
16.035046420000000,978,0x0000,0x0000
16.035046919999999,978,0x0000,0x0000
16.035047420000001,978,0x0000,0x0000
16.035047920000000,978,0x0000,0x0000
16.035048419999999,978,0x0000,0x0000
16.035048920000001,978,0x0000,0x0000
16.035049420000000,978,0x0000,0x0000
16.035049919999999,978,0x0000,0x0000
16.035050420000001,978,0x0000,0x0000
16.035050920000000,978,0x0000,0x0000
16.035051419999999,978,0x0000,0x0000
16.035051920000001,978,0x0000,0x0000
16.035052420000000,978,0x0000,0x0000
16.035052919999998,978,0x0000,0x0602
16.035053420000001,978,0x0000,0x0000
16.035053919999999,978,0x0000,0x130C
16.035054420000002,978,0x0000,0x0001
16.035054920000000,978,0x0000,0x0101
16.035055419999999,978,0x0000,0x0602
16.035180264000001,979,0xCC00,0x0202
16.035197451999998,980,0x0000,0x0460
16.035215575999999,981,0xC300,0x6060
16.035234544000001,982,0x0000,0x0000
16.035252858000000,983,0x4D00,0x0000
16.035266920000002,984,0x001F,0x0000
16.164788642000001,985,0xCC00,0x0000
16.164806110000001,986,0x0000,0x0461
16.164825298000000,987,0x4D00,0x6161
16.164840015999999,988,0x001E,0x6161
16.164868609999999,989,0xCC00,0x6161
16.164884359999999,990,0x0000,0x0461
16.164901453999999,991,0x4C00,0x6161
16.164915797999999,992,0x0001,0x6161
16.164931859999999,993,0xC300,0x6161
16.164946516000001,994,0x0000,0x0040
16.164963266000001,995,0xD400,0x4040
16.164977516000000,996,0x0000,0x0102
16.164993891999998,997,0xD500,0x0202
16.165008327999999,998,0x0000,0x3600
16.165058016000000,999,0x4100,0x0000
16.165072484000000,1000,0x0040,0x0000
16.165088015999999,1001,0x8FC0,0x0000
16.165159203999998,1002,0x0000,0x0201
16.165159704000001,1002,0x0000,0x0036
16.165160203999999,1002,0x0000,0x1B08
16.165160704000002,1002,0x0000,0x9014
16.165161204000000,1002,0x0000,0x0000
16.165161703999999,1002,0x0000,0x0000
16.165162204000001,1002,0x0000,0x0005
16.165162704000000,1002,0x0000,0x0000
16.165163203999999,1002,0x0000,0x0000
16.165163704000001,1002,0x0000,0x0000
16.165164204000000,1002,0x0000,0x0000
16.165164703999999,1002,0x0000,0x0000
16.165165204000001,1002,0x0000,0x0000
16.165165704000000,1002,0x0000,0x0000
16.165166203999998,1002,0x0000,0x0000
16.165166704000001,1002,0x0000,0x0000
16.165167203999999,1002,0x0000,0x0000
16.165167704000002,1002,0x0000,0x0000
16.165168204000000,1002,0x0000,0x0000
16.165168703999999,1002,0x0000,0x0000
16.165169204000001,1002,0x0000,0x0000
16.165169704000000,1002,0x0000,0x0000
16.165170203999999,1002,0x0000,0x0000
16.165170704000001,1002,0x0000,0x0000
16.165171204000000,1002,0x0000,0x0000
16.165171703999999,1002,0x0000,0x0000
16.165172204000001,1002,0x0000,0x0602
16.165172704000000,1002,0x0000,0x0000
16.165173203999998,1002,0x0000,0x130C
16.165173704000001,1002,0x0000,0x0001
16.165174203999999,1002,0x0000,0x0101
16.165174703999998,1002,0x0000,0x0602
16.165298828000001,1003,0xCC00,0x0202
16.165316078000000,1004,0x0000,0x0460
16.165334548000001,1005,0xC300,0x6060
16.165349360000000,1006,0x0000,0x0000
16.165367610000001,1007,0x4D00,0x0000
16.165382015999999,1008,0x001F,0x0000
16.209833964000001,1009,0xCC00,0x0000
16.209851151999999,1010,0x0000,0x0461
16.209870246000001,1011,0x4D00,0x6161
16.209884932000001,1012,0x001E,0x6161
16.209913963999998,1013,0xCC00,0x6161
16.209929089999999,1014,0x0000,0x0461
16.209946026000001,1015,0x4C00,0x6161
16.209960058000000,1016,0x0001,0x6161
16.209975931999999,1017,0xC300,0x6161
16.209990181999999,1018,0x0000,0x0040
16.210006870000001,1019,0xD400,0x4040
16.210021246000000,1020,0x0000,0x0102
16.210037589999999,1021,0xD500,0x0202
16.210055432000001,1022,0x0000,0x3600
16.210105431999999,1023,0x4100,0x0000
16.210120090000000,1024,0x0040,0x0000
16.210136181999999,1025,0x8FC0,0x0000
16.210180496000000,1026,0x0000,0x0201
16.210180995999998,1026,0x0000,0x0036
16.210181494000000,1026,0x0000,0x1C08
16.210181995999999,1026,0x0000,0x9014
16.210182494000001,1026,0x0000,0x0000
16.210182996000000,1026,0x0000,0x0000
16.210183495999999,1026,0x0000,0x0005
16.210183996000001,1026,0x0000,0x001F
16.210184496000000,1026,0x0000,0x0000
16.210184995999999,1026,0x0000,0x0000
16.210185496000001,1026,0x0000,0x0000
16.210185996000000,1026,0x0000,0x0000
16.210186495999999,1026,0x0000,0x0000
16.210186996000001,1026,0x0000,0x0000
16.210187496000000,1026,0x0000,0x0000
16.210187995999998,1026,0x0000,0x0000
16.210188496000001,1026,0x0000,0x0000
16.210188995999999,1026,0x0000,0x0000
16.210189494000002,1026,0x0000,0x0000
16.210189996000000,1026,0x0000,0x0000
16.210190493999999,1026,0x0000,0x0000
16.210190994000001,1026,0x0000,0x0000
16.210191496000000,1026,0x0000,0x0000
16.210191995999999,1026,0x0000,0x0000
16.210192494000001,1026,0x0000,0x0000
16.210192994000000,1026,0x0000,0x0000
16.210193493999999,1026,0x0000,0x0602
16.210193996000001,1026,0x0000,0x0000
16.210194496000000,1026,0x0000,0x130C
16.210194993999998,1026,0x0000,0x0001
16.210195496000001,1026,0x0000,0x0101
16.210195995999999,1026,0x0000,0x0602
16.210320213999999,1027,0xCC00,0x0202
16.210337152000001,1028,0x0000,0x0460
16.210355870000001,1029,0xC300,0x6060
16.210370714000000,1030,0x0000,0x0000
16.210388838000000,1031,0x4D00,0x0000
16.210403058000001,1032,0x001F,0x0000
16.340967590000002,1033,0xCC00,0x0000
16.340984777999999,1034,0x0000,0x0461
16.341003560000001,1035,0x4D00,0x6161
16.341018060000000,1036,0x001E,0x6161
16.341047622000001,1037,0xCC00,0x6161
16.341063089999999,1038,0x0000,0x0461
16.341080248000001,1039,0x4C00,0x6161
16.341094496000000,1040,0x0001,0x6161
16.341110371999999,1041,0xC300,0x6161
16.341124621999999,1042,0x0000,0x0040
16.341141340000000,1043,0xD400,0x4040
16.341155934000000,1044,0x0000,0x0102
16.341172371999999,1045,0xD500,0x0202
16.341186872000002,1046,0x0000,0x3600
16.341236840000001,1047,0x4100,0x0000
16.341251434000000,1048,0x0040,0x0000
16.341266965999999,1049,0x8FC0,0x0000
16.341311716000000,1050,0x0000,0x0201
16.341312215999999,1050,0x0000,0x0036
16.341312716000001,1050,0x0000,0x1D08
16.341313216000000,1050,0x0000,0x9014
16.341313715999998,1050,0x0000,0x0000
16.341314216000001,1050,0x0000,0x0000
16.341314715999999,1050,0x0000,0x0005
16.341315216000002,1050,0x0000,0x0000
16.341315716000000,1050,0x0000,0x0000
16.341316215999999,1050,0x0000,0x0000
16.341316716000001,1050,0x0000,0x0000
16.341317216000000,1050,0x0000,0x0000
16.341317715999999,1050,0x0000,0x0000
16.341318216000001,1050,0x0000,0x0000
16.341318716000000,1050,0x0000,0x0000
16.341319215999999,1050,0x0000,0x0000
16.341319716000001,1050,0x0000,0x0000
16.341320216000000,1050,0x0000,0x0000
16.341320715999998,1050,0x0000,0x0000
16.341321216000001,1050,0x0000,0x0000
16.341321715999999,1050,0x0000,0x0000
16.341322215999998,1050,0x0000,0x0000
16.341322716000001,1050,0x0000,0x0000
16.341323215999999,1050,0x0000,0x0000
16.341323716000002,1050,0x0000,0x0000
16.341324216000000,1050,0x0000,0x0000
16.341324715999999,1050,0x0000,0x0602
16.341325216000001,1050,0x0000,0x0000
16.341325716000000,1050,0x0000,0x130C
16.341326215999999,1050,0x0000,0x0001
16.341326716000001,1050,0x0000,0x0101
16.341327216000000,1050,0x0000,0x0602
16.341452528000001,1051,0xCC00,0x0202
16.341469121999999,1052,0x0000,0x0460
16.341487122000000,1053,0xC300,0x6060
16.341501778000001,1054,0x0000,0x0000
16.341520060000001,1055,0x4D00,0x0000
16.341534528000000,1056,0x001F,0x0000
16.387213882000001,1057,0xCC00,0x0000
16.387231226000001,1058,0x0000,0x0461
16.387250070000000,1059,0x4D00,0x6161
16.387264538000000,1060,0x001E,0x6161
16.387294382000000,1061,0xCC00,0x6161
16.387310070000002,1062,0x0000,0x0461
16.387327100000000,1063,0x4C00,0x6161
16.387341255999999,1064,0x0001,0x6161
16.387357225999999,1065,0xC300,0x6161
16.387371475999998,1066,0x0000,0x0040
16.387388132000002,1067,0xD400,0x4040
16.387402632000001,1068,0x0000,0x0102
16.387419162000000,1069,0xD500,0x0202
16.387433538000000,1070,0x0000,0x3600
16.387483320000001,1071,0x4100,0x0000
16.387498069999999,1072,0x0040,0x0000
16.387513976000001,1073,0x8FC0,0x0000
16.387558693999999,1074,0x0000,0x0201
16.387559194000001,1074,0x0000,0x0036
16.387559694000000,1074,0x0000,0x1E08
16.387560193999999,1074,0x0000,0x9014
16.387560694000001,1074,0x0000,0x0000
16.387561194000000,1074,0x0000,0x0000
16.387561693999999,1074,0x0000,0x0005
16.387562194000001,1074,0x0000,0x001F
16.387562694000000,1074,0x0000,0x0000
16.387563193999998,1074,0x0000,0x0000
16.387563694000001,1074,0x0000,0x0000
16.387564193999999,1074,0x0000,0x0000
16.387564694000002,1074,0x0000,0x0000
16.387565194000000,1074,0x0000,0x0000
16.387565693999999,1074,0x0000,0x0000
16.387566194000001,1074,0x0000,0x0000
16.387566694000000,1074,0x0000,0x0000
16.387567193999999,1074,0x0000,0x0000
16.387567694000001,1074,0x0000,0x0000
16.387568194000000,1074,0x0000,0x0000
16.387568693999999,1074,0x0000,0x0000
16.387569194000001,1074,0x0000,0x0000
16.387569694000000,1074,0x0000,0x0000
16.387570193999998,1074,0x0000,0x0000
16.387570694000001,1074,0x0000,0x0000
16.387571194000000,1074,0x0000,0x0000
16.387571693999998,1074,0x0000,0x0602
16.387572194000001,1074,0x0000,0x0000
16.387572693999999,1074,0x0000,0x130C
16.387573194000002,1074,0x0000,0x0001
16.387573694000000,1074,0x0000,0x0101
16.387574193999999,1074,0x0000,0x0602
16.387700100000000,1075,0xCC00,0x0202
16.387716726000001,1076,0x0000,0x0460
16.387734976000001,1077,0xC300,0x6060
16.387750006000001,1078,0x0000,0x0000
16.387768070000000,1079,0x4D00,0x0000
16.387782256000001,1080,0x001F,0x0000
16.517240946000001,1081,0xCC00,0x0000
16.517257978000000,1082,0x0000,0x0461
16.517276978000002,1083,0x4D00,0x6161
16.517291572000001,1084,0x001E,0x6161
16.517320695999999,1085,0xCC00,0x6161
16.517336071999999,1086,0x0000,0x0461
16.517353352000001,1087,0x4C00,0x6161
16.517367696000001,1088,0x0001,0x6161
16.517383696000000,1089,0xC300,0x6161
16.517398008000001,1090,0x0000,0x0040
16.517414695999999,1091,0xD400,0x4040
16.517429195999998,1092,0x0000,0x0102
16.517445664000000,1093,0xD500,0x0202
16.517460102000001,1094,0x0000,0x3600
16.517509946000001,1095,0x4100,0x0000
16.517524913999999,1096,0x0040,0x0000
16.517540633999999,1097,0x8FC0,0x0000
16.517585384000000,1098,0x0000,0x0201
16.517585883999999,1098,0x0000,0x0036
16.517586384000001,1098,0x0000,0x1F08
16.517586884000000,1098,0x0000,0x9014
16.517587383999999,1098,0x0000,0x0000
16.517587884000001,1098,0x0000,0x0000
16.517588384000000,1098,0x0000,0x0005
16.517588883999998,1098,0x0000,0x0000
16.517589384000001,1098,0x0000,0x0000
16.517589884000000,1098,0x0000,0x0000
16.517590383999998,1098,0x0000,0x0000
16.517590884000001,1098,0x0000,0x0000
16.517591383999999,1098,0x0000,0x0000
16.517591884000002,1098,0x0000,0x0000
16.517592384000000,1098,0x0000,0x0000
16.517592883999999,1098,0x0000,0x0000
16.517593384000001,1098,0x0000,0x0000
16.517593884000000,1098,0x0000,0x0000
16.517594383999999,1098,0x0000,0x0000
16.517594884000001,1098,0x0000,0x0000
16.517595384000000,1098,0x0000,0x0000
16.517595883999999,1098,0x0000,0x0000
16.517596384000001,1098,0x0000,0x0000
16.517596884000000,1098,0x0000,0x0000
16.517597383999998,1098,0x0000,0x0000
16.517597884000001,1098,0x0000,0x0000
16.517598383999999,1098,0x0000,0x0602
16.517598884000002,1098,0x0000,0x0000
16.517599384000000,1098,0x0000,0x130C
16.517599883999999,1098,0x0000,0x0001
16.517600384000001,1098,0x0000,0x0101
16.517600884000000,1098,0x0000,0x0602
16.517731007999998,1099,0xCC00,0x0202
16.517747664000002,1100,0x0000,0x0460
16.517766290000001,1101,0xC300,0x6060
16.517781257999999,1102,0x0000,0x0000
16.517799822000001,1103,0x4D00,0x0000
16.517814134000002,1104,0x001F,0x0000
16.562969800000001,1105,0xCC00,0x0000
16.562986737999999,1106,0x0000,0x0461
16.563006206000001,1107,0x4D00,0x6161
16.563020988000002,1108,0x001E,0x6161
16.563049862000000,1109,0xCC00,0x6161
16.563064988000001,1110,0x0000,0x0461
16.563082300000001,1111,0x4C00,0x6161
16.563096487999999,1112,0x0001,0x6161
16.563112206000000,1113,0xC300,0x6161
16.563126518000001,1114,0x0000,0x0040
16.563143144000001,1115,0xD400,0x4040
16.563157455999999,1116,0x0000,0x0102
16.563173987999999,1117,0xD500,0x0202
16.563188518000000,1118,0x0000,0x3600
16.563238299999998,1119,0x4100,0x0000
16.563253205999999,1120,0x0040,0x0000
16.563269143999999,1121,0x8FC0,0x0000
16.563313705999999,1122,0x0000,0x0201
16.563314206000001,1122,0x0000,0x0036
16.563314706000000,1122,0x0000,0x2008
16.563315205999999,1122,0x0000,0x9014
16.563315706000001,1122,0x0000,0x0000
16.563316206000000,1122,0x0000,0x0000
16.563316705999998,1122,0x0000,0x0005
16.563317206000001,1122,0x0000,0x001F
16.563317705999999,1122,0x0000,0x0000
16.563318206000002,1122,0x0000,0x0000
16.563318706000000,1122,0x0000,0x0000
16.563319205999999,1122,0x0000,0x0000
16.563319706000001,1122,0x0000,0x0000
16.563320206000000,1122,0x0000,0x0000
16.563320705999999,1122,0x0000,0x0000
16.563321206000001,1122,0x0000,0x0000
16.563321706000000,1122,0x0000,0x0000
16.563322205999999,1122,0x0000,0x0000
16.563322706000001,1122,0x0000,0x0000
16.563323206000000,1122,0x0000,0x0000
16.563323705999998,1122,0x0000,0x0000
16.563324206000001,1122,0x0000,0x0000
16.563324706000000,1122,0x0000,0x0000
16.563325205999998,1122,0x0000,0x0000
16.563325706000001,1122,0x0000,0x0000
16.563326205999999,1122,0x0000,0x0000
16.563326706000002,1122,0x0000,0x0602
16.563327206000000,1122,0x0000,0x0000
16.563327705999999,1122,0x0000,0x130C
16.563328206000001,1122,0x0000,0x0001
16.563328706000000,1122,0x0000,0x0101
16.563329205999999,1122,0x0000,0x0602
16.563454830000001,1123,0xCC00,0x0202
16.563471706000001,1124,0x0000,0x0460
16.563490018000000,1125,0xC300,0x6060
16.563504861999998,1126,0x0000,0x0000
16.563523144000001,1127,0x4D00,0x0000
16.563537424000000,1128,0x001F,0x0000
16.692601675999999,1129,0xCC00,0x0000
16.692618614000001,1130,0x0000,0x0461
16.692637613999999,1131,0x4D00,0x6161
16.692652240000001,1132,0x001E,0x6161
16.692681363999998,1133,0xCC00,0x6161
16.692696489999999,1134,0x0000,0x0461
16.692713552000001,1135,0x4C00,0x6161
16.692727770000001,1136,0x0001,0x6161
16.692744051999998,1137,0xC300,0x6161
16.692758363999999,1138,0x0000,0x0040
16.692774990000000,1139,0xD400,0x4040
16.692789520000002,1140,0x0000,0x0102
16.692806019999999,1141,0xD500,0x0202
16.692820520000001,1142,0x0000,0x3600
16.692870708000001,1143,0x4100,0x0000
16.692885740000001,1144,0x0040,0x0000
16.692901519999999,1145,0x8FC0,0x0000
16.692946458000002,1146,0x0000,0x0201
16.692946958000000,1146,0x0000,0x0036
16.692947457999999,1146,0x0000,0x2108
16.692947958000001,1146,0x0000,0x9014
16.692948458000000,1146,0x0000,0x0000
16.692948957999999,1146,0x0000,0x0000
16.692949458000001,1146,0x0000,0x0005
16.692949958000000,1146,0x0000,0x0000
16.692950457999999,1146,0x0000,0x0000
16.692950958000001,1146,0x0000,0x0000
16.692951458000000,1146,0x0000,0x0000
16.692951957999998,1146,0x0000,0x0000
16.692952458000001,1146,0x0000,0x0000
16.692952957999999,1146,0x0000,0x0000
16.692953458000002,1146,0x0000,0x0000
16.692953958000000,1146,0x0000,0x0000
16.692954457999999,1146,0x0000,0x0000
16.692954958000001,1146,0x0000,0x0000
16.692955458000000,1146,0x0000,0x0000
16.692955957999999,1146,0x0000,0x0000
16.692956458000001,1146,0x0000,0x0000
16.692956958000000,1146,0x0000,0x0000
16.692957457999999,1146,0x0000,0x0000
16.692957958000001,1146,0x0000,0x0000
16.692958458000000,1146,0x0000,0x0000
16.692958957999998,1146,0x0000,0x0000
16.692959458000001,1146,0x0000,0x0602
16.692959957999999,1146,0x0000,0x0000
16.692960458000002,1146,0x0000,0x130C
16.692960958000000,1146,0x0000,0x0001
16.692961457999999,1146,0x0000,0x0101
16.692961958000001,1146,0x0000,0x0602
16.693087146000000,1147,0xCC00,0x0202
16.693103864000001,1148,0x0000,0x0460
16.693122551999998,1149,0xC300,0x6060
16.693137208000000,1150,0x0000,0x0000
16.693155396000002,1151,0x4D00,0x0000
16.693169738000002,1152,0x001F,0x0000
16.699713423999999,1153,0xCC00,0x0000
16.699730173999999,1154,0x0000,0x0461
16.699748767999999,1155,0x4D00,0x6161
16.699763141999998,1156,0x001E,0x6161
16.699791548000000,1157,0xCC00,0x6161
16.699806798000001,1158,0x0000,0x0461
16.699823674000001,1159,0x4C00,0x6161
16.699837953999999,1160,0x0001,0x6161
16.699853892000000,1161,0xC300,0x6161
16.699868142000000,1162,0x0000,0x0040
16.699884892000000,1163,0xD400,0x4040
16.699899204000001,1164,0x0000,0x0102
16.699915768000000,1165,0xD500,0x0202
16.699930110000000,1166,0x0000,0x3600
16.699979767999999,1167,0x4100,0x0000
16.699994673999999,1168,0x0040,0x0000
16.700010610000000,1169,0x8FC0,0x0000
16.700055016000000,1170,0x0000,0x0201
16.700055515999999,1170,0x0000,0x0036
16.700056016000001,1170,0x0000,0x2208
16.700056518000000,1170,0x0000,0x9014
16.700057015999999,1170,0x0000,0x0000
16.700057516000001,1170,0x0000,0x0000
16.700058016000000,1170,0x0000,0x0005
16.700058515999999,1170,0x0000,0x001F
16.700059016000001,1170,0x0000,0x0000
16.700059516000000,1170,0x0000,0x0000
16.700060015999998,1170,0x0000,0x0000
16.700060516000001,1170,0x0000,0x0000
16.700061015999999,1170,0x0000,0x0000
16.700061516000002,1170,0x0000,0x0000
16.700062016000000,1170,0x0000,0x0000
16.700062515999999,1170,0x0000,0x0000
16.700063016000001,1170,0x0000,0x0000
16.700063516000000,1170,0x0000,0x0000
16.700064015999999,1170,0x0000,0x0000
16.700064516000001,1170,0x0000,0x0000
16.700065016000000,1170,0x0000,0x0000
16.700065515999999,1170,0x0000,0x0000
16.700066016000001,1170,0x0000,0x0000
16.700066516000000,1170,0x0000,0x0000
16.700067015999998,1170,0x0000,0x0000
16.700067516000001,1170,0x0000,0x0000
16.700068015999999,1170,0x0000,0x0602
16.700068516000002,1170,0x0000,0x0000
16.700069016000000,1170,0x0000,0x130C
16.700069515999999,1170,0x0000,0x0001
16.700070016000002,1170,0x0000,0x0101
16.700070516000000,1170,0x0000,0x0602
16.700195674000000,1171,0xCC00,0x0202
16.700212329999999,1172,0x0000,0x0460
16.700230579999999,1173,0xC300,0x6060
16.700245515999999,1174,0x0000,0x0000
16.700263454000002,1175,0x4D00,0x0000
16.700278015999999,1176,0x001F,0x0000
16.828871520000000,1177,0xCC00,0x0000
16.828888800000001,1178,0x0000,0x0461
16.828907955999998,1179,0x4D00,0x6161
16.828922393999999,1180,0x001E,0x6161
16.828951770000000,1181,0xCC00,0x6161
16.828967049999999,1182,0x0000,0x0461
16.828984020000000,1183,0x4C00,0x6161
16.828998393999999,1184,0x0001,0x6161
16.829014361999999,1185,0xC300,0x6161
16.829028988000001,1186,0x0000,0x0040
16.829045426000000,1187,0xD400,0x4040
16.829059925999999,1188,0x0000,0x0102
16.829076361999999,1189,0xD500,0x0202
16.829090738000001,1190,0x0000,0x3600
16.829140517999999,1191,0x4100,0x0000
16.829155738000001,1192,0x0040,0x0000
16.829171425999998,1193,0x8FC0,0x0000
16.829215894000001,1194,0x0000,0x0201
16.829216393999999,1194,0x0000,0x0036
16.829216894000002,1194,0x0000,0x2308
16.829217394000000,1194,0x0000,0x9014
16.829217893999999,1194,0x0000,0x0000
16.829218394000002,1194,0x0000,0x0000
16.829218894000000,1194,0x0000,0x0005
16.829219393999999,1194,0x0000,0x0000
16.829219894000001,1194,0x0000,0x0000
16.829220394000000,1194,0x0000,0x0000
16.829220893999999,1194,0x0000,0x0000
16.829221394000001,1194,0x0000,0x0000
16.829221894000000,1194,0x0000,0x0000
16.829222393999999,1194,0x0000,0x0000
16.829222894000001,1194,0x0000,0x0000
16.829223394000000,1194,0x0000,0x0000
16.829223893999998,1194,0x0000,0x0000
16.829224394000001,1194,0x0000,0x0000
16.829224893999999,1194,0x0000,0x0000
16.829225394000002,1194,0x0000,0x0000
16.829225894000000,1194,0x0000,0x0000
16.829226393999999,1194,0x0000,0x0000
16.829226894000001,1194,0x0000,0x0000
16.829227394000000,1194,0x0000,0x0000
16.829227893999999,1194,0x0000,0x0000
16.829228394000001,1194,0x0000,0x0000
16.829228894000000,1194,0x0000,0x0602
16.829229393999999,1194,0x0000,0x0000
16.829229894000001,1194,0x0000,0x130C
16.829230394000000,1194,0x0000,0x0001
16.829230893999998,1194,0x0000,0x0101
16.829231394000001,1194,0x0000,0x0602
16.829360049999998,1195,0xCC00,0x0202
16.829377082000001,1196,0x0000,0x0460
16.829395267999999,1197,0xC300,0x6060
16.829410362000001,1198,0x0000,0x0000
16.829428988000000,1199,0x4D00,0x0000
16.829443644000001,1200,0x001F,0x0000
16.875416122000001,1201,0xCC00,0x0000
16.875433621999999,1202,0x0000,0x0461
16.875452809999999,1203,0x4D00,0x6161
16.875467684000000,1204,0x001E,0x6161
16.875496810000001,1205,0xCC00,0x6161
16.875511748000001,1206,0x0000,0x0461
16.875529092000001,1207,0x4C00,0x6161
16.875543621999999,1208,0x0001,0x6161
16.875559716000001,1209,0xC300,0x6161
16.875574184000001,1210,0x0000,0x0040
16.875590840000001,1211,0xD400,0x4040
16.875605216000000,1212,0x0000,0x0102
16.875621528000000,1213,0xD500,0x0202
16.875636027999999,1214,0x0000,0x3600
16.875685560000001,1215,0x4100,0x0000
16.875700810000001,1216,0x0040,0x0000
16.875716872000002,1217,0x8FC0,0x0000
16.875761340000000,1218,0x0000,0x0201
16.875761839999999,1218,0x0000,0x0036
16.875762340000001,1218,0x0000,0x2408
16.875762840000000,1218,0x0000,0x9014
16.875763339999999,1218,0x0000,0x0000
16.875763840000001,1218,0x0000,0x0000
16.875764340000000,1218,0x0000,0x0005
16.875764839999999,1218,0x0000,0x001F
16.875765340000001,1218,0x0000,0x0000
16.875765840000000,1218,0x0000,0x0000
16.875766339999998,1218,0x0000,0x0000
16.875766840000001,1218,0x0000,0x0000
16.875767339999999,1218,0x0000,0x0000
16.875767840000002,1218,0x0000,0x0000
16.875768340000000,1218,0x0000,0x0000
16.875768839999999,1218,0x0000,0x0000
16.875769340000002,1218,0x0000,0x0000
16.875769840000000,1218,0x0000,0x0000
16.875770339999999,1218,0x0000,0x0000
16.875770840000001,1218,0x0000,0x0000
16.875771340000000,1218,0x0000,0x0000
16.875771839999999,1218,0x0000,0x0000
16.875772340000001,1218,0x0000,0x0000
16.875772840000000,1218,0x0000,0x0000
16.875773339999999,1218,0x0000,0x0000
16.875773840000001,1218,0x0000,0x0000
16.875774340000000,1218,0x0000,0x0602
16.875774839999998,1218,0x0000,0x0000
16.875775340000001,1218,0x0000,0x130C
16.875775839999999,1218,0x0000,0x0001
16.875776340000002,1218,0x0000,0x0101
16.875776840000000,1218,0x0000,0x0602
16.875900966000000,1219,0xCC00,0x0202
16.875917434000002,1220,0x0000,0x0460
16.875935840000000,1221,0xC300,0x6060
16.875950904000000,1222,0x0000,0x0000
16.875969340000001,1223,0x4D00,0x0000
16.875983934000001,1224,0x001F,0x0000
17.005996560000000,1225,0xCC00,0x0000
17.006013717999998,1226,0x0000,0x0461
17.006036686000002,1227,0x4D00,0x6161
17.006051247999999,1228,0x001E,0x6161
17.006080560000001,1229,0xCC00,0x6161
17.006095748000000,1230,0x0000,0x0461
17.006113123999999,1231,0x4C00,0x6161
17.006127436000000,1232,0x0001,0x6161
17.006143498000000,1233,0xC300,0x6161
17.006157810000001,1234,0x0000,0x0040
17.006174403999999,1235,0xD400,0x4040
17.006188779999999,1236,0x0000,0x0102
17.006205309999999,1237,0xD500,0x0202
17.006219716000000,1238,0x0000,0x3600
17.006269092000000,1239,0x4100,0x0000
17.006283904000000,1240,0x0040,0x0000
17.006299530000000,1241,0x8FC0,0x0000
17.006344248000001,1242,0x0000,0x0201
17.006344748000000,1242,0x0000,0x0036
17.006345247999999,1242,0x0000,0x2508
17.006345748000001,1242,0x0000,0x9014
17.006346248000000,1242,0x0000,0x0000
17.006346747999999,1242,0x0000,0x0000
17.006347248000001,1242,0x0000,0x0005
17.006347748000000,1242,0x0000,0x0000
17.006348247999998,1242,0x0000,0x0000
17.006348748000001,1242,0x0000,0x0000
17.006349247999999,1242,0x0000,0x0000
17.006349748000002,1242,0x0000,0x0000
17.006350248000000,1242,0x0000,0x0000
17.006350747999999,1242,0x0000,0x0000
17.006351248000001,1242,0x0000,0x0000
17.006351748000000,1242,0x0000,0x0000
17.006352247999999,1242,0x0000,0x0000
17.006352748000001,1242,0x0000,0x0000
17.006353248000000,1242,0x0000,0x0000
17.006353747999999,1242,0x0000,0x0000
17.006354248000001,1242,0x0000,0x0000
17.006354748000000,1242,0x0000,0x0000
17.006355247999998,1242,0x0000,0x0000
17.006355748000001,1242,0x0000,0x0000
17.006356247999999,1242,0x0000,0x0000
17.006356748000002,1242,0x0000,0x0000
17.006357248000000,1242,0x0000,0x0602
17.006357747999999,1242,0x0000,0x0000
17.006358248000002,1242,0x0000,0x130C
17.006358748000000,1242,0x0000,0x0001
17.006359247999999,1242,0x0000,0x0101
17.006359748000001,1242,0x0000,0x0602
17.006485059999999,1243,0xCC00,0x0202
17.006501686000000,1244,0x0000,0x0460
17.006519841999999,1245,0xC300,0x6060
17.006534404000000,1246,0x0000,0x0000
17.006552809999999,1247,0x4D00,0x0000
17.006567153999999,1248,0x001F,0x0000
17.322283442000000,1249,0xCC00,0x0000
17.322300848000001,1250,0x0000,0x0461
17.322320567999999,1251,0x4D00,0x6161
17.322335129999999,1252,0x001E,0x6161
17.322364912000001,1253,0xCC00,0x6161
17.322379880000000,1254,0x0000,0x0461
17.322397036000002,1255,0x4C00,0x6161
17.322411286000001,1256,0x0001,0x6161
17.322427191999999,1257,0xC300,0x6161
17.322441567999999,1258,0x0000,0x0040
17.322458535999999,1259,0xD400,0x4040
17.322476754000000,1260,0x0000,0x0102
17.322493317999999,1261,0xD500,0x0202
17.322507848000001,1262,0x0000,0x3600
17.322557973999999,1263,0x4100,0x0000
17.322573003999999,1264,0x0040,0x0000
17.322589067999999,1265,0x8FC0,0x0000
17.322633912000001,1266,0x0000,0x0201
17.322634411999999,1266,0x0000,0x0036
17.322634910000001,1266,0x0000,0x2608
17.322635412000000,1266,0x0000,0x9014
17.322635909999999,1266,0x0000,0x0000
17.322636412000001,1266,0x0000,0x0000
17.322636912000000,1266,0x0000,0x0005
17.322637411999999,1266,0x0000,0x001F
17.322637912000001,1266,0x0000,0x0000
17.322638412000000,1266,0x0000,0x0000
17.322638911999999,1266,0x0000,0x0000
17.322639412000001,1266,0x0000,0x0000
17.322639912000000,1266,0x0000,0x0000
17.322640411999998,1266,0x0000,0x0000
17.322640912000001,1266,0x0000,0x0000
17.322641411999999,1266,0x0000,0x0000
17.322641912000002,1266,0x0000,0x0000
17.322642412000000,1266,0x0000,0x0000
17.322642911999999,1266,0x0000,0x0000
17.322643412000001,1266,0x0000,0x0000
17.322643910000000,1266,0x0000,0x0000
17.322644409999999,1266,0x0000,0x0000
17.322644910000001,1266,0x0000,0x0000
17.322645410000000,1266,0x0000,0x0000
17.322645909999999,1266,0x0000,0x0000
17.322646410000001,1266,0x0000,0x0000
17.322646910000000,1266,0x0000,0x0602
17.322647409999998,1266,0x0000,0x0000
17.322647912000001,1266,0x0000,0x130C
17.322648409999999,1266,0x0000,0x0001
17.322648911999998,1266,0x0000,0x0101
17.322649412000001,1266,0x0000,0x0602
17.322774347999999,1267,0xCC00,0x0202
17.322791380000002,1268,0x0000,0x0460
17.322809379999999,1269,0xC300,0x6060
17.322824098000002,1270,0x0000,0x0000
17.322842192000000,1271,0x4D00,0x0000
17.322856536000000,1272,0x001F,0x0000
17.548725772000001,1273,0xCC00,0x0000
17.548742772000001,1274,0x0000,0x0461
17.548761804000002,1275,0x4D00,0x6161
17.548776210000000,1276,0x001E,0x6161
17.548805959999999,1277,0xCC00,0x6161
17.548821147999998,1278,0x0000,0x0461
17.548838241999999,1279,0x4C00,0x6161
17.548852585999999,1280,0x0001,0x6161
17.548868616000000,1281,0xC300,0x6161
17.548882928000001,1282,0x0000,0x0040
17.548899460000001,1283,0xD400,0x4040
17.548914086000000,1284,0x0000,0x0102
17.548930460000001,1285,0xD500,0x0202
17.548944960000000,1286,0x0000,0x3600
17.548995086000001,1287,0x4100,0x0000
17.549009865999999,1288,0x0040,0x0000
17.549025491999998,1289,0x8FC0,0x0000
17.549074021999999,1290,0x0000,0x0201
17.549074522000002,1290,0x0000,0x0036
17.549075022000000,1290,0x0000,0x2708
17.549075521999999,1290,0x0000,0x9014
17.549076022000001,1290,0x0000,0x0000
17.549076522000000,1290,0x0000,0x0000
17.549077021999999,1290,0x0000,0x0005
17.549077522000001,1290,0x0000,0x0000
17.549078022000000,1290,0x0000,0x0000
17.549078521999999,1290,0x0000,0x0000
17.549079022000001,1290,0x0000,0x0000
17.549079522000000,1290,0x0000,0x0000
17.549080021999998,1290,0x0000,0x0000
17.549080522000001,1290,0x0000,0x0000
17.549081021999999,1290,0x0000,0x0000
17.549081522000002,1290,0x0000,0x0000
17.549082022000000,1290,0x0000,0x0000
17.549082521999999,1290,0x0000,0x0000
17.549083022000001,1290,0x0000,0x0000
17.549083522000000,1290,0x0000,0x0000
17.549084021999999,1290,0x0000,0x0000
17.549084522000001,1290,0x0000,0x0000
17.549085022000000,1290,0x0000,0x0000
17.549085521999999,1290,0x0000,0x0000
17.549086022000001,1290,0x0000,0x0000
17.549086522000000,1290,0x0000,0x0000
17.549087021999998,1290,0x0000,0x0602
17.549087522000001,1290,0x0000,0x0000
17.549088021999999,1290,0x0000,0x130C
17.549088522000002,1290,0x0000,0x0001
17.549089022000000,1290,0x0000,0x0101
17.549089521999999,1290,0x0000,0x0602
17.549215333999999,1291,0xCC00,0x0202
17.549232178000000,1292,0x0000,0x0460
17.549250460000000,1293,0xC300,0x6060
17.549265177999999,1294,0x0000,0x0000
17.549283398000000,1295,0x4D00,0x0000
17.549297648000000,1296,0x001F,0x0000
17.872536180000001,1297,0xCC00,0x0000
17.872553494000002,1298,0x0000,0x0461
17.872572930000000,1299,0x4D00,0x6161
17.872587180000000,1300,0x001E,0x6161
17.872616055999998,1301,0xCC00,0x6161
17.872631368000000,1302,0x0000,0x0461
17.872648774000002,1303,0x4C00,0x6161
17.872663244000002,1304,0x0001,0x6161
17.872679024000000,1305,0xC300,0x6161
17.872693399999999,1306,0x0000,0x0040
17.872709900000000,1307,0xD400,0x4040
17.872724179999999,1308,0x0000,0x0102
17.872740493999999,1309,0xD500,0x0202
17.872754774000001,1310,0x0000,0x3600
17.872804494000000,1311,0x4100,0x0000
17.872819430000000,1312,0x0040,0x0000
17.872835179999999,1313,0x8FC0,0x0000
17.872880244000001,1314,0x0000,0x0201
17.872880744000000,1314,0x0000,0x0036
17.872881241999998,1314,0x0000,0x2808
17.872881744000001,1314,0x0000,0x9014
17.872882243999999,1314,0x0000,0x0000
17.872882744000002,1314,0x0000,0x0000
17.872883242000000,1314,0x0000,0x0005
17.872883743999999,1314,0x0000,0x001F
17.872884242000001,1314,0x0000,0x0000
17.872884742000000,1314,0x0000,0x0000
17.872885241999999,1314,0x0000,0x0000
17.872885744000001,1314,0x0000,0x0000
17.872886244000000,1314,0x0000,0x0000
17.872886741999999,1314,0x0000,0x0000
17.872887242000001,1314,0x0000,0x0000
17.872887744000000,1314,0x0000,0x0000
17.872888243999999,1314,0x0000,0x0000
17.872888742000001,1314,0x0000,0x0000
17.872889241999999,1314,0x0000,0x0000
17.872889742000002,1314,0x0000,0x0000
17.872890242000000,1314,0x0000,0x0000
17.872890741999999,1314,0x0000,0x0000
17.872891242000001,1314,0x0000,0x0000
17.872891742000000,1314,0x0000,0x0000
17.872892241999999,1314,0x0000,0x0000
17.872892744000001,1314,0x0000,0x0000
17.872893242000000,1314,0x0000,0x0602
17.872893741999999,1314,0x0000,0x0000
17.872894242000001,1314,0x0000,0x130C
17.872894742000000,1314,0x0000,0x0001
17.872895241999998,1314,0x0000,0x0101
17.872895742000001,1314,0x0000,0x0602
17.873021024000000,1315,0xCC00,0x0202
17.873037679999999,1316,0x0000,0x0460
17.873056118000001,1317,0xC300,0x6060
17.873071368000002,1318,0x0000,0x0000
17.873089711999999,1319,0x4D00,0x0000
17.873103994000001,1320,0x001F,0x0000
17.970065634000001,1321,0xCC00,0x0000
17.970083102000000,1322,0x0000,0x0461
17.970102602000001,1323,0x4D00,0x6161
17.970117322000000,1324,0x001E,0x6161
17.970146666000002,1325,0xCC00,0x6161
17.970161946000001,1326,0x0000,0x0461
17.970179133999999,1327,0x4C00,0x6161
17.970193446000000,1328,0x0001,0x6161
17.970209415999999,1329,0xC300,0x6161
17.970223822000001,1330,0x0000,0x0040
17.970240445999998,1331,0xD400,0x4040
17.970254822000001,1332,0x0000,0x0102
17.970271415999999,1333,0xD500,0x0202
17.970285759999999,1334,0x0000,0x3600
17.970334884000000,1335,0x4100,0x0000
17.970349666000001,1336,0x0040,0x0000
17.970365478000002,1337,0x8FC0,0x0000
17.970410416000000,1338,0x0000,0x0201
17.970410915999999,1338,0x0000,0x0036
17.970411416000001,1338,0x0000,0x2908
17.970411916000000,1338,0x0000,0x9014
17.970412415999999,1338,0x0000,0x0000
17.970412916000001,1338,0x0000,0x0000
17.970413413999999,1338,0x0000,0x0005
17.970413915999998,1338,0x0000,0x0000
17.970414416000001,1338,0x0000,0x0000
17.970414915999999,1338,0x0000,0x0000
17.970415416000002,1338,0x0000,0x0000
17.970415916000000,1338,0x0000,0x0000
17.970416413999999,1338,0x0000,0x0000
17.970416916000001,1338,0x0000,0x0000
17.970417416000000,1338,0x0000,0x0000
17.970417915999999,1338,0x0000,0x0000
17.970418416000001,1338,0x0000,0x0000
17.970418916000000,1338,0x0000,0x0000
17.970419413999998,1338,0x0000,0x0000
17.970419916000001,1338,0x0000,0x0000
17.970420416000000,1338,0x0000,0x0000
17.970420914000002,1338,0x0000,0x0000
17.970421414000000,1338,0x0000,0x0000
17.970421913999999,1338,0x0000,0x0000
17.970422414000002,1338,0x0000,0x0000
17.970422914000000,1338,0x0000,0x0000
17.970423415999999,1338,0x0000,0x0602
17.970423914000001,1338,0x0000,0x0000
17.970424416000000,1338,0x0000,0x130C
17.970424913999999,1338,0x0000,0x0001
17.970425416000001,1338,0x0000,0x0101
17.970425914000000,1338,0x0000,0x0602
17.970551102000002,1339,0xCC00,0x0202
17.970567884000001,1340,0x0000,0x0461
17.970585696000001,1341,0x4C00,0x6161
17.970600321999999,1342,0x0001,0x6161
17.970616602000000,1343,0xC300,0x6161
17.970631101999999,1344,0x0000,0x0000
17.970649166000001,1345,0x4D00,0x0000
17.970663540000000,1346,0x001F,0x0000
18.364724255999999,1347,0xCC00,0x0000
18.364741693999999,1348,0x0000,0x0461
18.364760600000000,1349,0x4D00,0x6161
18.364775443999999,1350,0x001E,0x6161
18.364804882000001,1351,0xCC00,0x6161
18.364820256000002,1352,0x0000,0x0461
18.364837756000000,1353,0x4C00,0x6161
18.364852226000000,1354,0x0001,0x6161
18.364868288000000,1355,0xC300,0x6161
18.364882819999998,1356,0x0000,0x0040
18.364899538000000,1357,0xD400,0x4040
18.364913944000001,1358,0x0000,0x0102
18.364930256000001,1359,0xD500,0x0202
18.364944693999998,1360,0x0000,0x3600
18.364994287999998,1361,0x4100,0x0000
18.365009288000000,1362,0x0040,0x0000
18.365025194000001,1363,0x8FC0,0x0000
18.365069788000000,1364,0x0000,0x0201
18.365070287999998,1364,0x0000,0x0036
18.365070788000001,1364,0x0000,0x2A08
18.365071287999999,1364,0x0000,0x9014
18.365071788000002,1364,0x0000,0x0000
18.365072288000000,1364,0x0000,0x0000
18.365072787999999,1364,0x0000,0x0005
18.365073288000001,1364,0x0000,0x001F
18.365073788000000,1364,0x0000,0x0000
18.365074287999999,1364,0x0000,0x0000
18.365074788000001,1364,0x0000,0x0000
18.365075288000000,1364,0x0000,0x0000
18.365075787999999,1364,0x0000,0x0000
18.365076288000001,1364,0x0000,0x0000
18.365076788000000,1364,0x0000,0x0000
18.365077287999998,1364,0x0000,0x0000
18.365077788000001,1364,0x0000,0x0000
18.365078287999999,1364,0x0000,0x0000
18.365078788000002,1364,0x0000,0x0000
18.365079288000000,1364,0x0000,0x0000
18.365079787999999,1364,0x0000,0x0000
18.365080288000001,1364,0x0000,0x0000
18.365080788000000,1364,0x0000,0x0000
18.365081287999999,1364,0x0000,0x0000
18.365081788000001,1364,0x0000,0x0000
18.365082288000000,1364,0x0000,0x0000
18.365082787999999,1364,0x0000,0x0602
18.365083288000001,1364,0x0000,0x0000
18.365083788000000,1364,0x0000,0x130C
18.365084287999998,1364,0x0000,0x0001
18.365084788000001,1364,0x0000,0x0101
18.365085288000000,1364,0x0000,0x0602
18.365209944000000,1365,0xCC00,0x0202
18.365226849999999,1366,0x0000,0x0460
18.365245131999998,1367,0xC300,0x6060
18.365259693999999,1368,0x0000,0x0000
18.365277882000001,1369,0x4D00,0x0000
18.365292161999999,1370,0x001F,0x0000
18.660452738000000,1371,0xCC00,0x0000
18.660469832000000,1372,0x0000,0x0461
18.660488957999998,1373,0x4D00,0x6161
18.660507582000001,1374,0x001E,0x6161
18.660537550000001,1375,0xCC00,0x6161
18.660553144000001,1376,0x0000,0x0461
18.660570675999999,1377,0x4C00,0x6161
18.660585143999999,1378,0x0001,0x6161
18.660600894000002,1379,0xC300,0x6161
18.660615394000001,1380,0x0000,0x0040
18.660632488000001,1381,0xD400,0x4040
18.660647019999999,1382,0x0000,0x0102
18.660663457999998,1383,0xD500,0x0202
18.660677926000002,1384,0x0000,0x3600
18.660727770000001,1385,0x4100,0x0000
18.660742551999999,1386,0x0040,0x0000
18.660758082000001,1387,0x8FC0,0x0000
18.660802832000002,1388,0x0000,0x0201
18.660803332000000,1388,0x0000,0x0036
18.660803831999999,1388,0x0000,0x2B08
18.660804332000001,1388,0x0000,0x9014
18.660804832000000,1388,0x0000,0x0000
18.660805331999999,1388,0x0000,0x0000
18.660805832000001,1388,0x0000,0x0005
18.660806332000000,1388,0x0000,0x0000
18.660806831999999,1388,0x0000,0x0000
18.660807332000001,1388,0x0000,0x0000
18.660807832000000,1388,0x0000,0x0000
18.660808331999998,1388,0x0000,0x0000
18.660808832000001,1388,0x0000,0x0000
18.660809331999999,1388,0x0000,0x0000
18.660809832000002,1388,0x0000,0x0000
18.660810332000000,1388,0x0000,0x0000
18.660810831999999,1388,0x0000,0x0000
18.660811332000002,1388,0x0000,0x0000
18.660811832000000,1388,0x0000,0x0000
18.660812331999999,1388,0x0000,0x0000
18.660812832000001,1388,0x0000,0x0000
18.660813332000000,1388,0x0000,0x0000
18.660813831999999,1388,0x0000,0x0000
18.660814332000001,1388,0x0000,0x0000
18.660814832000000,1388,0x0000,0x0000
18.660815331999999,1388,0x0000,0x0000
18.660815832000001,1388,0x0000,0x0602
18.660816332000000,1388,0x0000,0x0000
18.660816831999998,1388,0x0000,0x130C
18.660817332000001,1388,0x0000,0x0001
18.660817831999999,1388,0x0000,0x0101
18.660818332000002,1388,0x0000,0x0602
18.660943457999998,1389,0xCC00,0x0202
18.660960582000001,1390,0x0000,0x0460
18.660978958000001,1391,0xC300,0x6060
18.660993644000001,1392,0x0000,0x0000
18.661011800000001,1393,0x4D00,0x0000
18.661025926000001,1394,0x001F,0x0000
18.881009662000000,1395,0xCC00,0x0000
18.881026943999998,1396,0x0000,0x0461
18.881046349999998,1397,0x4D00,0x6161
18.881060976000001,1398,0x001E,0x6161
18.881090694000001,1399,0xCC00,0x6161
18.881105726000001,1400,0x0000,0x0461
18.881122600000001,1401,0x4C00,0x6161
18.881136911999999,1402,0x0001,0x6161
18.881152820000001,1403,0xC300,0x6161
18.881167099999999,1404,0x0000,0x0040
18.881183568000001,1405,0xD400,0x4040
18.881197944000000,1406,0x0000,0x0102
18.881214256000000,1407,0xD500,0x0202
18.881232694000001,1408,0x0000,0x3600
18.881282662000000,1409,0x4100,0x0000
18.881297755999999,1410,0x0040,0x0000
18.881313599999999,1411,0x8FC0,0x0000
18.881358037999998,1412,0x0000,0x0201
18.881358538000001,1412,0x0000,0x0036
18.881359037999999,1412,0x0000,0x2C08
18.881359538000002,1412,0x0000,0x9014
18.881360038000000,1412,0x0000,0x0000
18.881360537999999,1412,0x0000,0x0000
18.881361038000001,1412,0x0000,0x0005
18.881361538000000,1412,0x0000,0x001F
18.881362037999999,1412,0x0000,0x0000
18.881362538000001,1412,0x0000,0x0000
18.881363038000000,1412,0x0000,0x0000
18.881363537999999,1412,0x0000,0x0000
18.881364038000001,1412,0x0000,0x0000
18.881364538000000,1412,0x0000,0x0000
18.881365037999998,1412,0x0000,0x0000
18.881365538000001,1412,0x0000,0x0000
18.881366037999999,1412,0x0000,0x0000
18.881366538000002,1412,0x0000,0x0000
18.881367038000000,1412,0x0000,0x0000
18.881367537999999,1412,0x0000,0x0000
18.881368038000002,1412,0x0000,0x0000
18.881368538000000,1412,0x0000,0x0000
18.881369037999999,1412,0x0000,0x0000
18.881369538000001,1412,0x0000,0x0000
18.881370038000000,1412,0x0000,0x0000
18.881370537999999,1412,0x0000,0x0000
18.881371038000001,1412,0x0000,0x0602
18.881371538000000,1412,0x0000,0x0000
18.881372037999999,1412,0x0000,0x130C
18.881372538000001,1412,0x0000,0x0001
18.881373038000000,1412,0x0000,0x0101
18.881373537999998,1412,0x0000,0x0602
18.881497788000001,1413,0xCC00,0x0202
18.881514161999998,1414,0x0000,0x0460
18.881532350000001,1415,0xC300,0x6060
18.881547223999998,1416,0x0000,0x0000
18.881565788000000,1417,0x4D00,0x0000
18.881580100000001,1418,0x001F,0x0000
19.068828757999999,1419,0xCC00,0x0000
19.068846134000001,1420,0x0000,0x0461
19.068865477999999,1421,0x4D00,0x6161
19.068880134000000,1422,0x001E,0x6161
19.068908946000001,1423,0xCC00,0x6161
19.068924414000001,1424,0x0000,0x0461
19.068941322000001,1425,0x4C00,0x6161
19.068955446000000,1426,0x0001,0x6161
19.068971478000002,1427,0xC300,0x6161
19.068985758000000,1428,0x0000,0x0040
19.069002414000000,1429,0xD400,0x4040
19.069016728000001,1430,0x0000,0x0102
19.069033008000002,1431,0xD500,0x0202
19.069047384000001,1432,0x0000,0x3600
19.069097257999999,1433,0x4100,0x0000
19.069112228000002,1434,0x0040,0x0000
19.069128134000000,1435,0x8FC0,0x0000
19.069172728000002,1436,0x0000,0x0201
19.069173228000000,1436,0x0000,0x0036
19.069173725999999,1436,0x0000,0x2D08
19.069174228000001,1436,0x0000,0x9014
19.069174728000000,1436,0x0000,0x0000
19.069175225999999,1436,0x0000,0x0000
19.069175728000001,1436,0x0000,0x0005
19.069176226000000,1436,0x0000,0x0000
19.069176725999998,1436,0x0000,0x0000
19.069177226000001,1436,0x0000,0x0000
19.069177725999999,1436,0x0000,0x0000
19.069178225999998,1436,0x0000,0x0000
19.069178728000001,1436,0x0000,0x0000
19.069179227999999,1436,0x0000,0x0000
19.069179726000002,1436,0x0000,0x0000
19.069180226000000,1436,0x0000,0x0000
19.069180725999999,1436,0x0000,0x0000
19.069181228000001,1436,0x0000,0x0000
19.069181726000000,1436,0x0000,0x0000
19.069182225999999,1436,0x0000,0x0000
19.069182726000001,1436,0x0000,0x0000
19.069183226000000,1436,0x0000,0x0000
19.069183725999999,1436,0x0000,0x0000
19.069184226000001,1436,0x0000,0x0000
19.069184726000000,1436,0x0000,0x0000
19.069185225999998,1436,0x0000,0x0000
19.069185726000001,1436,0x0000,0x0602
19.069186225999999,1436,0x0000,0x0000
19.069186726000002,1436,0x0000,0x130C
19.069187226000000,1436,0x0000,0x0001
19.069187725999999,1436,0x0000,0x0101
19.069188228000002,1436,0x0000,0x0602
19.069312539999999,1437,0xCC00,0x0202
19.069329196000002,1438,0x0000,0x0460
19.069347384000000,1439,0xC300,0x6060
19.069362101999999,1440,0x0000,0x0000
19.069380477999999,1441,0x4D00,0x0000
19.069394601999999,1442,0x001F,0x0000
19.476667683999999,1443,0xCC00,0x0000
19.476684995999999,1444,0x0000,0x0461
19.476704089999998,1445,0x4D00,0x6161
19.476718808000001,1446,0x001E,0x6161
19.476747933999999,1447,0xCC00,0x6161
19.476763278000000,1448,0x0000,0x0461
19.476780496000000,1449,0x4C00,0x6161
19.476794869999999,1450,0x0001,0x6161
19.476810652000001,1451,0xC300,0x6161
19.476824902000001,1452,0x0000,0x0040
19.476841684000000,1453,0xD400,0x4040
19.476856120000001,1454,0x0000,0x0102
19.476872526000001,1455,0xD500,0x0202
19.476886902000000,1456,0x0000,0x3600
19.476936433999999,1457,0x4100,0x0000
19.476951027999998,1458,0x0040,0x0000
19.476966714000000,1459,0x8FC0,0x0000
19.477015307999999,1460,0x0000,0x0201
19.477015808000001,1460,0x0000,0x0036
19.477016308000000,1460,0x0000,0x2E08
19.477016807999998,1460,0x0000,0x9014
19.477017308000001,1460,0x0000,0x0000
19.477017807999999,1460,0x0000,0x0000
19.477018308000002,1460,0x0000,0x0005
19.477018808000000,1460,0x0000,0x001F
19.477019307999999,1460,0x0000,0x0000
19.477019808000001,1460,0x0000,0x0000
19.477020308000000,1460,0x0000,0x0000
19.477020807999999,1460,0x0000,0x0000
19.477021308000001,1460,0x0000,0x0000
19.477021808000000,1460,0x0000,0x0000
19.477022307999999,1460,0x0000,0x0000
19.477022808000001,1460,0x0000,0x0000
19.477023308000000,1460,0x0000,0x0000
19.477023807999998,1460,0x0000,0x0000
19.477024308000001,1460,0x0000,0x0000
19.477024807999999,1460,0x0000,0x0000
19.477025308000002,1460,0x0000,0x0000
19.477025808000000,1460,0x0000,0x0000
19.477026307999999,1460,0x0000,0x0000
19.477026808000002,1460,0x0000,0x0000
19.477027308000000,1460,0x0000,0x0000
19.477027807999999,1460,0x0000,0x0000
19.477028308000001,1460,0x0000,0x0602
19.477028808000000,1460,0x0000,0x0000
19.477029307999999,1460,0x0000,0x130C
19.477029808000001,1460,0x0000,0x0001
19.477030308000000,1460,0x0000,0x0101
19.477030807999999,1460,0x0000,0x0602
19.477155746000001,1461,0xCC00,0x0202
19.477172870000000,1462,0x0000,0x0460
19.477191090000002,1463,0xC300,0x6060
19.477205776000002,1464,0x0000,0x0000
19.477223840000001,1465,0x4D00,0x0000
19.477238119999999,1466,0x001F,0x0000
19.838842503999999,1467,0xCC00,0x0000
19.838859815999999,1468,0x0000,0x0461
19.838878598000001,1469,0x4D00,0x6161
19.838893224000000,1470,0x001E,0x6161
19.838922380000000,1471,0xCC00,0x6161
19.838937974000000,1472,0x0000,0x0461
19.838955036000002,1473,0x4C00,0x6161
19.838969380000002,1474,0x0001,0x6161
19.838985224000002,1475,0xC300,0x6161
19.838999565999998,1476,0x0000,0x0040
19.839016409999999,1477,0xD400,0x4040
19.839030785999999,1478,0x0000,0x0102
19.839047409999999,1479,0xD500,0x0202
19.839061972000000,1480,0x0000,0x3600
19.839112098000001,1481,0x4100,0x0000
19.839126879999998,1482,0x0040,0x0000
19.839142815999999,1483,0x8FC0,0x0000
19.839187786000000,1484,0x0000,0x0201
19.839188285999999,1484,0x0000,0x0036
19.839188786000001,1484,0x0000,0x2F08
19.839189286000000,1484,0x0000,0x9014
19.839189785999999,1484,0x0000,0x0000
19.839190286000001,1484,0x0000,0x0000
19.839190786000000,1484,0x0000,0x0005
19.839191285999998,1484,0x0000,0x0000
19.839191786000001,1484,0x0000,0x0000
19.839192285999999,1484,0x0000,0x0000
19.839192786000002,1484,0x0000,0x0000
19.839193286000000,1484,0x0000,0x0000
19.839193785999999,1484,0x0000,0x0000
19.839194286000001,1484,0x0000,0x0000
19.839194786000000,1484,0x0000,0x0000
19.839195285999999,1484,0x0000,0x0000
19.839195786000001,1484,0x0000,0x0000
19.839196286000000,1484,0x0000,0x0000
19.839196785999999,1484,0x0000,0x0000
19.839197286000001,1484,0x0000,0x0000
19.839197786000000,1484,0x0000,0x0000
19.839198285999998,1484,0x0000,0x0000
19.839198786000001,1484,0x0000,0x0000
19.839199285999999,1484,0x0000,0x0000
19.839199785999998,1484,0x0000,0x0000
19.839200286000001,1484,0x0000,0x0000
19.839200785999999,1484,0x0000,0x0602
19.839201286000002,1484,0x0000,0x0000
19.839201786000000,1484,0x0000,0x130C
19.839202285999999,1484,0x0000,0x0001
19.839202786000001,1484,0x0000,0x0101
19.839203286000000,1484,0x0000,0x0602
19.839328504000001,1485,0xCC00,0x0202
19.839349471999999,1486,0x0000,0x0460
19.839367941999999,1487,0xC300,0x6060
19.839383003999998,1488,0x0000,0x0000
19.839401286000001,1489,0x4D00,0x0000
19.839415660000000,1490,0x001F,0x0000
20.043484622000001,1491,0xCC00,0x0000
20.043502245999999,1492,0x0000,0x0461
20.043521527999999,1493,0x4D00,0x6161
20.043536090000000,1494,0x001E,0x6161
20.043565590000000,1495,0xCC00,0x6161
20.043580777999999,1496,0x0000,0x0461
20.043598121999999,1497,0x4C00,0x6161
20.043612683999999,1498,0x0001,0x6161
20.043629215999999,1499,0xC300,0x6161
20.043643715999998,1500,0x0000,0x0040
20.043660590000002,1501,0xD400,0x4040
20.043675058000002,1502,0x0000,0x0102
20.043691872000000,1503,0xD500,0x0202
20.043706371999999,1504,0x0000,0x3600
20.043756464000001,1505,0x4100,0x0000
20.043771090000000,1506,0x0040,0x0000
20.043786621999999,1507,0x8FC0,0x0000
20.043831621999999,1508,0x0000,0x0201
20.043832122000001,1508,0x0000,0x0036
20.043832622000000,1508,0x0000,0x3008
20.043833121999999,1508,0x0000,0x9014
20.043833620000001,1508,0x0000,0x0000
20.043834122000000,1508,0x0000,0x0000
20.043834621999999,1508,0x0000,0x0005
20.043835122000001,1508,0x0000,0x001F
20.043835619999999,1508,0x0000,0x0000
20.043836121999998,1508,0x0000,0x0000
20.043836622000001,1508,0x0000,0x0000
20.043837121999999,1508,0x0000,0x0000
20.043837622000002,1508,0x0000,0x0000
20.043838120000000,1508,0x0000,0x0000
20.043838621999999,1508,0x0000,0x0000
20.043839120000001,1508,0x0000,0x0000
20.043839620000000,1508,0x0000,0x0000
20.043840119999999,1508,0x0000,0x0000
20.043840622000001,1508,0x0000,0x0000
20.043841122000000,1508,0x0000,0x0000
20.043841619999998,1508,0x0000,0x0000
20.043842122000001,1508,0x0000,0x0000
20.043842622000000,1508,0x0000,0x0000
20.043843119999998,1508,0x0000,0x0000
20.043843620000001,1508,0x0000,0x0000
20.043844119999999,1508,0x0000,0x0000
20.043844620000002,1508,0x0000,0x0602
20.043845120000000,1508,0x0000,0x0000
20.043845619999999,1508,0x0000,0x130C
20.043846120000001,1508,0x0000,0x0001
20.043846622000000,1508,0x0000,0x0101
20.043847119999999,1508,0x0000,0x0602
20.043971996000000,1509,0xCC00,0x0202
20.043989058000001,1510,0x0000,0x0460
20.044007371999999,1511,0xC300,0x6060
20.044021934000000,1512,0x0000,0x0000
20.044040028000001,1513,0x4D00,0x0000
20.044054246000002,1514,0x001F,0x0000
20.055723552000000,1515,0xCC00,0x0000
20.055740457999999,1516,0x0000,0x0461
20.055759116000001,1517,0x4D00,0x6161
20.055773427999998,1518,0x001E,0x6161
20.055802428000000,1519,0xCC00,0x6161
20.055817678000000,1520,0x0000,0x0461
20.055834740000002,1521,0x4C00,0x6161
20.055848928000000,1522,0x0001,0x6161
20.055864646000000,1523,0xC300,0x6161
20.055878990000000,1524,0x0000,0x0040
20.055895490000001,1525,0xD400,0x4040
20.055910116000000,1526,0x0000,0x0102
20.055926551999999,1527,0xD500,0x0202
20.055941021999999,1528,0x0000,0x3600
20.055990646000001,1529,0x4100,0x0000
20.056005771999999,1530,0x0040,0x0000
20.056021489999999,1531,0x8FC0,0x0000
20.056065927999999,1532,0x0000,0x0201
20.056066428000001,1532,0x0000,0x0036
20.056066928000000,1532,0x0000,0x3108
20.056067427999999,1532,0x0000,0x9014
20.056067928000001,1532,0x0000,0x0000
20.056068428000000,1532,0x0000,0x0000
20.056068927999998,1532,0x0000,0x0005
20.056069428000001,1532,0x0000,0x0000
20.056069927999999,1532,0x0000,0x0000
20.056070428000002,1532,0x0000,0x0000
20.056070928000000,1532,0x0000,0x0000
20.056071427999999,1532,0x0000,0x0000
20.056071928000001,1532,0x0000,0x0000
20.056072428000000,1532,0x0000,0x0000
20.056072927999999,1532,0x0000,0x0000
20.056073428000001,1532,0x0000,0x0000
20.056073928000000,1532,0x0000,0x0000
20.056074427999999,1532,0x0000,0x0000
20.056074928000001,1532,0x0000,0x0000
20.056075428000000,1532,0x0000,0x0000
20.056075927999998,1532,0x0000,0x0000
20.056076428000001,1532,0x0000,0x0000
20.056076928000000,1532,0x0000,0x0000
20.056077427999998,1532,0x0000,0x0000
20.056077928000001,1532,0x0000,0x0000
20.056078427999999,1532,0x0000,0x0000
20.056078928000002,1532,0x0000,0x0602
20.056079428000000,1532,0x0000,0x0000
20.056079927999999,1532,0x0000,0x130C
20.056080428000001,1532,0x0000,0x0001
20.056080928000000,1532,0x0000,0x0101
20.056081427999999,1532,0x0000,0x0602
20.056210927999999,1533,0xCC00,0x0202
20.056227616000001,1534,0x0000,0x0460
20.056245646000001,1535,0xC300,0x6060
20.056260366000000,1536,0x0000,0x0000
20.056278458000001,1537,0x4D00,0x0000
20.056292708000001,1538,0x001F,0x0000
20.260361232000001,1539,0xCC00,0x0000
20.260378544000002,1540,0x0000,0x0461
20.260397858000001,1541,0x4D00,0x6161
20.260412294000002,1542,0x001E,0x6161
20.260441482000001,1543,0xCC00,0x6161
20.260456732000002,1544,0x0000,0x0461
20.260473919999999,1545,0x4C00,0x6161
20.260488387999999,1546,0x0001,0x6161
20.260504200000000,1547,0xC300,0x6161
20.260518420000000,1548,0x0000,0x0040
20.260535013999998,1549,0xD400,0x4040
20.260549388000001,1550,0x0000,0x0102
20.260565887999999,1551,0xD500,0x0202
20.260580325999999,1552,0x0000,0x3600
20.260630326000001,1553,0x4100,0x0000
20.260645543999999,1554,0x0040,0x0000
20.260661670000001,1555,0x8FC0,0x0000
20.260706855999999,1556,0x0000,0x0201
20.260707356000001,1556,0x0000,0x0036
20.260707856000000,1556,0x0000,0x3208
20.260708355999999,1556,0x0000,0x9014
20.260708856000001,1556,0x0000,0x0000
20.260709356000000,1556,0x0000,0x0000
20.260709855999998,1556,0x0000,0x0005
20.260710356000001,1556,0x0000,0x001F
20.260710855999999,1556,0x0000,0x0000
20.260711356000002,1556,0x0000,0x0000
20.260711856000000,1556,0x0000,0x0000
20.260712355999999,1556,0x0000,0x0000
20.260712856000001,1556,0x0000,0x0000
20.260713356000000,1556,0x0000,0x0000
20.260713855999999,1556,0x0000,0x0000
20.260714356000001,1556,0x0000,0x0000
20.260714856000000,1556,0x0000,0x0000
20.260715355999999,1556,0x0000,0x0000
20.260715856000001,1556,0x0000,0x0000
20.260716356000000,1556,0x0000,0x0000
20.260716855999998,1556,0x0000,0x0000
20.260717356000001,1556,0x0000,0x0000
20.260717855999999,1556,0x0000,0x0000
20.260718356000002,1556,0x0000,0x0000
20.260718856000000,1556,0x0000,0x0000
20.260719355999999,1556,0x0000,0x0000
20.260719856000001,1556,0x0000,0x0602
20.260720356000000,1556,0x0000,0x0000
20.260720855999999,1556,0x0000,0x130C
20.260721356000001,1556,0x0000,0x0001
20.260721856000000,1556,0x0000,0x0101
20.260722355999999,1556,0x0000,0x0602
20.260847232000000,1557,0xCC00,0x0202
20.260864137999999,1558,0x0000,0x0460
20.260882637999998,1559,0xC300,0x6060
20.260897732000000,1560,0x0000,0x0000
20.260916076000001,1561,0x4D00,0x0000
20.260930294000001,1562,0x001F,0x0000
20.356081060000001,1563,0xCC00,0x0000
20.356098245999998,1564,0x0000,0x0461
20.356117496000000,1565,0x4D00,0x6161
20.356131871999999,1566,0x001E,0x6161
20.356160622000001,1567,0xCC00,0x6161
20.356175872000001,1568,0x0000,0x0461
20.356193590000000,1569,0x4C00,0x6161
20.356208122000002,1570,0x0001,0x6161
20.356224028000000,1571,0xC300,0x6161
20.356238496000000,1572,0x0000,0x0040
20.356255310000002,1573,0xD400,0x4040
20.356269965999999,1574,0x0000,0x0102
20.356286495999999,1575,0xD500,0x0202
20.356301122000001,1576,0x0000,0x3600
20.356351058000001,1577,0x4100,0x0000
20.356366059999999,1578,0x0040,0x0000
20.356381966000001,1579,0x8FC0,0x0000
20.356426559999999,1580,0x0000,0x0201
20.356427058000001,1580,0x0000,0x0036
20.356427558000000,1580,0x0000,0x3308
20.356428059999999,1580,0x0000,0x9014
20.356428558000001,1580,0x0000,0x0000
20.356429058000000,1580,0x0000,0x0000
20.356429557999999,1580,0x0000,0x0005
20.356430060000001,1580,0x0000,0x0000
20.356430560000000,1580,0x0000,0x0000
20.356431057999998,1580,0x0000,0x0000
20.356431558000001,1580,0x0000,0x0000
20.356432057999999,1580,0x0000,0x0000
20.356432558000002,1580,0x0000,0x0000
20.356433058000000,1580,0x0000,0x0000
20.356433559999999,1580,0x0000,0x0000
20.356434058000001,1580,0x0000,0x0000
20.356434558000000,1580,0x0000,0x0000
20.356435057999999,1580,0x0000,0x0000
20.356435558000001,1580,0x0000,0x0000
20.356436058000000,1580,0x0000,0x0000
20.356436557999999,1580,0x0000,0x0000
20.356437058000001,1580,0x0000,0x0000
20.356437558000000,1580,0x0000,0x0000
20.356438057999998,1580,0x0000,0x0000
20.356438558000001,1580,0x0000,0x0000
20.356439057999999,1580,0x0000,0x0000
20.356439558000002,1580,0x0000,0x0602
20.356440058000000,1580,0x0000,0x0000
20.356440557999999,1580,0x0000,0x130C
20.356441058000001,1580,0x0000,0x0001
20.356441558000000,1580,0x0000,0x0101
20.356442059999999,1580,0x0000,0x0602
20.356566621999999,1581,0xCC00,0x0202
20.356583528000002,1582,0x0000,0x0460
20.356601965999999,1583,0xC300,0x6060
20.356616622000001,1584,0x0000,0x0000
20.356634778000000,1585,0x4D00,0x0000
20.356649028000000,1586,0x001F,0x0000
20.582567445999999,1587,0xCC00,0x0000
20.582588508000001,1588,0x0000,0x0461
20.582607352000000,1589,0x4D00,0x6161
20.582621570000001,1590,0x001E,0x6161
20.582650384000001,1591,0xCC00,0x6161
20.582665508000002,1592,0x0000,0x0461
20.582682884000000,1593,0x4C00,0x6161
20.582697413999998,1594,0x0001,0x6161
20.582713664000000,1595,0xC300,0x6161
20.582728134000000,1596,0x0000,0x0040
20.582745039999999,1597,0xD400,0x4040
20.582759383999999,1598,0x0000,0x0102
20.582775946000002,1599,0xD500,0x0202
20.582790352000000,1600,0x0000,0x3600
20.582840040000001,1601,0x4100,0x0000
20.582854946000001,1602,0x0040,0x0000
20.582870602000000,1603,0x8FC0,0x0000
20.582915820000000,1604,0x0000,0x0201
20.582916319999999,1604,0x0000,0x0036
20.582916820000001,1604,0x0000,0x3408
20.582917320000000,1604,0x0000,0x9014
20.582917819999999,1604,0x0000,0x0000
20.582918320000001,1604,0x0000,0x0000
20.582918820000000,1604,0x0000,0x0005
20.582919319999998,1604,0x0000,0x001F
20.582919820000001,1604,0x0000,0x0000
20.582920319999999,1604,0x0000,0x0000
20.582920819999998,1604,0x0000,0x0000
20.582921320000001,1604,0x0000,0x0000
20.582921819999999,1604,0x0000,0x0000
20.582922320000002,1604,0x0000,0x0000
20.582922820000000,1604,0x0000,0x0000
20.582923319999999,1604,0x0000,0x0000
20.582923820000001,1604,0x0000,0x0000
20.582924320000000,1604,0x0000,0x0000
20.582924819999999,1604,0x0000,0x0000
20.582925320000001,1604,0x0000,0x0000
20.582925820000000,1604,0x0000,0x0000
20.582926319999999,1604,0x0000,0x0000
20.582926820000001,1604,0x0000,0x0000
20.582927320000000,1604,0x0000,0x0000
20.582927819999998,1604,0x0000,0x0000
20.582928320000001,1604,0x0000,0x0000
20.582928819999999,1604,0x0000,0x0602
20.582929320000002,1604,0x0000,0x0000
20.582929820000000,1604,0x0000,0x130C
20.582930319999999,1604,0x0000,0x0001
20.582930820000001,1604,0x0000,0x0101
20.582931320000000,1604,0x0000,0x0602
20.583056414000001,1605,0xCC00,0x0202
20.583073070000001,1606,0x0000,0x0460
20.583091069999998,1607,0xC300,0x6060
20.583105790000001,1608,0x0000,0x0000
20.583123976000000,1609,0x4D00,0x0000
20.583138382000001,1610,0x001F,0x0000
20.622452582000001,1611,0xCC00,0x0000
20.622469238000001,1612,0x0000,0x0461
20.622488394000001,1613,0x4D00,0x6161
20.622502956000002,1614,0x001E,0x6161
20.622531456000001,1615,0xCC00,0x6161
20.622546738000000,1616,0x0000,0x0461
20.622563893999999,1617,0x4C00,0x6161
20.622578237999999,1618,0x0001,0x6161
20.622594114000002,1619,0xC300,0x6161
20.622608488000001,1620,0x0000,0x0040
20.622628708000001,1621,0xD400,0x4040
20.622643082000000,1622,0x0000,0x0102
20.622659643999999,1623,0xD500,0x0202
20.622674205999999,1624,0x0000,0x3600
20.622724020000000,1625,0x4100,0x0000
20.622738987999998,1626,0x0040,0x0000
20.622754799999999,1627,0x8FC0,0x0000
20.622799176000001,1628,0x0000,0x0201
20.622799676000000,1628,0x0000,0x0036
20.622800175999998,1628,0x0000,0x3508
20.622800676000001,1628,0x0000,0x9014
20.622801175999999,1628,0x0000,0x0000
20.622801676000002,1628,0x0000,0x0000
20.622802176000000,1628,0x0000,0x0005
20.622802675999999,1628,0x0000,0x0000
20.622803176000001,1628,0x0000,0x0000
20.622803676000000,1628,0x0000,0x0000
20.622804175999999,1628,0x0000,0x0000
20.622804676000001,1628,0x0000,0x0000
20.622805176000000,1628,0x0000,0x0000
20.622805675999999,1628,0x0000,0x0000
20.622806176000001,1628,0x0000,0x0000
20.622806676000000,1628,0x0000,0x0000
20.622807175999998,1628,0x0000,0x0000
20.622807676000001,1628,0x0000,0x0000
20.622808175999999,1628,0x0000,0x0000
20.622808675999998,1628,0x0000,0x0000
20.622809176000001,1628,0x0000,0x0000
20.622809675999999,1628,0x0000,0x0000
20.622810176000002,1628,0x0000,0x0000
20.622810676000000,1628,0x0000,0x0000
20.622811175999999,1628,0x0000,0x0000
20.622811676000001,1628,0x0000,0x0000
20.622812176000000,1628,0x0000,0x0602
20.622812675999999,1628,0x0000,0x0000
20.622813176000001,1628,0x0000,0x130C
20.622813676000000,1628,0x0000,0x0001
20.622814175999999,1628,0x0000,0x0101
20.622814676000001,1628,0x0000,0x0602
20.622940238000002,1629,0xCC00,0x0202
20.622957020000001,1630,0x0000,0x0460
20.622975331999999,1631,0xC300,0x6060
20.622989894000000,1632,0x0000,0x0000
20.623008299999999,1633,0x4D00,0x0000
20.623022582000001,1634,0x001F,0x0000
21.071936856000001,1635,0xCC00,0x0000
21.071954450000000,1636,0x0000,0x0461
21.071973918000001,1637,0x4D00,0x6161
21.071988386000001,1638,0x001E,0x6161
21.072017700000000,1639,0xCC00,0x6161
21.072032792000002,1640,0x0000,0x0461
21.072049856000000,1641,0x4C00,0x6161
21.072064323999999,1642,0x0001,0x6161
21.072080167999999,1643,0xC300,0x6161
21.072094541999999,1644,0x0000,0x0040
21.072111012000001,1645,0xD400,0x4040
21.072125417999999,1646,0x0000,0x0102
21.072141668000000,1647,0xD500,0x0202
21.072155949999999,1648,0x0000,0x3600
21.072205824000001,1649,0x4100,0x0000
21.072220917999999,1650,0x0040,0x0000
21.072236512000000,1651,0x8FC0,0x0000
21.072281136000001,1652,0x0000,0x0201
21.072281636000000,1652,0x0000,0x0036
21.072282135999998,1652,0x0000,0x3608
21.072282636000001,1652,0x0000,0x9014
21.072283135999999,1652,0x0000,0x0000
21.072283636000002,1652,0x0000,0x0000
21.072284136000000,1652,0x0000,0x0005
21.072284635999999,1652,0x0000,0x001F
21.072285136000001,1652,0x0000,0x0000
21.072285636000000,1652,0x0000,0x0000
21.072286135999999,1652,0x0000,0x0000
21.072286636000001,1652,0x0000,0x0000
21.072287136000000,1652,0x0000,0x0000
21.072287635999999,1652,0x0000,0x0000
21.072288136000001,1652,0x0000,0x0000
21.072288636000000,1652,0x0000,0x0000
21.072289135999998,1652,0x0000,0x0000
21.072289636000001,1652,0x0000,0x0000
21.072290135999999,1652,0x0000,0x0000
21.072290636000002,1652,0x0000,0x0000
21.072291136000000,1652,0x0000,0x0000
21.072291635999999,1652,0x0000,0x0000
21.072292136000002,1652,0x0000,0x0000
21.072292636000000,1652,0x0000,0x0000
21.072293135999999,1652,0x0000,0x0000
21.072293636000001,1652,0x0000,0x0000
21.072294136000000,1652,0x0000,0x0602
21.072294635999999,1652,0x0000,0x0000
21.072295136000001,1652,0x0000,0x130C
21.072295636000000,1652,0x0000,0x0001
21.072296135999999,1652,0x0000,0x0101
21.072296636000001,1652,0x0000,0x0602
21.072421947999999,1653,0xCC00,0x0202
21.072438918000000,1654,0x0000,0x0460
21.072457448000002,1655,0xC300,0x6060
21.072472699999999,1656,0x0000,0x0000
21.072491356000000,1657,0x4D00,0x0000
21.072505511999999,1658,0x001F,0x0000
21.139491572000001,1659,0xCC00,0x0000
21.139508228000000,1660,0x0000,0x0461
21.139526851999999,1661,0x4D00,0x6161
21.139541540000000,1662,0x001E,0x6161
21.139570914000000,1663,0xCC00,0x6161
21.139586007999998,1664,0x0000,0x0461
21.139603134000001,1665,0x4C00,0x6161
21.139617351999998,1666,0x0001,0x6161
21.139633258000000,1667,0xC300,0x6161
21.139647602000000,1668,0x0000,0x0040
21.139664289999999,1669,0xD400,0x4040
21.139678602000000,1670,0x0000,0x0102
21.139695071999999,1671,0xD500,0x0202
21.139709507999999,1672,0x0000,0x3600
21.139760165999999,1673,0x4100,0x0000
21.139775164000000,1674,0x0040,0x0000
21.139790820000002,1675,0x8FC0,0x0000
21.139835758000000,1676,0x0000,0x0201
21.139836257999999,1676,0x0000,0x0036
21.139836758000001,1676,0x0000,0x3708
21.139837258000000,1676,0x0000,0x9014
21.139837757999999,1676,0x0000,0x0000
21.139838258000001,1676,0x0000,0x0000
21.139838758000000,1676,0x0000,0x0005
21.139839257999999,1676,0x0000,0x0000
21.139839758000001,1676,0x0000,0x0000
21.139840258000000,1676,0x0000,0x0000
21.139840757999998,1676,0x0000,0x0000
21.139841258000001,1676,0x0000,0x0000
21.139841757999999,1676,0x0000,0x0000
21.139842258000002,1676,0x0000,0x0000
21.139842758000000,1676,0x0000,0x0000
21.139843257999999,1676,0x0000,0x0000
21.139843758000001,1676,0x0000,0x0000
21.139844258000000,1676,0x0000,0x0000
21.139844757999999,1676,0x0000,0x0000
21.139845258000001,1676,0x0000,0x0000
21.139845758000000,1676,0x0000,0x0000
21.139846257999999,1676,0x0000,0x0000
21.139846758000001,1676,0x0000,0x0000
21.139847258000000,1676,0x0000,0x0000
21.139847757999998,1676,0x0000,0x0000
21.139848258000001,1676,0x0000,0x0000
21.139848757999999,1676,0x0000,0x0602
21.139849258000002,1676,0x0000,0x0000
21.139849758000000,1676,0x0000,0x130C
21.139850257999999,1676,0x0000,0x0001
21.139850758000001,1676,0x0000,0x0101
21.139851258000000,1676,0x0000,0x0602
21.139975883999998,1677,0xCC00,0x0202
21.139992884000002,1678,0x0000,0x0460
21.140011040000001,1679,0xC300,0x6060
21.140026257999999,1680,0x0000,0x0000
21.140044446000001,1681,0x4D00,0x0000
21.140058757999999,1682,0x001F,0x0000
21.476645961999999,1683,0xCC00,0x0000
21.476663181999999,1684,0x0000,0x0461
21.476682306000001,1685,0x4D00,0x6161
21.476696994000001,1686,0x001E,0x6161
21.476726056000000,1687,0xCC00,0x6161
21.476741182000001,1688,0x0000,0x0461
21.476758117999999,1689,0x4C00,0x6161
21.476772338000000,1690,0x0001,0x6161
21.476788244000002,1691,0xC300,0x6161
21.476802620000001,1692,0x0000,0x0040
21.476819305999999,1693,0xD400,0x4040
21.476833805999998,1694,0x0000,0x0102
21.476850244000001,1695,0xD500,0x0202
21.476864744000000,1696,0x0000,0x3600
21.476914212000001,1697,0x4100,0x0000
21.476929087999999,1698,0x0040,0x0000
21.476944555999999,1699,0x8FC0,0x0000
21.476989337999999,1700,0x0000,0x0201
21.476989838000001,1700,0x0000,0x0036
21.476990338000000,1700,0x0000,0x3808
21.476990837999999,1700,0x0000,0x9014
21.476991338000001,1700,0x0000,0x0000
21.476991838000000,1700,0x0000,0x0000
21.476992337999999,1700,0x0000,0x0005
21.476992838000001,1700,0x0000,0x001F
21.476993338000000,1700,0x0000,0x0000
21.476993837999999,1700,0x0000,0x0000
21.476994338000001,1700,0x0000,0x0000
21.476994838000000,1700,0x0000,0x0000
21.476995337999998,1700,0x0000,0x0000
21.476995838000001,1700,0x0000,0x0000
21.476996337999999,1700,0x0000,0x0000
21.476996838000002,1700,0x0000,0x0000
21.476997338000000,1700,0x0000,0x0000
21.476997837999999,1700,0x0000,0x0000
21.476998338000001,1700,0x0000,0x0000
21.476998838000000,1700,0x0000,0x0000
21.476999337999999,1700,0x0000,0x0000
21.476999838000001,1700,0x0000,0x0000
21.477000338000000,1700,0x0000,0x0000
21.477000837999999,1700,0x0000,0x0000
21.477001338000001,1700,0x0000,0x0000
21.477001838000000,1700,0x0000,0x0000
21.477002337999998,1700,0x0000,0x0602
21.477002838000001,1700,0x0000,0x0000
21.477003337999999,1700,0x0000,0x130C
21.477003838000002,1700,0x0000,0x0001
21.477004338000000,1700,0x0000,0x0101
21.477004837999999,1700,0x0000,0x0602
21.477130932000001,1701,0xCC00,0x0202
21.477147899999999,1702,0x0000,0x0460
21.477166118000000,1703,0xC300,0x6060
21.477181087999998,1704,0x0000,0x0000
21.477199462000002,1705,0x4D00,0x0000
21.477218182000001,1706,0x001F,0x0000
21.536052026000000,1707,0xCC00,0x0000
21.536068245999999,1708,0x0000,0x0461
21.536087026000001,1709,0x4D00,0x6161
21.536101557999999,1710,0x001E,0x6161
21.536131308000002,1711,0xCC00,0x6161
21.536146431999999,1712,0x0000,0x0461
21.536163651999999,1713,0x4C00,0x6161
21.536178152000002,1714,0x0001,0x6161
21.536194307999999,1715,0xC300,0x6161
21.536208808000001,1716,0x0000,0x0040
21.536225431999998,1717,0xD400,0x4040
21.536239714000001,1718,0x0000,0x0102
21.536256181999999,1719,0xD500,0x0202
21.536270714000000,1720,0x0000,0x3600
21.536319244000001,1721,0x4100,0x0000
21.536334025999999,1722,0x0040,0x0000
21.536349558000001,1723,0x8FC0,0x0000
21.536394120000001,1724,0x0000,0x0201
21.536394619999999,1724,0x0000,0x0036
21.536395120000002,1724,0x0000,0x3908
21.536395620000000,1724,0x0000,0x9014
21.536396119999999,1724,0x0000,0x0000
21.536396620000001,1724,0x0000,0x0000
21.536397120000000,1724,0x0000,0x0005
21.536397619999999,1724,0x0000,0x0000
21.536398120000001,1724,0x0000,0x0000
21.536398620000000,1724,0x0000,0x0000
21.536399119999999,1724,0x0000,0x0000
21.536399620000001,1724,0x0000,0x0000
21.536400120000000,1724,0x0000,0x0000
21.536400619999998,1724,0x0000,0x0000
21.536401120000001,1724,0x0000,0x0000
21.536401619999999,1724,0x0000,0x0000
21.536402120000002,1724,0x0000,0x0000
21.536402620000000,1724,0x0000,0x0000
21.536403119999999,1724,0x0000,0x0000
21.536403620000002,1724,0x0000,0x0000
21.536404120000000,1724,0x0000,0x0000
21.536404619999999,1724,0x0000,0x0000
21.536405120000001,1724,0x0000,0x0000
21.536405620000000,1724,0x0000,0x0000
21.536406119999999,1724,0x0000,0x0000
21.536406620000001,1724,0x0000,0x0000
21.536407120000000,1724,0x0000,0x0602
21.536407619999999,1724,0x0000,0x0000
21.536408120000001,1724,0x0000,0x130C
21.536408620000000,1724,0x0000,0x0001
21.536409119999998,1724,0x0000,0x0101
21.536409620000001,1724,0x0000,0x0602
21.536533808000001,1725,0xCC00,0x0202
21.536550276000000,1726,0x0000,0x0460
21.536568182000000,1727,0xC300,0x6060
21.536582775999999,1728,0x0000,0x0000
21.536600746000001,1729,0x4D00,0x0000
21.536614776000000,1730,0x001F,0x0000
21.796044832000000,1731,0xCC00,0x0000
21.796061861999998,1732,0x0000,0x0461
21.796080862000000,1733,0x4D00,0x6161
21.796095267999998,1734,0x001E,0x6161
21.796124173999999,1735,0xCC00,0x6161
21.796139268000001,1736,0x0000,0x0461
21.796156362000001,1737,0x4C00,0x6161
21.796170549999999,1738,0x0001,0x6161
21.796186550000002,1739,0xC300,0x6161
21.796200832000000,1740,0x0000,0x0040
21.796217393999999,1741,0xD400,0x4040
21.796231767999998,1742,0x0000,0x0102
21.796248175999999,1743,0xD500,0x0202
21.796262582000001,1744,0x0000,0x3600
21.796312268000001,1745,0x4100,0x0000
21.796327267999999,1746,0x0040,0x0000
21.796343237999999,1747,0x8FC0,0x0000
21.796388268000001,1748,0x0000,0x0201
21.796388768000000,1748,0x0000,0x0036
21.796389267999999,1748,0x0000,0x3A08
21.796389768000001,1748,0x0000,0x9014
21.796390268000000,1748,0x0000,0x0000
21.796390767999998,1748,0x0000,0x0000
21.796391268000001,1748,0x0000,0x0005
21.796391767999999,1748,0x0000,0x001F
21.796392268000002,1748,0x0000,0x0000
21.796392768000000,1748,0x0000,0x0000
21.796393267999999,1748,0x0000,0x0000
21.796393768000002,1748,0x0000,0x0000
21.796394268000000,1748,0x0000,0x0000
21.796394767999999,1748,0x0000,0x0000
21.796395268000001,1748,0x0000,0x0000
21.796395768000000,1748,0x0000,0x0000
21.796396267999999,1748,0x0000,0x0000
21.796396768000001,1748,0x0000,0x0000
21.796397268000000,1748,0x0000,0x0000
21.796397767999999,1748,0x0000,0x0000
21.796398268000001,1748,0x0000,0x0000
21.796398768000000,1748,0x0000,0x0000
21.796399267999998,1748,0x0000,0x0000
21.796399768000001,1748,0x0000,0x0000
21.796400267999999,1748,0x0000,0x0000
21.796400768000002,1748,0x0000,0x0000
21.796401268000000,1748,0x0000,0x0602
21.796401767999999,1748,0x0000,0x0000
21.796402268000001,1748,0x0000,0x130C
21.796402768000000,1748,0x0000,0x0001
21.796403267999999,1748,0x0000,0x0101
21.796403768000001,1748,0x0000,0x0602
21.796528800000001,1749,0xCC00,0x0202
21.796545550000001,1750,0x0000,0x0460
21.796563767999999,1751,0xC300,0x6060
21.796583049999999,1752,0x0000,0x0000
21.796601861999999,1753,0x4D00,0x0000
21.796616300000000,1754,0x001F,0x0000
21.926958358000000,1755,0xCC00,0x0000
21.926975452000001,1756,0x0000,0x0461
21.926994640000000,1757,0x4D00,0x6161
21.927009170000002,1758,0x001E,0x6161
21.927038639999999,1759,0xCC00,0x6161
21.927053827999998,1760,0x0000,0x0461
21.927070575999998,1761,0x4C00,0x6161
21.927084795999999,1762,0x0001,0x6161
21.927100763999999,1763,0xC300,0x6161
21.927115202000000,1764,0x0000,0x0040
21.927131952000000,1765,0xD400,0x4040
21.927146451999999,1766,0x0000,0x0102
21.927162890000002,1767,0xD500,0x0202
21.927177325999999,1768,0x0000,0x3600
21.927227014000000,1769,0x4100,0x0000
21.927241764000001,1770,0x0040,0x0000
21.927257514000001,1771,0x8FC0,0x0000
21.927302139999998,1772,0x0000,0x0201
21.927302640000001,1772,0x0000,0x0036
21.927303139999999,1772,0x0000,0x3B08
21.927303640000002,1772,0x0000,0x9014
21.927304140000000,1772,0x0000,0x0000
21.927304637999999,1772,0x0000,0x0000
21.927305138000001,1772,0x0000,0x0005
21.927305638000000,1772,0x0000,0x0000
21.927306137999999,1772,0x0000,0x0000
21.927306640000001,1772,0x0000,0x0000
21.927307140000000,1772,0x0000,0x0000
21.927307639999999,1772,0x0000,0x0000
21.927308140000001,1772,0x0000,0x0000
21.927308640000000,1772,0x0000,0x0000
21.927309139999998,1772,0x0000,0x0000
21.927309640000001,1772,0x0000,0x0000
21.927310139999999,1772,0x0000,0x0000
21.927310640000002,1772,0x0000,0x0000
21.927311138000000,1772,0x0000,0x0000
21.927311639999999,1772,0x0000,0x0000
21.927312140000002,1772,0x0000,0x0000
21.927312638000000,1772,0x0000,0x0000
21.927313137999999,1772,0x0000,0x0000
21.927313640000001,1772,0x0000,0x0000
21.927314140000000,1772,0x0000,0x0000
21.927314637999999,1772,0x0000,0x0000
21.927315138000001,1772,0x0000,0x0602
21.927315638000000,1772,0x0000,0x0000
21.927316137999998,1772,0x0000,0x130C
21.927316638000001,1772,0x0000,0x0001
21.927317140000000,1772,0x0000,0x0101
21.927317639999998,1772,0x0000,0x0602
21.927443014000001,1773,0xCC00,0x0202
21.927487889999998,1774,0x0000,0x0460
21.927506952000002,1775,0xC300,0x6060
21.927521951999999,1776,0x0000,0x0000
21.927540420000000,1777,0x4D00,0x0000
21.927554357999998,1778,0x001F,0x0000
22.143523592000001,1779,0xCC00,0x0000
22.143541060000000,1780,0x0000,0x0461
22.143560216000001,1781,0x4D00,0x6161
22.143574778000001,1782,0x001E,0x6161
22.143604340000000,1783,0xCC00,0x6161
22.143619309999998,1784,0x0000,0x0461
22.143636403999999,1785,0x4C00,0x6161
22.143650778000001,1786,0x0001,0x6161
22.143666622000001,1787,0xC300,0x6161
22.143680998000001,1788,0x0000,0x0040
22.143697560000000,1789,0xD400,0x4040
22.143711933999999,1790,0x0000,0x0102
22.143728498000002,1791,0xD500,0x0202
22.143742840000002,1792,0x0000,0x3600
22.143792871999999,1793,0x4100,0x0000
22.143807404000000,1794,0x0040,0x0000
22.143822933999999,1795,0x8FC0,0x0000
22.143867715999999,1796,0x0000,0x0201
22.143868216000001,1796,0x0000,0x0036
22.143868716000000,1796,0x0000,0x3C08
22.143869215999999,1796,0x0000,0x9014
22.143869716000001,1796,0x0000,0x0000
22.143870216000000,1796,0x0000,0x0000
22.143870715999999,1796,0x0000,0x0005
22.143871216000001,1796,0x0000,0x001F
22.143871716000000,1796,0x0000,0x0000
22.143872215999998,1796,0x0000,0x0000
22.143872716000001,1796,0x0000,0x0000
22.143873215999999,1796,0x0000,0x0000
22.143873716000002,1796,0x0000,0x0000
22.143874216000000,1796,0x0000,0x0000
22.143874715999999,1796,0x0000,0x0000
22.143875216000001,1796,0x0000,0x0000
22.143875716000000,1796,0x0000,0x0000
22.143876215999999,1796,0x0000,0x0000
22.143876716000001,1796,0x0000,0x0000
22.143877216000000,1796,0x0000,0x0000
22.143877715999999,1796,0x0000,0x0000
22.143878216000001,1796,0x0000,0x0000
22.143878716000000,1796,0x0000,0x0000
22.143879215999998,1796,0x0000,0x0000
22.143879716000001,1796,0x0000,0x0000
22.143880215999999,1796,0x0000,0x0000
22.143880716000002,1796,0x0000,0x0602
22.143881216000000,1796,0x0000,0x0000
22.143881715999999,1796,0x0000,0x130C
22.143882216000002,1796,0x0000,0x0001
22.143882716000000,1796,0x0000,0x0101
22.143883215999999,1796,0x0000,0x0602
22.144008216000000,1797,0xCC00,0x0202
22.144024810000001,1798,0x0000,0x0460
22.144043184000001,1799,0xC300,0x6060
22.144058560000001,1800,0x0000,0x0000
22.144077028000002,1801,0x4D00,0x0000
22.144091154000002,1802,0x001F,0x0000
22.321437249999999,1803,0xCC00,0x0000
22.321454844000002,1804,0x0000,0x0461
22.321474030000001,1805,0x4D00,0x6161
22.321488905999999,1806,0x001E,0x6161
22.321518374000000,1807,0xCC00,0x6161
22.321533594000002,1808,0x0000,0x0461
22.321550655999999,1809,0x4C00,0x6161
22.321564905999999,1810,0x0001,0x6161
22.321580718000000,1811,0xC300,0x6161
22.321595280000000,1812,0x0000,0x0040
22.321611999999998,1813,0xD400,0x4040
22.321626685999998,1814,0x0000,0x0102
22.321643156000000,1815,0xD500,0x0202
22.321657718000001,1816,0x0000,0x3600
22.321707843999999,1817,0x4100,0x0000
22.321722906000002,1818,0x0040,0x0000
22.321738750000002,1819,0x8FC0,0x0000
22.321783623999998,1820,0x0000,0x0201
22.321784124000001,1820,0x0000,0x0036
22.321784623999999,1820,0x0000,0x3D08
22.321785124000002,1820,0x0000,0x9014
22.321785624000000,1820,0x0000,0x0000
22.321786123999999,1820,0x0000,0x0000
22.321786624000001,1820,0x0000,0x0005
22.321787124000000,1820,0x0000,0x0000
22.321787623999999,1820,0x0000,0x0000
22.321788124000001,1820,0x0000,0x0000
22.321788624000000,1820,0x0000,0x0000
22.321789123999999,1820,0x0000,0x0000
22.321789624000001,1820,0x0000,0x0000
22.321790124000000,1820,0x0000,0x0000
22.321790623999998,1820,0x0000,0x0000
22.321791124000001,1820,0x0000,0x0000
22.321791623999999,1820,0x0000,0x0000
22.321792124000002,1820,0x0000,0x0000
22.321792624000000,1820,0x0000,0x0000
22.321793123999999,1820,0x0000,0x0000
22.321793624000001,1820,0x0000,0x0000
22.321794124000000,1820,0x0000,0x0000
22.321794623999999,1820,0x0000,0x0000
22.321795124000001,1820,0x0000,0x0000
22.321795624000000,1820,0x0000,0x0000
22.321796123999999,1820,0x0000,0x0000
22.321796624000001,1820,0x0000,0x0602
22.321797124000000,1820,0x0000,0x0000
22.321797623999998,1820,0x0000,0x130C
22.321798124000001,1820,0x0000,0x0001
22.321798623999999,1820,0x0000,0x0101
22.321799124000002,1820,0x0000,0x0602
22.321924374000002,1821,0xCC00,0x0202
22.321941062000000,1822,0x0000,0x0460
22.321959874000001,1823,0xC300,0x6060
22.321975030000001,1824,0x0000,0x0000
22.321993406000001,1825,0x4D00,0x0000
22.322007750000001,1826,0x001F,0x0000
22.649508705999999,1827,0xCC00,0x0000
22.649526141999999,1828,0x0000,0x0461
22.649545079999999,1829,0x4D00,0x6161
22.649559923999998,1830,0x001E,0x6161
22.649589112000001,1831,0xCC00,0x6161
22.649604174000000,1832,0x0000,0x0461
22.649621547999999,1833,0x4C00,0x6161
22.649636048000001,1834,0x0001,0x6161
22.649652362000001,1835,0xC300,0x6161
22.649666986000000,1836,0x0000,0x0040
22.649683454000002,1837,0xD400,0x4040
22.649697954000001,1838,0x0000,0x0102
22.649714236000001,1839,0xD500,0x0202
22.649728486000001,1840,0x0000,0x1B00
22.649777579999999,1841,0x4100,0x0000
22.649792424000001,1842,0x0040,0x0000
22.649807891999998,1843,0x8FC0,0x0000
22.649852268000000,1844,0x0000,0x0201
22.649852767999999,1844,0x0000,0x001B
22.649853268000001,1844,0x0000,0x3E08
22.649853768000000,1844,0x0000,0x9016
22.649854267999999,1844,0x0000,0x0000
22.649854768000001,1844,0x0000,0x0000
22.649855268000000,1844,0x0000,0x0004
22.649855767999998,1844,0x0000,0x0000
22.649856268000001,1844,0x0000,0x8E18
22.649856767999999,1844,0x0000,0x0045
22.649857268000002,1844,0x0000,0x0063
22.649857768000000,1844,0x0000,0x0000
22.649858267999999,1844,0x0000,0x0200
22.649858768000001,1844,0x0000,0x0006
22.649859268000000,1844,0x0000,0x7500
22.649859767999999,1844,0x0000,0x0000
22.649860268000001,1844,0x0000,0x3A00
22.649860768000000,1844,0x0000,0x8401
22.649861267999999,1844,0x0000,0xD75D
22.649861768000001,1844,0x0000,0xB140
22.649862268000000,1844,0x0000,0xF462
22.649862767999998,1844,0x0000,0x895C
22.649863268000001,1844,0x0000,0x759E
22.649863767999999,1844,0x0000,0x8405
22.649864268000002,1844,0x0000,0xD75D
22.649864768000000,1844,0x0000,0xB140
22.649865267999999,1844,0x0000,0xB062
22.649865766000001,1844,0x0000,0x31E6
22.649866268000000,1844,0x0000,0x0A04
22.649866767999999,1844,0x0000,0x0000
22.649867268000001,1844,0x0000,0x4A04
22.649867766000000,1844,0x0000,0x7861
22.650029830000001,1845,0xCC00,0x6161
22.650047141999998,1846,0x0000,0x0460
22.650065609999999,1847,0xC300,0x6060
22.650080641999999,1848,0x0000,0x0000
22.650098642000000,1849,0x4D00,0x0000
22.650112954000001,1850,0x001F,0x0000
22.650228424000002,1851,0x4D00,0x0000
22.650243642000000,1852,0x001E,0x0000
22.650259330000001,1853,0x4100,0x0000
22.650273517999999,1854,0x0040,0x0000
22.650288924000002,1855,0x0FC0,0x0000
22.650345391999998,1856,0x0101,0x0000
22.650345892000001,1856,0x0032,0x0000
22.650346391999999,1856,0x0D00,0x0000
22.650346892000002,1856,0xF08D,0x0000
22.650347392000000,1856,0x8770,0x0000
22.650347891999999,1856,0x604B,0x0000
22.650348392000001,1856,0x0005,0x0000
22.650348892000000,1856,0x0000,0x0000
22.650349391999999,1856,0x0024,0x0000
22.650349892000001,1856,0x0000,0x0000
22.650350392000000,1856,0x8E18,0x0000
22.650350891999999,1856,0x0045,0x0000
22.650351392000001,1856,0x0000,0x0000
22.650351892000000,1856,0x0000,0x0000
22.650352391999999,1856,0x3F68,0x0000
22.650352892000001,1856,0x4000,0x0000
22.650353392000000,1856,0x45D8,0x0000
22.650353891999998,1856,0x4004,0x0000
22.650354392000001,1856,0x8D00,0x0000
22.650354891999999,1856,0x4000,0x0000
22.650355392000002,1856,0x0000,0x0000
22.650355892000000,1856,0x0000,0x0000
22.650356391999999,1856,0x95A0,0x0000
22.650356892000001,1856,0x4005,0x0000
22.650357392000000,1856,0x8418,0x0000
22.650357891999999,1856,0x4005,0x0000
22.650358392000001,1856,0x0000,0x0000
22.650358892000000,1856,0x0045,0x0000
22.650359391999999,1856,0xBDAB,0x0000
22.650359892000001,1856,0x168C,0x0000
22.650360392000000,1856,0xEDAD,0x0000
22.650360891999998,1856,0x7F9F,0x0000
22.650440360000001,1857,0x4D00,0x0000
22.650455424000000,1858,0x001F,0x0000
22.650503080000000,1859,0xCC00,0x0000
22.650519268000000,1860,0x0000,0x0461
22.650537797999998,1861,0x4D00,0x6161
22.650552015999999,1862,0x001E,0x6161
22.650598704000000,1863,0xCC00,0x6161
22.650614736000001,1864,0x0000,0x0461
22.650632047999999,1865,0x4C00,0x6161
22.650646330000001,1866,0x0001,0x6161
22.650662174000001,1867,0xC300,0x6161
22.650676548000000,1868,0x0000,0x0080
22.650692954000000,1869,0xD400,0x8080
22.650707453999999,1870,0x0000,0x0102
22.650723641999999,1871,0xD500,0x0202
22.650737924000001,1872,0x0000,0x3C00
22.650789765999999,1873,0x4100,0x0000
22.650804703999999,1874,0x0060,0x0000
22.650820641999999,1875,0x8FA0,0x0000
22.650865203999999,1876,0x0000,0x0201
22.650865704000001,1876,0x0000,0x003C
22.650866204000000,1876,0x0000,0x3F08
22.650866703999998,1876,0x0000,0x9016
22.650867204000001,1876,0x0000,0x0000
22.650867703999999,1876,0x0000,0x0000
22.650868203999998,1876,0x0000,0x0005
22.650868704000001,1876,0x0000,0x0000
22.650869203999999,1876,0x0000,0x8E18
22.650869704000002,1876,0x0000,0x0045
22.650870204000000,1876,0x0000,0x8E9C
22.650870703999999,1876,0x0000,0x0045
22.650871204000001,1876,0x0000,0x03DB
22.650871704000000,1876,0x0000,0x809B
22.650872203999999,1876,0x0000,0xFBC8
22.650872704000001,1876,0x0000,0x0002
22.650873204000000,1876,0x0000,0x0102
22.650873703999999,1876,0x0000,0xC0A8
22.650874204000001,1876,0x0000,0xE568
22.650874704000000,1876,0x0000,0x0042
22.650875203999998,1876,0x0000,0x0010
22.650875704000001,1876,0x0000,0x0000
22.650876203999999,1876,0x0000,0xE578
22.650876704000002,1876,0x0000,0x0042
22.650877204000000,1876,0x0000,0x0000
22.650877703999999,1876,0x0000,0x0000
22.650878204000001,1876,0x0000,0x0000
22.650878704000000,1876,0x0000,0x0000
22.650879203999999,1876,0x0000,0x1C6D
22.650879704000001,1876,0x0000,0x0602
22.650880204000000,1876,0x0000,0x4A00
22.650880703999999,1876,0x0000,0x7861
22.650881204000001,1876,0x0000,0x0038
22.650881704000000,1876,0x0000,0x8208
22.650882203999998,1876,0x0000,0x8B84
22.650882704000001,1876,0x0000,0x2496
22.650883203999999,1876,0x0000,0x4830
22.650883704000002,1876,0x0000,0x326C
22.650884204000000,1876,0x0000,0x0C04
22.650884703999999,1876,0x0000,0x1812
22.650885204000001,1876,0x0000,0x2160
22.650885704000000,1876,0x0000,0x0602
22.650886203999999,1876,0x0000,0x2414
22.650886704000001,1876,0x0000,0x0102
22.650887204000000,1876,0x0000,0x300D
22.650887703999999,1876,0x0000,0x0114
22.650888204000001,1876,0x0000,0x0000
22.650888704000000,1876,0x0000,0xAC0F
22.651003203999998,1877,0xCC00,0x0F0F
22.651019829999999,1878,0x0000,0x0461
22.651037830000000,1879,0x4C00,0x6161
22.651052174000000,1880,0x0001,0x6161
22.651068047999999,1881,0xC300,0x6161
22.651082610000000,1882,0x0000,0x0020
22.651099609999999,1883,0xD400,0x2020
22.651114421999999,1884,0x0000,0x0002
22.651131142000001,1885,0xD500,0x0202
22.651145765999999,1886,0x0000,0x0C00
22.651202330000000,1887,0x4100,0x0000
22.651217142000000,1888,0x0020,0x0000
22.651232954000001,1889,0x8FE0,0x0000
22.651277266000001,1890,0x0000,0x0200
22.651277766000000,1890,0x0000,0x000C
22.651278265999998,1890,0x0000,0x000C
22.651278766000001,1890,0x0000,0x0201
22.651279266000000,1890,0x0000,0x0101
22.651279765999998,1890,0x0000,0x0602
22.651280266000001,1890,0x0000,0x0000
22.651280765999999,1890,0x0000,0x0000
22.651281266000002,1890,0x0000,0x0000
22.651281766000000,1890,0x0000,0x0000
22.651282265999999,1890,0x0000,0x0000
22.651282766000001,1890,0x0000,0x0000
22.651283266000000,1890,0x0000,0x0000
22.651283765999999,1890,0x0000,0x0000
22.651284266000001,1890,0x0000,0x0000
22.651284766000000,1890,0x0000,0x0000
22.651414077999998,1891,0xCC00,0x0000
22.651431047999999,1892,0x0000,0x0460
22.651449454000002,1893,0xC300,0x6060
22.651464172000001,1894,0x0000,0x0000
22.651482391999998,1895,0x4D00,0x0000
22.651496766000001,1896,0x001F,0x0000
22.829618891999999,1897,0xCC00,0x0000
22.829636579999999,1898,0x0000,0x0461
22.829655892000002,1899,0x4D00,0x6161
22.829670329999999,1900,0x001E,0x6161
22.829699580000000,1901,0xCC00,0x6161
22.829714643999999,1902,0x0000,0x0461
22.829732174000000,1903,0x4C00,0x6161
22.829746706000002,1904,0x0001,0x6161
22.829762612000000,1905,0xC300,0x6161
22.829776924000001,1906,0x0000,0x0040
22.829793767999998,1907,0xD400,0x4040
22.829808423999999,1908,0x0000,0x0102
22.829824861999999,1909,0xD500,0x0202
22.829839174000000,1910,0x0000,0x3600
22.829892611999998,1911,0x4100,0x0000
22.829907735999999,1912,0x0040,0x0000
22.829923485999998,1913,0x8FC0,0x0000
22.829967862000000,1914,0x0000,0x0201
22.829968361999999,1914,0x0000,0x0036
22.829968862000001,1914,0x0000,0x0108
22.829969362000000,1914,0x0000,0x9014
22.829969861999999,1914,0x0000,0x0000
22.829970362000001,1914,0x0000,0x0000
22.829970862000000,1914,0x0000,0x0005
22.829971361999998,1914,0x0000,0x001F
22.829971862000001,1914,0x0000,0x0000
22.829972361999999,1914,0x0000,0x0000
22.829972862000002,1914,0x0000,0x0000
22.829973362000000,1914,0x0000,0x0000
22.829973861999999,1914,0x0000,0x0000
22.829974362000002,1914,0x0000,0x0000
22.829974862000000,1914,0x0000,0x0000
22.829975361999999,1914,0x0000,0x0000
22.829975862000001,1914,0x0000,0x0000
22.829976362000000,1914,0x0000,0x0000
22.829976861999999,1914,0x0000,0x0000
22.829977362000001,1914,0x0000,0x0000
22.829977862000000,1914,0x0000,0x0000
22.829978361999999,1914,0x0000,0x0000
22.829978862000001,1914,0x0000,0x0000
22.829979362000000,1914,0x0000,0x0000
22.829979861999998,1914,0x0000,0x0000
22.829980362000001,1914,0x0000,0x0000
22.829980861999999,1914,0x0000,0x0602
22.829981362000002,1914,0x0000,0x0000
22.829981862000000,1914,0x0000,0x000C
22.829982361999999,1914,0x0000,0x0001
22.829982862000001,1914,0x0000,0x0101
22.829983362000000,1914,0x0000,0x0602
22.830108641999999,1915,0xCC00,0x0202
22.830125018000000,1916,0x0000,0x0460
22.830143142000001,1917,0xC300,0x6060
22.830157891999999,1918,0x0000,0x0000
22.830175830000002,1919,0x4D00,0x0000
22.830189986000001,1920,0x001F,0x0000
22.842243073999999,1921,0xCC00,0x0000
22.842260167999999,1922,0x0000,0x0461
22.842279074000000,1923,0x4D00,0x6161
22.842293479999999,1924,0x001E,0x6161
22.842322136000000,1925,0xCC00,0x6161
22.842337418000000,1926,0x0000,0x0461
22.842354856000000,1927,0x4C00,0x6161
22.842369324000000,1928,0x0001,0x6161
22.842385136000001,1929,0xC300,0x6161
22.842399512000000,1930,0x0000,0x0040
22.842416136000001,1931,0xD400,0x4040
22.842430606000001,1932,0x0000,0x0102
22.842446918000000,1933,0xD500,0x0202
22.842461230000001,1934,0x0000,0x3600
22.842510824000001,1935,0x4100,0x0000
22.842525668000000,1936,0x0040,0x0000
22.842541262000001,1937,0x8FC0,0x0000
22.842589856000000,1938,0x0000,0x0201
22.842590353999999,1938,0x0000,0x0036
22.842590854000001,1938,0x0000,0x0208
22.842591356000000,1938,0x0000,0x9014
22.842591853999998,1938,0x0000,0x0000
22.842592354000001,1938,0x0000,0x0000
22.842592856000000,1938,0x0000,0x0005
22.842593354000002,1938,0x0000,0x0000
22.842593856000001,1938,0x0000,0x0000
22.842594353999999,1938,0x0000,0x0000
22.842594854000001,1938,0x0000,0x0000
22.842595354000000,1938,0x0000,0x0000
22.842595853999999,1938,0x0000,0x0000
22.842596354000001,1938,0x0000,0x0000
22.842596854000000,1938,0x0000,0x0000
22.842597353999999,1938,0x0000,0x0000
22.842597854000001,1938,0x0000,0x0000
22.842598354000000,1938,0x0000,0x0000
22.842598853999998,1938,0x0000,0x0000
22.842599354000001,1938,0x0000,0x0000
22.842599853999999,1938,0x0000,0x0000
22.842600354000002,1938,0x0000,0x0000
22.842600856000001,1938,0x0000,0x0000
22.842601353999999,1938,0x0000,0x0000
22.842601854000002,1938,0x0000,0x0000
22.842602354000000,1938,0x0000,0x0000
22.842602853999999,1938,0x0000,0x0602
22.842603354000001,1938,0x0000,0x0000
22.842603854000000,1938,0x0000,0x000C
22.842604353999999,1938,0x0000,0x0001
22.842604854000001,1938,0x0000,0x0101
22.842605354000000,1938,0x0000,0x0602
22.842730198000002,1939,0xCC00,0x0202
22.842747106000001,1940,0x0000,0x0460
22.842765730000000,1941,0xC300,0x6060
22.842780636000001,1942,0x0000,0x0000
22.842798697999999,1943,0x4D00,0x0000
22.842812855999998,1944,0x001F,0x0000
23.252109109999999,1945,0xCC00,0x0000
23.252125641999999,1946,0x0000,0x0461
23.252144580000000,1947,0x4D00,0x6161
23.252159330000001,1948,0x001E,0x6161
23.252188610000001,1949,0xCC00,0x6161
23.252203860000002,1950,0x0000,0x0461
23.252220892000000,1951,0x4C00,0x6161
23.252235110000001,1952,0x0001,0x6161
23.252250986000000,1953,0xC300,0x6161
23.252265548000000,1954,0x0000,0x0120
23.252282141999999,1955,0xD400,0x2020
23.252296579999999,1956,0x0000,0x0202
23.252312986000000,1957,0xD500,0x0202
23.252327454000000,1958,0x0000,0xC900
23.252380016000000,1959,0x4100,0x0000
23.252394859999999,1960,0x00E0,0x0000
23.252410766000001,1961,0x8F20,0x0000
23.252455015999999,1962,0x0000,0x0202
23.252455516000001,1962,0x0000,0x00C9
23.252456016000000,1962,0x0000,0x0308
23.252456515999999,1962,0x0000,0x0028
23.252457016000001,1962,0x0000,0x000B
23.252457516000000,1962,0x0000,0x0000
23.252458015999999,1962,0x0000,0x8E9C
23.252458516000001,1962,0x0000,0x0045
23.252459016000000,1962,0x0000,0x0000
23.252459515999998,1962,0x0000,0x0002
23.252460016000001,1962,0x0000,0x0102
23.252460515999999,1962,0x0000,0xC0A8
23.252461016000002,1962,0x0000,0x00A7
23.252461516000000,1962,0x0000,0x0000
23.252462015999999,1962,0x0000,0x9981
23.252462516000001,1962,0x0000,0x8097
23.252463016000000,1962,0x0000,0x4547
23.252463515999999,1962,0x0000,0x2054
23.252464016000001,1962,0x0000,0x442F
23.252464516000000,1962,0x0000,0x4943
23.252465015999999,1962,0x0000,0x2F4D
23.252465516000001,1962,0x0000,0x3031
23.252466016000000,1962,0x0000,0x4530
23.252466515999998,1962,0x0000,0x534F
23.252467016000001,1962,0x0000,0x4435
23.252467515999999,1962,0x0000,0x392F
23.252468016000002,1962,0x0000,0x375A
23.252468516000000,1962,0x0000,0x3841
23.252469015999999,1962,0x0000,0x3337
23.252469516000001,1962,0x0000,0x2E38
23.252470016000000,1962,0x0000,0x5243
23.252470515999999,1962,0x0000,0x2032
23.252471016000001,1962,0x0000,0x5448
23.252471516000000,1962,0x0000,0x5054
23.252472015999999,1962,0x0000,0x312F
23.252472516000001,1962,0x0000,0x312E
23.252473016000000,1962,0x0000,0x0A0D
23.252473515999998,1962,0x0000,0x7355
23.252474016000001,1962,0x0000,0x7265
23.252474515999999,1962,0x0000,0x412D
23.252475016000002,1962,0x0000,0x6567
23.252475516000001,1962,0x0000,0x746E
23.252476015999999,1962,0x0000,0x203A
23.252476516000002,1962,0x0000,0x6757
23.252477016000000,1962,0x0000,0x7465
23.252477515999999,1962,0x0000,0x312F
23.252478016000001,1962,0x0000,0x312E
23.252478516000000,1962,0x0000,0x2E37
23.252479015999999,1962,0x0000,0x2031
23.252479516000001,1962,0x0000,0x6428
23.252480016000000,1962,0x0000,0x7261
23.252480515999999,1962,0x0000,0x6977
23.252481016000001,1962,0x0000,0x316E
23.252481516000000,1962,0x0000,0x2E35
23.252482015999998,1962,0x0000,0x2E33
23.252482516000001,1962,0x0000,0x2930
23.252483015999999,1962,0x0000,0x0A0D
23.252483516000002,1962,0x0000,0x6341
23.252484016000000,1962,0x0000,0x6563
23.252484515999999,1962,0x0000,0x7470
23.252485016000001,1962,0x0000,0x203A
23.252485516000000,1962,0x0000,0x2F2A
23.252486015999999,1962,0x0000,0x0D2A
23.252486516000001,1962,0x0000,0x410A
23.252487016000000,1962,0x0000,0x6363
23.252487515999999,1962,0x0000,0x7065
23.252488016000001,1962,0x0000,0x2D74
23.252488516000000,1962,0x0000,0x6E45
23.252489015999998,1962,0x0000,0x6F63
23.252489516000001,1962,0x0000,0x6964
23.252490015999999,1962,0x0000,0x676E
23.252490516000002,1962,0x0000,0x203A
23.252491016000000,1962,0x0000,0x6469
23.252491515999999,1962,0x0000,0x6E65
23.252492016000001,1962,0x0000,0x6974
23.252492516000000,1962,0x0000,0x7974
23.252493015999999,1962,0x0000,0x0A0D
23.252493516000001,1962,0x0000,0x6F48
23.252494016000000,1962,0x0000,0x7473
23.252494515999999,1962,0x0000,0x203A
23.252495016000001,1962,0x0000,0x3931
23.252495516000000,1962,0x0000,0x2E32
23.252496015999998,1962,0x0000,0x3631
23.252496516000001,1962,0x0000,0x2E38
23.252497016000000,1962,0x0000,0x2E31
23.252497515999998,1962,0x0000,0x0D31
23.252498016000001,1962,0x0000,0x430A
23.252498515999999,1962,0x0000,0x6E6F
23.252499016000002,1962,0x0000,0x656E
23.252499516000000,1962,0x0000,0x7463
23.252500015999999,1962,0x0000,0x6F69
23.252500516000001,1962,0x0000,0x3A6E
23.252501016000000,1962,0x0000,0x4B20
23.252501515999999,1962,0x0000,0x6565
23.252502016000001,1962,0x0000,0x2D70
23.252502516000000,1962,0x0000,0x6C41
23.252503015999999,1962,0x0000,0x7669
23.252503516000001,1962,0x0000,0x0D65
23.252504016000000,1962,0x0000,0x0D0A
23.252504515999998,1962,0x0000,0x020A
23.252505016000001,1962,0x0000,0x0006
23.252505515999999,1962,0x0000,0x6584
23.252506016000002,1962,0x0000,0x7F1E
23.252506516000000,1962,0x0000,0xBF00
23.252507015999999,1962,0x0000,0xD534
23.252507516000001,1962,0x0000,0xE2E2
23.252508016000000,1962,0x0000,0x0000
23.252508515999999,1962,0x0000,0x0000
23.252509016000001,1962,0x0000,0x0000
23.252509516000000,1962,0x0000,0x0000
23.252510015999999,1962,0x0000,0x0000
23.252510516000001,1962,0x0000,0x0000
23.252653922000000,1963,0xCC00,0x0000
23.252671016000001,1964,0x0000,0x0461
23.252689172000000,1965,0x4C00,0x6161
23.252703766000000,1966,0x0001,0x6161
23.252719704000000,1967,0xC300,0x6161
23.252734266000001,1968,0x0000,0x0040
23.252751236000002,1969,0xD400,0x4040
23.252765986000000,1970,0x0000,0x0102
23.252786266000001,1971,0xD500,0x0202
23.252800921999999,1972,0x0000,0x3600
23.252851421999999,1973,0x4100,0x0000
23.252866330000000,1974,0x0040,0x0000
23.252881892000001,1975,0x8FC0,0x0000
23.252925921999999,1976,0x0000,0x0201
23.252926422000002,1976,0x0000,0x0036
23.252926922000000,1976,0x0000,0x0408
23.252927421999999,1976,0x0000,0x9014
23.252927922000001,1976,0x0000,0x0000
23.252928422000000,1976,0x0000,0x0000
23.252928921999999,1976,0x0000,0x0005
23.252929422000001,1976,0x0000,0x001F
23.252929922000000,1976,0x0000,0x0000
23.252930421999999,1976,0x0000,0x0000
23.252930922000001,1976,0x0000,0x0000
23.252931422000000,1976,0x0000,0x0000
23.252931921999998,1976,0x0000,0x0000
23.252932422000001,1976,0x0000,0x0000
23.252932921999999,1976,0x0000,0x0000
23.252933422000002,1976,0x0000,0x0000
23.252933922000000,1976,0x0000,0x0000
23.252934421999999,1976,0x0000,0x0000
23.252934922000001,1976,0x0000,0x0000
23.252935422000000,1976,0x0000,0x0000
23.252935921999999,1976,0x0000,0x0000
23.252936422000001,1976,0x0000,0x0000
23.252936922000000,1976,0x0000,0x0000
23.252937421999999,1976,0x0000,0x0000
23.252937922000001,1976,0x0000,0x0000
23.252938422000000,1976,0x0000,0x0000
23.252938921999998,1976,0x0000,0x0602
23.252939422000001,1976,0x0000,0x0000
23.252939921999999,1976,0x0000,0x000C
23.252940422000002,1976,0x0000,0x0001
23.252940922000001,1976,0x0000,0x0101
23.252941421999999,1976,0x0000,0x0602
23.253065360000001,1977,0xCC00,0x0202
23.253081609999999,1978,0x0000,0x0460
23.253100016000001,1979,0xC300,0x6060
23.253114922000002,1980,0x0000,0x0000
23.253133141999999,1981,0x4D00,0x0000
23.253147391999999,1982,0x001F,0x0000
23.257300390000001,1983,0x4D00,0x0000
23.257315607999999,1984,0x001E,0x0000
23.257331482000001,1985,0x4100,0x0000
23.257345640000000,1986,0x00E0,0x0000
23.257361075999999,1987,0x0F20,0x0000
23.257433607999999,1988,0x0002,0x0000
23.257434108000002,1988,0x00D6,0x0000
23.257434608000001,1988,0x0000,0x0000
23.257435107999999,1988,0x0000,0x0000
23.257435608000002,1988,0xA000,0x0000
23.257436108000000,1988,0x0000,0x0000
23.257436607999999,1988,0x1A2C,0x0000
23.257437108000001,1988,0x60A7,0x0000
23.257437608000000,1988,0x5E98,0x0000
23.257438107999999,1988,0x3E6D,0x0000
23.257438608000001,1988,0x030C,0x0000
23.257439108000000,1988,0x44BC,0x0000
23.257439607999999,1988,0x8E9C,0x0000
23.257440108000001,1988,0x0045,0x0000
23.257440608000000,1988,0x0084,0x0000
23.257441107999998,1988,0x0000,0x0000
23.257441608000001,1988,0x0000,0x0000
23.257442107999999,1988,0x0000,0x0000
23.257442608000002,1988,0x0000,0x0000
23.257443108000000,1988,0x0000,0x0000
23.257443607999999,1988,0x0000,0x0000
23.257444108000001,1988,0x0000,0x0000
23.257444608000000,1988,0x0000,0x0000
23.257445107999999,1988,0x0000,0x0000
23.257445608000001,1988,0x0000,0x0000
23.257446108000000,1988,0x0000,0x0000
23.257446607999999,1988,0x0000,0x0000
23.257447108000001,1988,0x0000,0x0000
23.257447608000000,1988,0x0000,0x0000
23.257448107999998,1988,0x0000,0x0000
23.257448608000001,1988,0x0000,0x0000
23.257449107999999,1988,0x0000,0x0000
23.257449608000002,1988,0x0000,0x0000
23.257450108000000,1988,0x0000,0x0000
23.257450607999999,1988,0x0000,0x0000
23.257451108000001,1988,0x0000,0x0000
23.257451608000000,1988,0x0000,0x0000
23.257452107999999,1988,0x0000,0x0000
23.257452608000001,1988,0x0000,0x0000
23.257453108000000,1988,0x0000,0x0000
23.257453607999999,1988,0x0000,0x0000
23.257454108000001,1988,0x0000,0x0000
23.257454608000000,1988,0x0000,0x0000
23.257455107999998,1988,0x0000,0x0000
23.257455608000001,1988,0x5448,0x0000
23.257456108000000,1988,0x5054,0x0000
23.257456607999998,1988,0x312F,0x0000
23.257457108000001,1988,0x312E,0x0000
23.257457607999999,1988,0x3220,0x0000
23.257458108000002,1988,0x3030,0x0000
23.257458608000000,1988,0x4F20,0x0000
23.257459107999999,1988,0x0D4B,0x0000
23.257459608000001,1988,0x530A,0x0000
23.257460108000000,1988,0x7265,0x0000
23.257460607999999,1988,0x6576,0x0000
23.257461108000001,1988,0x3A72,0x0000
23.257461608000000,1988,0x5420,0x0000
23.257462107999999,1988,0x6E69,0x0000
23.257462608000001,1988,0x2079,0x0000
23.257463108000000,1988,0x6557,0x0000
23.257463607999998,1988,0x2062,0x0000
23.257464108000001,1988,0x6553,0x0000
23.257464607999999,1988,0x7672,0x0000
23.257465108000002,1988,0x7265,0x0000
23.257465608000000,1988,0x0A0D,0x0000
23.257466107999999,1988,0x6341,0x0000
23.257466608000001,1988,0x6563,0x0000
23.257467108000000,1988,0x7470,0x0000
23.257467607999999,1988,0x522D,0x0000
23.257468108000001,1988,0x6E61,0x0000
23.257468608000000,1988,0x6567,0x0000
23.257469107999999,1988,0x3A73,0x0000
23.257469608000001,1988,0x6220,0x0000
23.257470108000000,1988,0x7479,0x0000
23.257470607999998,1988,0x7365,0x0000
23.257471108000001,1988,0x0A0D,0x0000
23.257471607999999,1988,0x6F43,0x0000
23.257472108000002,1988,0x746E,0x0000
23.257472608000000,1988,0x6E65,0x0000
23.257473107999999,1988,0x2D74,0x0000
23.257473608000002,1988,0x656C,0x0000
23.257474108000000,1988,0x676E,0x0000
23.257474607999999,1988,0x6874,0x0000
23.257475108000001,1988,0x203A,0x0000
23.257475608000000,1988,0x3931,0x0000
23.257476107999999,1988,0x3435,0x0000
23.257476608000001,1988,0x3930,0x0000
23.257477108000000,1988,0x3433,0x0000
23.257477607999999,1988,0x0A0D,0x0000
23.257478108000001,1988,0x6F43,0x0000
23.257478608000000,1988,0x746E,0x0000
23.257479107999998,1988,0x6E65,0x0000
23.257479608000001,1988,0x2D74,0x0000
23.257480107999999,1988,0x7974,0x0000
23.257480608000002,1988,0x6570,0x0000
23.257481108000000,1988,0x203A,0x0000
23.257481607999999,1988,0x7061,0x0000
23.257482108000001,1988,0x6C70,0x0000
23.257482608000000,1988,0x6369,0x0000
23.257483107999999,1988,0x7461,0x0000
23.257483608000001,1988,0x6F69,0x0000
23.257484108000000,1988,0x2F6E,0x0000
23.257484607999999,1988,0x636F,0x0000
23.257485108000001,1988,0x6574,0x0000
23.257485608000000,1988,0x2D74,0x0000
23.257486107999998,1988,0x7473,0x0000
23.257486608000001,1988,0x6572,0x0000
23.257487107999999,1988,0x6D61,0x0000
23.257487608000002,1988,0x0A0D,0x0000
23.257488108000000,1988,0x0A0D,0x0000
23.257488607999999,1988,0xBDAB,0x0000
23.257489108000001,1988,0x168C,0x0000
23.257561232000000,1989,0x4D00,0x0000
23.257576201999999,1990,0x001F,0x0000
23.265020322000002,1991,0x4D00,0x0000
23.265035542000000,1992,0x001E,0x0000
23.265051291999999,1993,0x4100,0x0000
23.265065509999999,1994,0x0600,0x0000
23.265080886000000,1995,0x0A00,0x0000
23.265272792000001,1996,0x0002,0x0000
23.265273292000000,1996,0x05F8,0x0000
23.265273791999999,1996,0x0100,0x0000
23.265274292000001,1996,0x0000,0x0000
23.265274792000000,1996,0xA000,0x0000
23.265275291999998,1996,0x0000,0x0000
23.265275792000001,1996,0x1A2C,0x0000
23.265276291999999,1996,0x60A7,0x0000
23.265276792000002,1996,0x5E98,0x0000
23.265277292000000,1996,0x3E6D,0x0000
23.265277791999999,1996,0x030C,0x0000
23.265278292000001,1996,0x44BC,0x0000
23.265278790000000,1996,0x8E9C,0x0000
23.265279291999999,1996,0x0045,0x0000
23.265279792000001,1996,0x05A6,0x0000
23.265280292000000,1996,0x0000,0x0000
23.265280789999998,1996,0x0000,0x0000
23.265281292000001,1996,0x0000,0x0000
23.265281790000000,1996,0x0000,0x0000
23.265282289999998,1996,0x0000,0x0000
23.265282792000001,1996,0x0000,0x0000
23.265283291999999,1996,0x0000,0x0000
23.265283790000002,1996,0x0000,0x0000
23.265284292000000,1996,0x0000,0x0000
23.265284791999999,1996,0x0000,0x0000
23.265285290000001,1996,0x0000,0x0000
23.265285792000000,1996,0x0000,0x0000
23.265286289999999,1996,0x0000,0x0000
23.265286790000001,1996,0x0000,0x0000
23.265287292000000,1996,0x0000,0x0000
23.265287791999999,1996,0x0000,0x0000
23.265288290000001,1996,0x0000,0x0000
23.265288792000000,1996,0x0000,0x0000
23.265289291999999,1996,0x0000,0x0000
23.265289790000001,1996,0x0000,0x0000
23.265290289999999,1996,0x0000,0x0000
23.265290791999998,1996,0x0000,0x0000
23.265291290000000,1996,0x0000,0x0000
23.265291789999999,1996,0x0000,0x0000
23.265292290000001,1996,0x0000,0x0000
23.265292790000000,1996,0x0000,0x0000
23.265293291999999,1996,0x0000,0x0000
23.265293790000001,1996,0x0000,0x0000
23.265294290000000,1996,0x0000,0x0000
23.265294789999999,1996,0x4949,0x0000
23.265295290000001,1996,0x002A,0x0000
23.265295792000000,1996,0x0010,0x0000
23.265296291999999,1996,0x0000,0x0000
23.265296790000001,1996,0x5243,0x0000
23.265297292000000,1996,0x0002,0x0000
23.265297791999998,1996,0x1964,0x0000
23.265298292000001,1996,0x0001,0x0000
23.265298789999999,1996,0x0012,0x0000
23.265299290000002,1996,0x0100,0x0000
23.265299792000000,1996,0x0003,0x0000
23.265300291999999,1996,0x0001,0x0000
23.265300792000001,1996,0x0000,0x0000
23.265301290000000,1996,0x1680,0x0000
23.265301789999999,1996,0x0000,0x0000
23.265302290000001,1996,0x0101,0x0000
23.265302790000000,1996,0x0003,0x0000
23.265303291999999,1996,0x0001,0x0000
23.265303790000001,1996,0x0000,0x0000
23.265304292000000,1996,0x0F00,0x0000
23.265304791999998,1996,0x0000,0x0000
23.265305290000001,1996,0x0102,0x0000
23.265305789999999,1996,0x0003,0x0000
23.265306290000002,1996,0x0003,0x0000
23.265306790000000,1996,0x0000,0x0000
23.265307291999999,1996,0x00EE,0x0000
23.265307790000001,1996,0x0000,0x0000
23.265308290000000,1996,0x0103,0x0000
23.265308791999999,1996,0x0003,0x0000
23.265309292000001,1996,0x0001,0x0000
23.265309790000000,1996,0x0000,0x0000
23.265310289999999,1996,0x0006,0x0000
23.265310792000001,1996,0x0000,0x0000
23.265311290000000,1996,0x010F,0x0000
23.265311789999998,1996,0x0002,0x0000
23.265312292000001,1996,0x0006,0x0000
23.265312792000000,1996,0x0000,0x0000
23.265313290000002,1996,0x00F4,0x0000
23.265313790000000,1996,0x0000,0x0000
23.265314289999999,1996,0x0110,0x0000
23.265314790000001,1996,0x0002,0x0000
23.265315292000000,1996,0x0016,0x0000
23.265315791999999,1996,0x0000,0x0000
23.265316292000001,1996,0x00FA,0x0000
23.265316790000000,1996,0x0000,0x0000
23.265317289999999,1996,0x0111,0x0000
23.265317790000001,1996,0x0004,0x0000
23.265318290000000,1996,0x0001,0x0000
23.265318789999998,1996,0x0000,0x0000
23.265319290000001,1996,0x6ED8,0x0000
23.265319790000000,1996,0x0001,0x0000
23.265320289999998,1996,0x0112,0x0000
23.265320792000001,1996,0x0003,0x0000
23.265321289999999,1996,0x0001,0x0000
23.265321790000002,1996,0x0000,0x0000
23.265322290000000,1996,0x0008,0x0000
23.265322789999999,1996,0x0000,0x0000
23.265323290000001,1996,0x0117,0x0000
23.265323792000000,1996,0x0004,0x0000
23.265324291999999,1996,0x0001,0x0000
23.265324790000001,1996,0x0000,0x0000
23.265325290000000,1996,0x2A96,0x0000
23.265325791999999,1996,0x0017,0x0000
23.265326290000001,1996,0x011A,0x0000
23.265326790000000,1996,0x0005,0x0000
23.265327289999998,1996,0x0001,0x0000
23.265327790000001,1996,0x0000,0x0000
23.265328292000000,1996,0x011A,0x0000
23.265328790000002,1996,0x0000,0x0000
23.265329290000000,1996,0x011B,0x0000
23.265329789999999,1996,0x0005,0x0000
23.265330290000001,1996,0x0001,0x0000
23.265330790000000,1996,0x0000,0x0000
23.265331289999999,1996,0x0122,0x0000
23.265331790000001,1996,0x0000,0x0000
23.265332290000000,1996,0x0128,0x0000
23.265332789999999,1996,0x0003,0x0000
23.265333292000001,1996,0x0001,0x0000
23.265333790000000,1996,0x0000,0x0000
23.265334289999998,1996,0x0002,0x0000
23.265334790000001,1996,0x0000,0x0000
23.265335289999999,1996,0x0132,0x0000
23.265335790000002,1996,0x0002,0x0000
23.265336290000000,1996,0x0014,0x0000
23.265336789999999,1996,0x0000,0x0000
23.265337290000002,1996,0x012A,0x0000
23.265337792000000,1996,0x0000,0x0000
23.265338289999999,1996,0x013B,0x0000
23.265338792000001,1996,0x0002,0x0000
23.265339290000000,1996,0x0001,0x0000
23.265339789999999,1996,0x0000,0x0000
23.265340290000001,1996,0x0000,0x0000
23.265340790000000,1996,0x0000,0x0000
23.265341289999999,1996,0x02BC,0x0000
23.265341790000001,1996,0x0001,0x0000
23.265342290000000,1996,0x2000,0x0000
23.265342789999998,1996,0x0000,0x0000
23.265343290000001,1996,0x19C4,0x0000
23.265343789999999,1996,0x0001,0x0000
23.265344290000002,1996,0x8298,0x0000
23.265344792000000,1996,0x0002,0x0000
23.265345291999999,1996,0x0001,0x0000
23.265345790000001,1996,0x0000,0x0000
23.265346290000000,1996,0x0000,0x0000
23.265346789999999,1996,0x0000,0x0000
23.265347290000001,1996,0x8769,0x0000
23.265347790000000,1996,0x0004,0x0000
23.265348291999999,1996,0x0001,0x0000
23.265348790000001,1996,0x0000,0x0000
23.265349290000000,1996,0x01BE,0x0000
23.265349789999998,1996,0x0000,0x0000
23.265350290000001,1996,0x8825,0x0000
23.265350789999999,1996,0x0004,0x0000
23.265351290000002,1996,0x0001,0x0000
23.265351790000000,1996,0x0000,0x0000
23.265352289999999,1996,0x118C,0x0000
23.265352790000001,1996,0x0001,0x0000
23.265353290000000,1996,0x188E,0x0000
23.265353789999999,1996,0x0001,0x0000
23.265354290000001,1996,0x0008,0x0000
23.265354790000000,1996,0x0008,0x0000
23.265355289999999,1996,0x0008,0x0000
23.265355790000001,1996,0x6143,0x0000
23.265356290000000,1996,0x6F6E,0x0000
23.265356791999999,1996,0x006E,0x0000
23.265357292000001,1996,0x6143,0x0000
23.265357792000000,1996,0x6F6E,0x0000
23.265358290000002,1996,0x206E,0x0000
23.265358790000001,1996,0x4F45,0x0000
23.265359289999999,1996,0x2053,0x0000
23.265359792000002,1996,0x4435,0x0000
23.265360292000000,1996,0x4D20,0x0000
23.265360789999999,1996,0x7261,0x0000
23.265361290000001,1996,0x206B,0x0000
23.265361792000000,1996,0x4949,0x0000
23.265362289999999,1996,0x0049,0x0000
23.265362790000001,1996,0x0000,0x0000
23.265363290000000,1996,0x0000,0x0000
23.265363791999999,1996,0x0000,0x0000
23.265364290000001,1996,0x0000,0x0000
23.265364790000000,1996,0x0000,0x0000
23.265365289999998,1996,0x0048,0x0000
23.265365792000001,1996,0x0000,0x0000
23.265366289999999,1996,0x0001,0x0000
23.265366790000002,1996,0x0000,0x0000
23.265367290000000,1996,0x0048,0x0000
23.265367789999999,1996,0x0000,0x0000
23.265368290000001,1996,0x0001,0x0000
23.265368790000000,1996,0x0000,0x0000
23.265369289999999,1996,0x3032,0x0000
23.265369790000001,1996,0x3631,0x0000
23.265370290000000,1996,0x303A,0x0000
23.265370789999999,1996,0x3A33,0x0000
23.265371290000001,1996,0x3032,0x0000
23.265371790000000,1996,0x3120,0x0000
23.265372289999998,1996,0x3A32,0x0000
23.265372790000001,1996,0x3034,0x0000
23.265373289999999,1996,0x343A,0x0000
23.265373790000002,1996,0x0032,0x0000
23.265374290000000,1996,0x0000,0x0000
23.265374789999999,1996,0x0000,0x0000
23.265375290000001,1996,0x0000,0x0000
23.265375790000000,1996,0x0000,0x0000
23.265376289999999,1996,0x0000,0x0000
23.265376790000001,1996,0x0000,0x0000
23.265377290000000,1996,0x0000,0x0000
23.265377789999999,1996,0x0000,0x0000
23.265378290000001,1996,0x0000,0x0000
23.265378790000000,1996,0x0000,0x0000
23.265379289999998,1996,0x0000,0x0000
23.265379790000001,1996,0x0000,0x0000
23.265380292000000,1996,0x0000,0x0000
23.265380789999998,1996,0x0000,0x0000
23.265381290000001,1996,0x0000,0x0000
23.265381789999999,1996,0x0000,0x0000
23.265382290000002,1996,0x0000,0x0000
23.265382790000000,1996,0x0000,0x0000
23.265383289999999,1996,0x0000,0x0000
23.265383790000001,1996,0x0000,0x0000
23.265384290000000,1996,0x0000,0x0000
23.265384789999999,1996,0x0000,0x0000
23.265385290000001,1996,0x0000,0x0000
23.265385790000000,1996,0x0000,0x0000
23.265386289999999,1996,0x0000,0x0000
23.265386790000001,1996,0x0000,0x0000
23.265387290000000,1996,0x0000,0x0000
23.265387789999998,1996,0x0000,0x0000
23.265388290000001,1996,0x0000,0x0000
23.265388789999999,1996,0x0000,0x0000
23.265389290000002,1996,0x0000,0x0000
23.265389790000000,1996,0x0000,0x0000
23.265390289999999,1996,0x0000,0x0000
23.265390790000001,1996,0x0000,0x0000
23.265391290000000,1996,0x0000,0x0000
23.265391789999999,1996,0x0000,0x0000
23.265392290000001,1996,0x0000,0x0000
23.265392790000000,1996,0x0000,0x0000
23.265393289999999,1996,0x0000,0x0000
23.265393790000001,1996,0x0000,0x0000
23.265394292000000,1996,0x0000,0x0000
23.265394789999998,1996,0x0000,0x0000
23.265395290000001,1996,0x0000,0x0000
23.265395789999999,1996,0x0000,0x0000
23.265396290000002,1996,0x0000,0x0000
23.265396790000000,1996,0x0000,0x0000
23.265397289999999,1996,0x0000,0x0000
23.265397790000002,1996,0x0000,0x0000
23.265398290000000,1996,0x0000,0x0000
23.265398789999999,1996,0x0000,0x0000
23.265399290000001,1996,0x0000,0x0000
23.265399790000000,1996,0x0000,0x0000
23.265400289999999,1996,0x0000,0x0000
23.265400790000001,1996,0x0000,0x0000
23.265401290000000,1996,0x0000,0x0000
23.265401789999999,1996,0x0000,0x0000
23.265402290000001,1996,0x0000,0x0000
23.265402790000000,1996,0x0000,0x0000
23.265403289999998,1996,0x0000,0x0000
23.265403790000001,1996,0x0000,0x0000
23.265404289999999,1996,0x0000,0x0000
23.265404790000002,1996,0x0000,0x0000
23.265405290000000,1996,0x0000,0x0000
23.265405789999999,1996,0x0000,0x0000
23.265406290000001,1996,0x0026,0x0000
23.265406790000000,1996,0x829A,0x0000
23.265407289999999,1996,0x0005,0x0000
23.265407790000001,1996,0x0001,0x0000
23.265408290000000,1996,0x0000,0x0000
23.265408789999999,1996,0x038C,0x0000
23.265409290000001,1996,0x0000,0x0000
23.265409790000000,1996,0x829D,0x0000
23.265410289999998,1996,0x0005,0x0000
23.265410790000001,1996,0x0001,0x0000
23.265411289999999,1996,0x0000,0x0000
23.265411791999998,1996,0x0394,0x0000
23.265412290000000,1996,0x0000,0x0000
23.265412789999999,1996,0x8822,0x0000
23.265413290000001,1996,0x0003,0x0000
23.265413790000000,1996,0x0001,0x0000
23.265414289999999,1996,0x0000,0x0000
23.265414790000001,1996,0x0001,0x0000
23.265415290000000,1996,0x0000,0x0000
23.265415789999999,1996,0x8827,0x0000
23.265416290000001,1996,0x0003,0x0000
23.265416792000000,1996,0x0001,0x0000
23.265417289999998,1996,0x0000,0x0000
23.265417790000001,1996,0x0320,0x0000
23.265418290000000,1996,0x0000,0x0000
23.265418789999998,1996,0x8830,0x0000
23.265419290000001,1996,0x0003,0x0000
23.265419789999999,1996,0x0001,0x0000
23.265420290000002,1996,0x0000,0x0000
23.265420792000000,1996,0x0002,0x0000
23.265421289999999,1996,0x0000,0x0000
23.265421790000001,1996,0x8832,0x0000
23.265422290000000,1996,0x0004,0x0000
23.265422789999999,1996,0x0001,0x0000
23.265423290000001,1996,0x0000,0x0000
23.265423790000000,1996,0x0320,0x0000
23.265424289999999,1996,0x0000,0x0000
23.265424792000001,1996,0x9000,0x0000
23.265425290000000,1996,0x0007,0x0000
23.265425791999998,1996,0x0004,0x0000
23.265426290000001,1996,0x0000,0x0000
23.265426789999999,1996,0x3230,0x0000
23.265427290000002,1996,0x3033,0x0000
23.265427790000000,1996,0x9003,0x0000
23.265428291999999,1996,0x0002,0x0000
23.265428790000001,1996,0x0014,0x0000
23.265429290000000,1996,0x0000,0x0000
23.265429789999999,1996,0x039C,0x0000
23.265430290000001,1996,0x0000,0x0000
23.265430790000000,1996,0x9004,0x0000
23.265431289999999,1996,0x0002,0x0000
23.265431792000001,1996,0x0014,0x0000
23.265432290000000,1996,0x0000,0x0000
23.265432789999998,1996,0x03B0,0x0000
23.265433290000001,1996,0x0000,0x0000
23.265433789999999,1996,0x9101,0x0000
23.265434290000002,1996,0x0007,0x0000
23.265434790000000,1996,0x0004,0x0000
23.265435289999999,1996,0x0000,0x0000
23.265435790000002,1996,0x0201,0x0000
23.265436290000000,1996,0x0003,0x0000
23.265436789999999,1996,0x9201,0x0000
23.265437290000001,1996,0x000A,0x0000
23.265437790000000,1996,0x0001,0x0000
23.265438289999999,1996,0x0000,0x0000
23.265438790000001,1996,0x03C4,0x0000
23.265439290000000,1996,0x0000,0x0000
23.265439789999999,1996,0x9202,0x0000
23.265440290000001,1996,0x0005,0x0000
23.265440790000000,1996,0x0001,0x0000
23.265441289999998,1996,0x0000,0x0000
23.265441790000001,1996,0x03CC,0x0000
23.265442289999999,1996,0x0000,0x0000
23.265442790000002,1996,0x9204,0x0000
23.265443290000000,1996,0x000A,0x0000
23.265443789999999,1996,0x0001,0x0000
23.265444290000001,1996,0x0000,0x0000
23.265444790000000,1996,0x03D4,0x0000
23.265445289999999,1996,0x0000,0x0000
23.265445790000001,1996,0x9207,0x0000
23.265446292000000,1996,0x0003,0x0000
23.265446791999999,1996,0x0001,0x0000
23.265447290000001,1996,0x0000,0x0000
23.265447790000000,1996,0x0005,0x0000
23.265448289999998,1996,0x0000,0x0000
23.265448790000001,1996,0x9209,0x0000
23.265449289999999,1996,0x0003,0x0000
23.265449791999998,1996,0x0001,0x0000
23.265450290000000,1996,0x0000,0x0000
23.265450789999999,1996,0x0010,0x0000
23.265451290000001,1996,0x0000,0x0000
23.265451790000000,1996,0x920A,0x0000
23.265452289999999,1996,0x0005,0x0000
23.265452790000001,1996,0x0001,0x0000
23.265453290000000,1996,0x0000,0x0000
23.265453789999999,1996,0x03DC,0x0000
23.265454290000001,1996,0x0000,0x0000
23.265454790000000,1996,0x927C,0x0000
23.265455289999998,1996,0x0007,0x0000
23.265455790000001,1996,0x0BBC,0x0000
23.265456289999999,1996,0x0001,0x0000
23.265456790000002,1996,0x03E4,0x0000
23.265457290000001,1996,0x0000,0x0000
23.265457789999999,1996,0x9286,0x0000
23.265458290000002,1996,0x0007,0x0000
23.265458792000000,1996,0x0108,0x0000
23.265459289999999,1996,0x0000,0x0000
23.265459790000001,1996,0x0FA0,0x0000
23.265460290000000,1996,0x0001,0x0000
23.265460789999999,1996,0x9290,0x0000
23.265461290000001,1996,0x0002,0x0000
23.265461792000000,1996,0x0003,0x0000
23.265462291999999,1996,0x0000,0x0000
23.265462790000001,1996,0x3632,0x0000
23.265463290000000,1996,0x0000,0x0000
23.265463789999998,1996,0x9291,0x0000
23.265464290000001,1996,0x0002,0x0000
23.265464789999999,1996,0x0003,0x0000
23.265465291999998,1996,0x0000,0x0000
23.265465790000000,1996,0x3632,0x0000
23.265466289999999,1996,0x0000,0x0000
23.265466790000001,1996,0x9292,0x0000
23.265467290000000,1996,0x0002,0x0000
23.265467789999999,1996,0x0003,0x0000
23.265468292000001,1996,0x0000,0x0000
23.265468790000000,1996,0x3632,0x0000
23.265469289999999,1996,0x0000,0x0000
23.265469790000001,1996,0xA000,0x0000
23.265470290000000,1996,0x0007,0x0000
23.265470789999998,1996,0x0004,0x0000
23.265471290000001,1996,0x0000,0x0000
23.265471789999999,1996,0x3130,0x0000
23.265472290000002,1996,0x3030,0x0000
23.265472790000000,1996,0xA001,0x0000
23.265473289999999,1996,0x0003,0x0000
23.265473790000001,1996,0x0001,0x0000
23.265474290000000,1996,0x0000,0x0000
23.265474789999999,1996,0x0001,0x0000
23.265475290000001,1996,0x0000,0x0000
23.265475790000000,1996,0xA002,0x0000
23.265476289999999,1996,0x0003,0x0000
23.265476790000001,1996,0x0001,0x0000
23.265477292000000,1996,0x0000,0x0000
23.265477789999998,1996,0x0F78,0x0000
23.265478290000001,1996,0x0000,0x0000
23.265478790000000,1996,0xA003,0x0000
23.265479289999998,1996,0x0003,0x0000
23.265479790000001,1996,0x0001,0x0000
23.265480289999999,1996,0x0000,0x0000
23.265480790000002,1996,0x0A50,0x0000
23.265481290000000,1996,0x0000,0x0000
23.265481789999999,1996,0xA005,0x0000
23.265482290000001,1996,0x0004,0x0000
23.265482790000000,1996,0x0001,0x0000
23.265483289999999,1996,0x0000,0x0000
23.265483790000001,1996,0x10A8,0x0000
23.265484290000000,1996,0x0001,0x0000
23.265484789999999,1996,0xA20E,0x0000
23.265485292000001,1996,0x0005,0x0000
23.265485790000000,1996,0x0001,0x0000
23.265486289999998,1996,0x0000,0x0000
23.265486790000001,1996,0x10C6,0x0000
23.265487289999999,1996,0x0001,0x0000
23.265487790000002,1996,0xA20F,0x0000
23.265488292000001,1996,0x0005,0x0000
23.265488789999999,1996,0x0001,0x0000
23.265489290000001,1996,0x0000,0x0000
23.265489790000000,1996,0x10CE,0x0000
23.265490289999999,1996,0x0001,0x0000
23.265490790000001,1996,0xA210,0x0000
23.265491290000000,1996,0x0003,0x0000
23.265491789999999,1996,0x0001,0x0000
23.265492290000001,1996,0x0000,0x0000
23.265492790000000,1996,0x0002,0x0000
23.265493289999998,1996,0x0000,0x0000
23.265493790000001,1996,0xA401,0x0000
23.265494289999999,1996,0x0003,0x0000
23.265494790000002,1996,0x0001,0x0000
23.265495292000001,1996,0x0000,0x0000
23.265495789999999,1996,0x0000,0x0000
23.265496290000002,1996,0x0000,0x0000
23.265496790000000,1996,0xA402,0x0000
23.265497291999999,1996,0x0003,0x0000
23.265497790000001,1996,0x0001,0x0000
23.265498290000000,1996,0x0000,0x0000
23.265498789999999,1996,0x0001,0x0000
23.265499290000001,1996,0x0000,0x0000
23.265499790000000,1996,0xA403,0x0000
23.265500291999999,1996,0x0003,0x0000
23.265500792000001,1996,0x0001,0x0000
23.265501290000000,1996,0x0000,0x0000
23.265501789999998,1996,0x0000,0x0000
23.265502290000001,1996,0x0000,0x0000
23.265502789999999,1996,0xA406,0x0000
23.265503290000002,1996,0x0003,0x0000
23.265503790000000,1996,0x0001,0x0000
23.265504289999999,1996,0x0000,0x0000
23.265504790000001,1996,0x0000,0x0000
23.265505290000000,1996,0x0000,0x0000
23.265505789999999,1996,0xA430,0x0000
23.265506290000001,1996,0x0002,0x0000
23.265506790000000,1996,0x0001,0x0000
23.265507289999999,1996,0x0000,0x0000
23.265507790000001,1996,0x1000,0x0000
23.265508290000000,1996,0x0001,0x0000
23.265508789999998,1996,0xA431,0x0000
23.265509290000001,1996,0x0002,0x0000
23.265509789999999,1996,0x000D,0x0000
23.265510290000002,1996,0x0000,0x0000
23.265510790000000,1996,0x10F6,0x0000
23.265511289999999,1996,0x0001,0x0000
23.265511790000001,1996,0xA432,0x0000
23.265512290000000,1996,0x0005,0x0000
23.265512789999999,1996,0x0004,0x0000
23.265513290000001,1996,0x0000,0x0000
23.265513790000000,1996,0x1116,0x0000
23.265514289999999,1996,0x0001,0x0000
23.265514790000001,1996,0xA434,0x0000
23.265515290000000,1996,0x0002,0x0000
23.265515789999998,1996,0x0011,0x0000
23.265516290000001,1996,0x0000,0x0000
23.265516790000000,1996,0x1136,0x0000
23.265517289999998,1996,0x0001,0x0000
23.265517790000001,1996,0xA435,0x0000
23.265518289999999,1996,0x0002,0x0000
23.265518790000002,1996,0x000B,0x0000
23.265519290000000,1996,0x0000,0x0000
23.265519791999999,1996,0x1180,0x0000
23.265520290000001,1996,0x0001,0x0000
23.265520790000000,1996,0x0000,0x0000
23.265521289999999,1996,0x0000,0x0000
23.265521790000001,1996,0x0001,0x0000
23.265522290000000,1996,0x0000,0x0000
23.265522789999999,1996,0x0140,0x0000
23.265523290000001,1996,0x0000,0x0000
23.265523790000000,1996,0x0016,0x0000
23.265524289999998,1996,0x0000,0x0000
23.265524790000001,1996,0x000A,0x0000
23.265525289999999,1996,0x0000,0x0000
23.265525790000002,1996,0x3032,0x0000
23.265526290000000,1996,0x3631,0x0000
23.265526789999999,1996,0x303A,0x0000
23.265527290000001,1996,0x3A33,0x0000
23.265527790000000,1996,0x3032,0x0000
23.265528289999999,1996,0x3120,0x0000
23.265528790000001,1996,0x3A32,0x0000
23.265529290000000,1996,0x3034,0x0000
23.265529789999999,1996,0x343A,0x0000
23.265530290000001,1996,0x0032,0x0000
23.265530790000000,1996,0x3032,0x0000
23.265531289999998,1996,0x3631,0x0000
23.265531790000001,1996,0x303A,0x0000
23.265532289999999,1996,0x3A33,0x0000
23.265532790000002,1996,0x3032,0x0000
23.265533290000000,1996,0x3120,0x0000
23.265533789999999,1996,0x3A32,0x0000
23.265534290000002,1996,0x3034,0x0000
23.265534790000000,1996,0x343A,0x0000
23.265535289999999,1996,0x0032,0x0000
23.265535790000001,1996,0x6000,0x0000
23.265536290000000,1996,0x0008,0x0000
23.265536789999999,1996,0x0000,0x0000
23.265537290000001,1996,0x0001,0x0000
23.265537790000000,1996,0x6000,0x0000
23.265538289999999,1996,0x0002,0x0000
23.265538790000001,1996,0x0000,0x0000
23.265539290000000,1996,0x0001,0x0000
23.265539789999998,1996,0x0000,0x0000
23.265540290000001,1996,0x0000,0x0000
23.265540789999999,1996,0x0001,0x0000
23.265541290000002,1996,0x0000,0x0000
23.265541790000000,1996,0x0055,0x0000
23.265542289999999,1996,0x0000,0x0000
23.265542790000001,1996,0x0001,0x0000
23.265543290000000,1996,0x0000,0x0000
23.265543789999999,1996,0x002A,0x0000
23.265544290000001,1996,0x0001,0x0000
23.265544790000000,1996,0x0003,0x0000
23.265545289999999,1996,0x0031,0x0000
23.265545790000001,1996,0x0000,0x0000
23.265546290000000,1996,0x05E2,0x0000
23.265546789999998,1996,0x0000,0x0000
23.265547290000001,1996,0x0002,0x0000
23.265547789999999,1996,0x0003,0x0000
23.265548291999998,1996,0x0004,0x0000
23.265548790000000,1996,0x0000,0x0000
23.265549289999999,1996,0x0644,0x0000
23.265549790000001,1996,0x0000,0x0000
23.265550290000000,1996,0x0003,0x0000
23.265550789999999,1996,0x0003,0x0000
23.265551290000001,1996,0x0004,0x0000
23.265551790000000,1996,0x0000,0x0000
23.265552289999999,1996,0x064C,0x0000
23.265552790000001,1996,0x0000,0x0000
23.265553290000000,1996,0x0004,0x0000
23.265553789999998,1996,0x0003,0x0000
23.265554290000001,1996,0x0022,0x0000
23.265554789999999,1996,0x0000,0x0000
23.265555290000002,1996,0x0654,0x0000
23.265555790000001,1996,0x0000,0x0000
23.265556289999999,1996,0x0006,0x0000
23.265556790000002,1996,0x0002,0x0000
23.265557290000000,1996,0x0016,0x0000
23.265557789999999,1996,0x0000,0x0000
23.265558290000001,1996,0x0698,0x0000
23.265558790000000,1996,0x0000,0x0000
23.265559289999999,1996,0x0007,0x0000
23.265559790000001,1996,0x0002,0x0000
23.265560290000000,1996,0x0018,0x0000
23.265560789999999,1996,0x0000,0x0000
23.265561290000001,1996,0x06B8,0x0000
23.265561790000000,1996,0x0000,0x0000
23.265562289999998,1996,0x0009,0x0000
23.265562790000001,1996,0x0002,0x0000
23.265563289999999,1996,0x0020,0x0000
23.265563790000002,1996,0x0000,0x0000
23.265564290000000,1996,0x06D0,0x0000
23.265564789999999,1996,0x0000,0x0000
23.265565290000001,1996,0x000D,0x0000
23.265565790000000,1996,0x0007,0x0000
23.265566291999999,1996,0x0600,0x0000
23.265566790000001,1996,0x0000,0x0000
23.265567290000000,1996,0x06F0,0x0000
23.265567789999999,1996,0x0000,0x0000
23.265568290000001,1996,0x0010,0x0000
23.265568790000000,1996,0x0004,0x0000
23.265569289999998,1996,0x0001,0x0000
23.265569790000001,1996,0x0000,0x0000
23.265570289999999,1996,0x0285,0x0000
23.265570790000002,1996,0x8000,0x0000
23.265571290000000,1996,0x0013,0x0000
23.265571789999999,1996,0x0003,0x0000
23.265572290000001,1996,0x0004,0x0000
23.265572790000000,1996,0x0000,0x0000
23.265573289999999,1996,0x0CF0,0x0000
23.265573790000001,1996,0x0000,0x0000
23.265574290000000,1996,0x0019,0x0000
23.265574789999999,1996,0x0003,0x0000
23.265575290000001,1996,0x0001,0x0000
23.265575790000000,1996,0x0000,0x0000
23.265576289999998,1996,0x0001,0x0000
23.265576790000001,1996,0x0000,0x0000
23.265577290000000,1996,0x0026,0x0000
23.265577789999998,1996,0x0003,0x0000
23.265578290000001,1996,0x0109,0x0000
23.265578789999999,1996,0x0000,0x0000
23.265579290000002,1996,0x0CF8,0x0000
23.265579790000000,1996,0x0000,0x0000
23.265580289999999,1996,0x0035,0x0000
23.265580790000001,1996,0x0004,0x0000
23.265581290000000,1996,0x0004,0x0000
23.265581789999999,1996,0x0000,0x0000
23.265582290000001,1996,0x0F0A,0x0000
23.265582790000000,1996,0x0000,0x0000
23.265583289999999,1996,0x0093,0x0000
23.265583790000001,1996,0x0003,0x0000
23.265584290000000,1996,0x001E,0x0000
23.265584789999998,1996,0x0000,0x0000
23.265585290000001,1996,0x0F1A,0x0000
23.265585789999999,1996,0x0000,0x0000
23.265586290000002,1996,0x0095,0x0000
23.265586790000000,1996,0x0002,0x0000
23.265587289999999,1996,0x004A,0x0000
23.265587790000001,1996,0x0000,0x0000
23.265588290000000,1996,0x0F56,0x0000
23.265588789999999,1996,0x0000,0x0000
23.265589290000001,1996,0x0096,0x0000
23.265589790000000,1996,0x0002,0x0000
23.265590289999999,1996,0x0010,0x0000
23.265590790000001,1996,0x0000,0x0000
23.265591290000000,1996,0x0FA0,0x0000
23.265591789999998,1996,0x0000,0x0000
23.265592290000001,1996,0x0097,0x0000
23.265592789999999,1996,0x0007,0x0000
23.265593291999998,1996,0x0400,0x0000
23.265593790000000,1996,0x0000,0x0000
23.265594289999999,1996,0x0FB0,0x0000
23.265594790000002,1996,0x0000,0x0000
23.265595290000000,1996,0x0098,0x0000
23.265595789999999,1996,0x0003,0x0000
23.265596290000001,1996,0x0004,0x0000
23.265596790000000,1996,0x0000,0x0000
23.265597289999999,1996,0x13B0,0x0000
23.265597790000001,1996,0x0000,0x0000
23.265598290000000,1996,0x0099,0x0000
23.265598789999999,1996,0x0004,0x0000
23.265599290000001,1996,0x0053,0x0000
23.265599790000000,1996,0x0000,0x0000
23.265600289999998,1996,0x13B8,0x0000
23.265600790000001,1996,0x0000,0x0000
23.265601289999999,1996,0x009A,0x0000
23.265601790000002,1996,0x0004,0x0000
23.265602290000000,1996,0x0005,0x0000
23.265602789999999,1996,0x0000,0x0000
23.265603290000001,1996,0x1504,0x0000
23.265603790000000,1996,0x0000,0x0000
23.265604289999999,1996,0x00A0,0x0000
23.265604790000001,1996,0x0003,0x0000
23.265605290000000,1996,0x000E,0x0000
23.265605789999999,1996,0x0000,0x0000
23.265606290000001,1996,0x1518,0x0000
23.265606790000000,1996,0x0000,0x0000
23.265607289999998,1996,0x00AA,0x0000
23.265607790000001,1996,0x0003,0x0000
23.265608289999999,1996,0x0006,0x0000
23.265608790000002,1996,0x0000,0x0000
23.265609290000000,1996,0x1534,0x0000
23.265609789999999,1996,0x0000,0x0000
23.265610290000001,1996,0x00B4,0x0000
23.265610790000000,1996,0x0003,0x0000
23.265611289999999,1996,0x0001,0x0000
23.265611790000001,1996,0x0000,0x0000
23.265612290000000,1996,0x0001,0x0000
23.265612789999999,1996,0x0000,0x0000
23.265613290000001,1996,0x00D0,0x0000
23.265613790000000,1996,0x0004,0x0000
23.265614289999998,1996,0x0001,0x0000
23.265614790000001,1996,0x0000,0x0000
23.265615290000000,1996,0x0000,0x0000
23.265615789999998,1996,0x0000,0x0000
23.265616290000001,1996,0x00E0,0x0000
23.265616789999999,1996,0x0003,0x0000
23.265617290000002,1996,0x0011,0x0000
23.265617790000000,1996,0x0000,0x0000
23.265618289999999,1996,0x1540,0x0000
23.265618790000001,1996,0x0000,0x0000
23.265619290000000,1996,0x4001,0x0000
23.265619789999999,1996,0x0003,0x0000
23.265620290000001,1996,0x0520,0x0000
23.265620790000000,1996,0x0000,0x0000
23.265621289999999,1996,0x1562,0x0000
23.265621790000001,1996,0x0000,0x0000
23.265622290000000,1996,0x4002,0x0000
23.265622789999998,1996,0x0007,0x0000
23.265623290000001,1996,0xAA34,0x0000
23.265623789999999,1996,0x0000,0x0000
23.265624290000002,1996,0x1FA2,0x0000
23.265624790000000,1996,0x0000,0x0000
23.265625289999999,1996,0x4005,0x0000
23.265625790000001,1996,0x0007,0x0000
23.265626290000000,1996,0x4198,0x0000
23.265626789999999,1996,0x0000,0x0000
23.265627290000001,1996,0xC9D6,0x0000
23.265627790000000,1996,0x0000,0x0000
23.265628289999999,1996,0x4008,0x0000
23.265628790000001,1996,0x0003,0x0000
23.265629290000000,1996,0x0003,0x0000
23.265629789999998,1996,0x0000,0x0000
23.265630290000001,1996,0x0B6E,0x0000
23.265630789999999,1996,0x0001,0x0000
23.265631290000002,1996,0x4009,0x0000
23.265631790000000,1996,0x0003,0x0000
23.265632289999999,1996,0x0003,0x0000
23.265632790000002,1996,0x0000,0x0000
23.265633290000000,1996,0x0B74,0x0000
23.265633789999999,1996,0x0001,0x0000
23.265634290000001,1996,0x4010,0x0000
23.265634790000000,1996,0x0002,0x0000
23.265635289999999,1996,0x0020,0x0000
23.265635790000001,1996,0x0000,0x0000
23.265636290000000,1996,0x0B7A,0x0000
23.265636789999999,1996,0x0001,0x0000
23.265637290000001,1996,0x4011,0x0000
23.265637790000000,1996,0x0007,0x0000
23.265638289999998,1996,0x00FC,0x0000
23.265638790000001,1996,0x0000,0x0000
23.265639289999999,1996,0x0B9A,0x0000
23.265639790000002,1996,0x0001,0x0000
23.265640290000000,1996,0x4012,0x0000
23.265640789999999,1996,0x0002,0x0000
23.265641290000001,1996,0x0020,0x0000
23.265641790000000,1996,0x0000,0x0000
23.265642289999999,1996,0x0C96,0x0000
23.265642790000001,1996,0x0001,0x0000
23.265643290000000,1996,0x4013,0x0000
23.265643789999999,1996,0x0004,0x0000
23.265644290000001,1996,0x000B,0x0000
23.265644790000000,1996,0x0000,0x0000
23.265645289999998,1996,0x0CB6,0x0000
23.265645790000001,1996,0x0001,0x0000
23.265646289999999,1996,0x4015,0x0000
23.265646790000002,1996,0x0007,0x0000
23.265647290000000,1996,0x01C8,0x0000
23.265647789999999,1996,0x0000,0x0000
23.265648290000001,1996,0x0CE2,0x0000
23.265648790000000,1996,0x0001,0x0000
23.265649289999999,1996,0x4016,0x0000
23.265649790000001,1996,0x0004,0x0000
23.265650290000000,1996,0x0007,0x0000
23.265650789999999,1996,0x0000,0x0000
23.265651290000001,1996,0x0EAA,0x0000
23.265651790000000,1996,0x0001,0x0000
23.265652289999998,1996,0x4018,0x0000
23.265652790000001,1996,0x0004,0x0000
23.265653289999999,1996,0x0007,0x0000
23.265653789999998,1996,0x0000,0x0000
23.265654290000001,1996,0x0EC6,0x0000
23.265654789999999,1996,0x0001,0x0000
23.265655290000002,1996,0x4019,0x0000
23.265655790000000,1996,0x0007,0x0000
23.265656289999999,1996,0xBDAB,0x0000
23.265728041999999,1997,0x4D00,0x0000
23.265743354000001,1998,0x001F,0x0000
23.265791260000000,1999,0xCC00,0x0000
23.265807540000001,2000,0x0000,0x0461
23.265826759999999,2001,0x4D00,0x6161
23.265960010000001,2002,0x001E,0x6161
23.266000416000001,2003,0xCC00,0x6161
23.266016665999999,2004,0x0000,0x0461
23.266034478000002,2005,0x4C00,0x6161
23.266048540000000,2006,0x0001,0x6161
23.266064321999998,2007,0xC300,0x6161
23.266078977999999,2008,0x0000,0x0040
23.266095946000000,2009,0xD400,0x4040
23.266110384000001,2010,0x0000,0x0102
23.266126916000001,2011,0xD500,0x0202
23.266141697999998,2012,0x0000,0x3A00
23.266192040000000,2013,0x4100,0x0000
23.266206822000001,2014,0x0040,0x0000
23.266222696000000,2015,0x8FC0,0x0000
23.266267633999998,2016,0x0000,0x0201
23.266268134000001,2016,0x0000,0x003A
23.266268633999999,2016,0x0000,0x050C
23.266269134000002,2016,0x0000,0x9014
23.266269634000000,2016,0x0000,0x0000
23.266270133999999,2016,0x0000,0x0000
23.266270634000001,2016,0x0000,0x0005
23.266271134000000,2016,0x0000,0x0000
23.266271633999999,2016,0x0000,0x0000
23.266272134000001,2016,0x0000,0x0000
23.266272634000000,2016,0x0000,0x0000
23.266273133999999,2016,0x0000,0x0000
23.266273634000001,2016,0x0000,0x0000
23.266274134000000,2016,0x0000,0x0000
23.266274633999998,2016,0x0000,0x0000
23.266275134000001,2016,0x0000,0x0000
23.266275633999999,2016,0x0000,0x0000
23.266276134000002,2016,0x0000,0x0000
23.266276634000000,2016,0x0000,0x0000
23.266277133999999,2016,0x0000,0x0000
23.266277634000001,2016,0x0000,0x0000
23.266278134000000,2016,0x0000,0x0000
23.266278633999999,2016,0x0000,0x0000
23.266279134000001,2016,0x0000,0x0000
23.266279634000000,2016,0x0000,0x0000
23.266280133999999,2016,0x0000,0x0000
23.266280634000001,2016,0x0000,0x0201
23.266281134000000,2016,0x0000,0x0102
23.266281633999998,2016,0x0000,0x0602
23.266282134000001,2016,0x0000,0x0000
23.266282634000000,2016,0x0000,0x0101
23.266283133999998,2016,0x0000,0x0002
23.266409010000000,2017,0xCC00,0x0202
23.266425695999999,2018,0x0000,0x0460
23.266444478000000,2019,0xC300,0x6060
23.266463227999999,2020,0x0000,0x0000
23.266481509999998,2021,0x4D00,0x0000
23.266495853999999,2022,0x001F,0x0000
23.267236978000000,2023,0xC200,0x0000
23.267253757999999,2024,0x0000,0x0C5B
23.267288478000001,2025,0x4D00,0x5B5B
23.267303257999998,2026,0x001E,0x5B5B
23.267319010000001,2027,0x4100,0x5B5B
23.267333195999999,2028,0x0600,0x5B5B
23.267348758000001,2029,0x0A00,0x5B5B
23.267545133999999,2030,0x0002,0x5B5B
23.267545634000001,2030,0x05F8,0x5B5B
23.267546134000000,2030,0x0200,0x5B5B
23.267546633999999,2030,0x0000,0x5B5B
23.267547134000001,2030,0xA000,0x5B5B
23.267547634000000,2030,0x0000,0x5B5B
23.267548133999998,2030,0x1A2C,0x5B5B
23.267548634000001,2030,0x60A7,0x5B5B
23.267549133999999,2030,0x5E98,0x5B5B
23.267549634000002,2030,0x3E6D,0x5B5B
23.267550134000000,2030,0x030C,0x5B5B
23.267550633999999,2030,0x44BC,0x5B5B
23.267551134000001,2030,0x8E9C,0x5B5B
23.267551634000000,2030,0x0045,0x5B5B
23.267552133999999,2030,0x05A6,0x5B5B
23.267552634000001,2030,0x0000,0x5B5B
23.267553134000000,2030,0x0000,0x5B5B
23.267553633999999,2030,0x0000,0x5B5B
23.267554134000001,2030,0x0000,0x5B5B
23.267554634000000,2030,0x0000,0x5B5B
23.267555133999998,2030,0x0000,0x5B5B
23.267555634000001,2030,0x0000,0x5B5B
23.267556133999999,2030,0x0000,0x5B5B
23.267556634000002,2030,0x0000,0x5B5B
23.267557134000000,2030,0x0000,0x5B5B
23.267557633999999,2030,0x0000,0x5B5B
23.267558134000002,2030,0x0000,0x5B5B
23.267558634000000,2030,0x0000,0x5B5B
23.267559133999999,2030,0x0000,0x5B5B
23.267559634000001,2030,0x0000,0x5B5B
23.267560134000000,2030,0x0000,0x5B5B
23.267560633999999,2030,0x0000,0x5B5B
23.267561134000001,2030,0x0000,0x5B5B
23.267561634000000,2030,0x0000,0x5B5B
23.267562133999999,2030,0x0000,0x5B5B
23.267562634000001,2030,0x0000,0x5B5B
23.267563134000000,2030,0x0000,0x5B5B
23.267563633999998,2030,0x0000,0x5B5B
23.267564134000001,2030,0x0000,0x5B5B
23.267564633999999,2030,0x0000,0x5B5B
23.267565134000002,2030,0x0000,0x5B5B
23.267565634000000,2030,0x0000,0x5B5B
23.267566133999999,2030,0x0000,0x5B5B
23.267566634000001,2030,0x0000,0x5B5B
23.267567134000000,2030,0x001E,0x5B5B
23.267567633999999,2030,0x0000,0x5B5B
23.267568134000001,2030,0x0EE2,0x5B5B
23.267568634000000,2030,0x0001,0x5B5B
23.267569133999999,2030,0x4021,0x5B5B
23.267569634000001,2030,0x0004,0x5B5B
23.267570134000000,2030,0x0005,0x5B5B
23.267570633999998,2030,0x0000,0x5B5B
23.267571134000001,2030,0x0F00,0x5B5B
23.267571633999999,2030,0x0001,0x5B5B
23.267572134000002,2030,0x4025,0x5B5B
23.267572634000000,2030,0x0004,0x5B5B
23.267573133999999,2030,0x0009,0x5B5B
23.267573634000001,2030,0x0000,0x5B5B
23.267574134000000,2030,0x0F14,0x5B5B
23.267574633999999,2030,0x0001,0x5B5B
23.267575134000001,2030,0x4027,0x5B5B
23.267575634000000,2030,0x0004,0x5B5B
23.267576133999999,2030,0x0005,0x5B5B
23.267576634000001,2030,0x0000,0x5B5B
23.267577134000000,2030,0x0F38,0x5B5B
23.267577633999998,2030,0x0001,0x5B5B
23.267578134000001,2030,0x4028,0x5B5B
23.267578633999999,2030,0x0004,0x5B5B
23.267579134000002,2030,0x0013,0x5B5B
23.267579634000001,2030,0x0000,0x5B5B
23.267580133999999,2030,0x0F4C,0x5B5B
23.267580634000002,2030,0x0001,0x5B5B
23.267581134000000,2030,0x0000,0x5B5B
23.267581633999999,2030,0x0000,0x5B5B
23.267582134000001,2030,0x0062,0x5B5B
23.267582634000000,2030,0x0002,0x5B5B
23.267583133999999,2030,0x0000,0x5B5B
23.267583634000001,2030,0x0004,0x5B5B
23.267584134000000,2030,0x0000,0x5B5B
23.267584633999999,2030,0x0005,0x5B5B
23.267585134000001,2030,0x0000,0x5B5B
23.267585634000000,2030,0x0000,0x5B5B
23.267586133999998,2030,0x0000,0x5B5B
23.267586634000001,2030,0x0006,0x5B5B
23.267587133999999,2030,0xFFFF,0x5B5B
23.267587634000002,2030,0x0001,0x5B5B
23.267588134000000,2030,0x0000,0x5B5B
23.267588633999999,2030,0x0000,0x5B5B
23.267589134000001,2030,0x0000,0x5B5B
23.267589634000000,2030,0x7FFF,0x5B5B
23.267590133999999,2030,0x7FFF,0x5B5B
23.267590634000001,2030,0x0003,0x5B5B
23.267591134000000,2030,0x0002,0x5B5B
23.267591633999999,2030,0x0000,0x5B5B
23.267592134000001,2030,0x0004,0x5B5B
23.267592634000000,2030,0xFFFF,0x5B5B
23.267593133999998,2030,0x009B,0x5B5B
23.267593634000001,2030,0x0055,0x5B5B
23.267594133999999,2030,0x0055,0x5B5B
23.267594634000002,2030,0x0001,0x5B5B
23.267595134000000,2030,0x0038,0x5B5B
23.267595633999999,2030,0x0120,0x5B5B
23.267596134000001,2030,0x0000,0x5B5B
23.267596634000000,2030,0x0000,0x5B5B
23.267597133999999,2030,0x0000,0x5B5B
23.267597634000001,2030,0x0000,0x5B5B
23.267598134000000,2030,0xFFFF,0x5B5B
23.267598633999999,2030,0xFFFF,0x5B5B
23.267599134000001,2030,0xFFFF,0x5B5B
23.267599634000000,2030,0x0000,0x5B5B
23.267600133999998,2030,0x0000,0x5B5B
23.267600634000001,2030,0x0000,0x5B5B
23.267601134000000,2030,0x0000,0x5B5B
23.267601633999998,2030,0xFFFF,0x5B5B
23.267602134000001,2030,0xFFFF,0x5B5B
23.267602633999999,2030,0x0000,0x5B5B
23.267603134000002,2030,0x0000,0x5B5B
23.267603634000000,2030,0x7FFF,0x5B5B
23.267604133999999,2030,0xFFFF,0x5B5B
23.267604634000001,2030,0xFFFF,0x5B5B
23.267605134000000,2030,0x0001,0x5B5B
23.267605633999999,2030,0x0000,0x5B5B
23.267606134000001,2030,0xFFFF,0x5B5B
23.267606634000000,2030,0x0000,0x5B5B
23.267607133999999,2030,0x0055,0x5B5B
23.267607634000001,2030,0xD285,0x5B5B
23.267608134000000,2030,0x2FCC,0x5B5B
23.267608633999998,2030,0x0000,0x5B5B
23.267609134000001,2030,0x0000,0x5B5B
23.267609633999999,2030,0x0000,0x5B5B
23.267610134000002,2030,0x0000,0x5B5B
23.267610634000000,2030,0x0044,0x5B5B
23.267611133999999,2030,0x0000,0x5B5B
23.267611634000001,2030,0x0100,0x5B5B
23.267612134000000,2030,0x0080,0x5B5B
23.267612633999999,2030,0x004C,0x5B5B
23.267613134000001,2030,0x010C,0x5B5B
23.267613634000000,2030,0x0000,0x5B5B
23.267614133999999,2030,0x0000,0x5B5B
23.267614634000001,2030,0x0003,0x5B5B
23.267615134000000,2030,0x0000,0x5B5B
23.267615633999998,2030,0x0008,0x5B5B
23.267616134000001,2030,0x0008,0x5B5B
23.267616633999999,2030,0x009A,0x5B5B
23.267617134000002,2030,0x0000,0x5B5B
23.267617634000000,2030,0x0000,0x5B5B
23.267618133999999,2030,0x0000,0x5B5B
23.267618634000002,2030,0x0000,0x5B5B
23.267619134000000,2030,0x0000,0x5B5B
23.267619633999999,2030,0x0001,0x5B5B
23.267620134000001,2030,0x0000,0x5B5B
23.267620634000000,2030,0x0000,0x5B5B
23.267621133999999,2030,0x004C,0x5B5B
23.267621634000001,2030,0x010C,0x5B5B
23.267622134000000,2030,0x007B,0x5B5B
23.267622633999999,2030,0x0000,0x5B5B
23.267623134000001,2030,0x0000,0x5B5B
23.267623634000000,2030,0x00F8,0x5B5B
23.267624133999998,2030,0xFFFF,0x5B5B
23.267624634000001,2030,0xFFFF,0x5B5B
23.267625133999999,2030,0xFFFF,0x5B5B
23.267625634000002,2030,0xFFFF,0x5B5B
23.267626134000000,2030,0x0000,0x5B5B
23.267626633999999,2030,0x0000,0x5B5B
23.267627134000001,2030,0x0000,0x5B5B
23.267627634000000,2030,0x6143,0x5B5B
23.267628133999999,2030,0x6F6E,0x5B5B
23.267628634000001,2030,0x206E,0x5B5B
23.267629134000000,2030,0x4F45,0x5B5B
23.267629633999999,2030,0x2053,0x5B5B
23.267630134000001,2030,0x4435,0x5B5B
23.267630634000000,2030,0x4D20,0x5B5B
23.267631133999998,2030,0x7261,0x5B5B
23.267631634000001,2030,0x206B,0x5B5B
23.267632133999999,2030,0x4949,0x5B5B
23.267632634000002,2030,0x0049,0x5B5B
23.267633134000000,2030,0x0000,0x5B5B
23.267633633999999,2030,0x0000,0x5B5B
23.267634134000001,2030,0x0000,0x5B5B
23.267634634000000,2030,0x0000,0x5B5B
23.267635133999999,2030,0x0000,0x5B5B
23.267635634000001,2030,0x6946,0x5B5B
23.267636134000000,2030,0x6D72,0x5B5B
23.267636633999999,2030,0x6177,0x5B5B
23.267637134000001,2030,0x6572,0x5B5B
23.267637634000000,2030,0x5620,0x5B5B
23.267638133999998,2030,0x7265,0x5B5B
23.267638634000001,2030,0x6973,0x5B5B
23.267639134000000,2030,0x6E6F,0x5B5B
23.267639633999998,2030,0x3120,0x5B5B
23.267640134000001,2030,0x322E,0x5B5B
23.267640633999999,2030,0x332E,0x5B5B
23.267641134000002,2030,0x0000,0x5B5B
23.267641634000000,2030,0x0000,0x5B5B
23.267642133999999,2030,0x0000,0x5B5B
23.267642634000001,2030,0x0000,0x5B5B
23.267643134000000,2030,0x0000,0x5B5B
23.267643633999999,2030,0x0000,0x5B5B
23.267644134000001,2030,0x0000,0x5B5B
23.267644634000000,2030,0x0000,0x5B5B
23.267645133999999,2030,0x0000,0x5B5B
23.267645634000001,2030,0x0000,0x5B5B
23.267646134000000,2030,0x0000,0x5B5B
23.267646633999998,2030,0x0000,0x5B5B
23.267647134000001,2030,0x0000,0x5B5B
23.267647633999999,2030,0x0000,0x5B5B
23.267648134000002,2030,0x0000,0x5B5B
23.267648634000000,2030,0x0000,0x5B5B
23.267649133999999,2030,0x0000,0x5B5B
23.267649634000001,2030,0xAAAA,0x5B5B
23.267650134000000,2030,0x1B7B,0x5B5B
23.267650633999999,2030,0x1B7B,0x5B5B
23.267651134000001,2030,0x0060,0x5B5B
23.267651634000000,2030,0x7101,0x5B5B
23.267652133999999,2030,0x6801,0x5B5B
23.267652634000001,2030,0x0300,0x5B5B
23.267653134000000,2030,0x0000,0x5B5B
23.267653633999998,2030,0x0000,0x5B5B
23.267654134000001,2030,0x0000,0x5B5B
23.267654633999999,2030,0x0001,0x5B5B
23.267655134000002,2030,0x0600,0x5B5B
23.267655634000000,2030,0x0000,0x5B5B
23.267656133999999,2030,0x9A00,0x5B5B
23.267656634000002,2030,0x00D2,0x5B5B
23.267657134000000,2030,0x0054,0x5B5B
23.267657633999999,2030,0x0060,0x5B5B
23.267658134000001,2030,0x006A,0x5B5B
23.267658634000000,2030,0x0055,0x5B5B
23.267659133999999,2030,0x0200,0x5B5B
23.267659634000001,2030,0x0000,0x5B5B
23.267660134000000,2030,0x0000,0x5B5B
23.267660633999999,2030,0x0300,0x5B5B
23.267661134000001,2030,0x0000,0x5B5B
23.267661634000000,2030,0x0000,0x5B5B
23.267662133999998,2030,0x0000,0x5B5B
23.267662634000001,2030,0x5500,0x5B5B
23.267663133999999,2030,0x0000,0x5B5B
23.267663634000002,2030,0xBB01,0x5B5B
23.267664134000000,2030,0x50BB,0x5B5B
23.267664633999999,2030,0x0030,0x5B5B
23.267665134000001,2030,0x100C,0x5B5B
23.267665634000000,2030,0xE980,0x5B5B
23.267666133999999,2030,0x0000,0x5B5B
23.267666634000001,2030,0x0000,0x5B5B
23.267667134000000,2030,0x0000,0x5B5B
23.267667633999999,2030,0x0000,0x5B5B
23.267668134000001,2030,0x0000,0x5B5B
23.267668634000000,2030,0x0000,0x5B5B
23.267669133999998,2030,0x0000,0x5B5B
23.267669634000001,2030,0x0000,0x5B5B
23.267670133999999,2030,0x0000,0x5B5B
23.267670634000002,2030,0x0000,0x5B5B
23.267671134000000,2030,0x4000,0x5B5B
23.267671633999999,2030,0x00FF,0x5B5B
23.267672134000001,2030,0x0250,0x5B5B
23.267672634000000,2030,0x0057,0x5B5B
23.267673133999999,2030,0x0000,0x5B5B
23.267673634000001,2030,0x0000,0x5B5B
23.267674134000000,2030,0x0000,0x5B5B
23.267674633999999,2030,0x0000,0x5B5B
23.267675134000001,2030,0x0000,0x5B5B
23.267675634000000,2030,0x0000,0x5B5B
23.267676133999998,2030,0x0000,0x5B5B
23.267676634000001,2030,0x0000,0x5B5B
23.267677133999999,2030,0x0000,0x5B5B
23.267677634000002,2030,0x0000,0x5B5B
23.267678134000001,2030,0x0000,0x5B5B
23.267678633999999,2030,0x0000,0x5B5B
23.267679134000002,2030,0x0000,0x5B5B
23.267679634000000,2030,0x0000,0x5B5B
23.267680133999999,2030,0x0100,0x5B5B
23.267680634000001,2030,0x0001,0x5B5B
23.267681134000000,2030,0x0000,0x5B5B
23.267681633999999,2030,0x0000,0x5B5B
23.267682134000001,2030,0x0201,0x5B5B
23.267682634000000,2030,0x0000,0x5B5B
23.267683133999999,2030,0x0000,0x5B5B
23.267683634000001,2030,0x0000,0x5B5B
23.267684134000000,2030,0x0000,0x5B5B
23.267684633999998,2030,0x0000,0x5B5B
23.267685134000001,2030,0x0000,0x5B5B
23.267685633999999,2030,0x0000,0x5B5B
23.267686134000002,2030,0x2001,0x5B5B
23.267686634000000,2030,0x9500,0x5B5B
23.267687133999999,2030,0x0004,0x5B5B
23.267687634000001,2030,0x0000,0x5B5B
23.267688134000000,2030,0x0000,0x5B5B
23.267688633999999,2030,0x0000,0x5B5B
23.267689134000001,2030,0xFF00,0x5B5B
23.267689634000000,2030,0xFFFF,0x5B5B
23.267690133999999,2030,0x0CFF,0x5B5B
23.267690634000001,2030,0xCCCC,0x5B5B
23.267691134000000,2030,0x0003,0x5B5B
23.267691633999998,2030,0x0000,0x5B5B
23.267692134000001,2030,0x0003,0x5B5B
23.267692633999999,2030,0x0000,0x5B5B
23.267693134000002,2030,0x0004,0x5B5B
23.267693634000000,2030,0x0000,0x5B5B
23.267694133999999,2030,0x0060,0x5B5B
23.267694634000001,2030,0x0000,0x5B5B
23.267695134000000,2030,0x0008,0x5B5B
23.267695633999999,2030,0x0000,0x5B5B
23.267696134000001,2030,0x5000,0x5B5B
23.267696634000000,2030,0x0000,0x5B5B
23.267697133999999,2030,0x0000,0x5B5B
23.267697634000001,2030,0x006A,0x5B5B
23.267698134000000,2030,0x0000,0x5B5B
23.267698633999998,2030,0x0000,0x5B5B
23.267699134000001,2030,0x1450,0x5B5B
23.267699634000000,2030,0x0000,0x5B5B
23.267700133999998,2030,0x0001,0x5B5B
23.267700634000001,2030,0x0001,0x5B5B
23.267701133999999,2030,0x0001,0x5B5B
23.267701634000002,2030,0x0000,0x5B5B
23.267702134000000,2030,0x0006,0x5B5B
23.267702633999999,2030,0x0000,0x5B5B
23.267703134000001,2030,0x0006,0x5B5B
23.267703634000000,2030,0x0000,0x5B5B
23.267704133999999,2030,0x0006,0x5B5B
23.267704634000001,2030,0x0000,0x5B5B
23.267705134000000,2030,0x0004,0x5B5B
23.267705633999999,2030,0x0000,0x5B5B
23.267706134000001,2030,0x0004,0x5B5B
23.267706634000000,2030,0x0000,0x5B5B
23.267707133999998,2030,0x0004,0x5B5B
23.267707634000001,2030,0x0000,0x5B5B
23.267708133999999,2030,0x0000,0x5B5B
23.267708634000002,2030,0x0000,0x5B5B
23.267709134000000,2030,0x0001,0x5B5B
23.267709633999999,2030,0x0000,0x5B5B
23.267710134000001,2030,0x0000,0x5B5B
23.267710634000000,2030,0x0000,0x5B5B
23.267711133999999,2030,0x0000,0x5B5B
23.267711634000001,2030,0x0000,0x5B5B
23.267712134000000,2030,0x0081,0x5B5B
23.267712633999999,2030,0x0000,0x5B5B
23.267713134000001,2030,0x0001,0x5B5B
23.267713634000000,2030,0x0000,0x5B5B
23.267714133999998,2030,0x0001,0x5B5B
23.267714634000001,2030,0x0000,0x5B5B
23.267715133999999,2030,0x0001,0x5B5B
23.267715634000002,2030,0x0000,0x5B5B
23.267716134000000,2030,0x0007,0x5B5B
23.267716633999999,2030,0x0000,0x5B5B
23.267717134000002,2030,0x0000,0x5B5B
23.267717634000000,2030,0x0300,0x5B5B
23.267718133999999,2030,0x0305,0x5B5B
23.267718634000001,2030,0xAAAA,0x5B5B
23.267719134000000,2030,0x0703,0x5B5B
23.267719633999999,2030,0x0000,0x5B5B
23.267720134000001,2030,0x0000,0x5B5B
23.267720634000000,2030,0x0000,0x5B5B
23.267721133999999,2030,0x0007,0x5B5B
23.267721634000001,2030,0x0000,0x5B5B
23.267722134000000,2030,0x0000,0x5B5B
23.267722633999998,2030,0x1600,0x5B5B
23.267723134000001,2030,0x0001,0x5B5B
23.267723633999999,2030,0x0000,0x5B5B
23.267724134000002,2030,0x0000,0x5B5B
23.267724634000000,2030,0x0000,0x5B5B
23.267725133999999,2030,0x0000,0x5B5B
23.267725634000001,2030,0x0000,0x5B5B
23.267726134000000,2030,0x0000,0x5B5B
23.267726633999999,2030,0x0000,0x5B5B
23.267727134000001,2030,0x0000,0x5B5B
23.267727634000000,2030,0x0000,0x5B5B
23.267728133999999,2030,0x0900,0x5B5B
23.267728634000001,2030,0x0001,0x5B5B
23.267729134000000,2030,0x0000,0x5B5B
23.267729633999998,2030,0x0000,0x5B5B
23.267730134000001,2030,0x0000,0x5B5B
23.267730633999999,2030,0x0106,0x5B5B
23.267731134000002,2030,0x0000,0x5B5B
23.267731634000000,2030,0x0307,0x5B5B
23.267732133999999,2030,0x0303,0x5B5B
23.267732634000001,2030,0x5502,0x5B5B
23.267733134000000,2030,0x0000,0x5B5B
23.267733633999999,2030,0x0000,0x5B5B
23.267734134000001,2030,0x0000,0x5B5B
23.267734634000000,2030,0x0000,0x5B5B
23.267735133999999,2030,0x1601,0x5B5B
23.267735634000001,2030,0x0050,0x5B5B
23.267736134000000,2030,0x009B,0x5B5B
23.267736633999998,2030,0x0055,0x5B5B
23.267737134000001,2030,0x8155,0x5B5B
23.267737634000000,2030,0xD267,0x5B5B
23.267738133999998,2030,0x008F,0x5B5B
23.267738634000001,2030,0x00FF,0x5B5B
23.267739133999999,2030,0x0000,0x5B5B
23.267739634000002,2030,0x0000,0x5B5B
23.267740134000000,2030,0x0000,0x5B5B
23.267740633999999,2030,0x3503,0x5B5B
23.267741134000001,2030,0x0011,0x5B5B
23.267741634000000,2030,0x0000,0x5B5B
23.267742133999999,2030,0x1800,0x5B5B
23.267742634000001,2030,0x0000,0x5B5B
23.267743134000000,2030,0x0002,0x5B5B
23.267743633999999,2030,0x0000,0x5B5B
23.267744134000001,2030,0x0000,0x5B5B
23.267744634000000,2030,0x0000,0x5B5B
23.267745133999998,2030,0x0000,0x5B5B
23.267745634000001,2030,0x0000,0x5B5B
23.267746133999999,2030,0x0000,0x5B5B
23.267746634000002,2030,0x0000,0x5B5B
23.267747134000000,2030,0x0000,0x5B5B
23.267747633999999,2030,0x0000,0x5B5B
23.267748134000001,2030,0x0000,0x5B5B
23.267748634000000,2030,0x0000,0x5B5B
23.267749133999999,2030,0x0000,0x5B5B
23.267749634000001,2030,0x0000,0x5B5B
23.267750134000000,2030,0x0001,0x5B5B
23.267750633999999,2030,0x0000,0x5B5B
23.267751134000001,2030,0x1680,0x5B5B
23.267751634000000,2030,0x0000,0x5B5B
23.267752133999998,2030,0x0F00,0x5B5B
23.267752634000001,2030,0x0000,0x5B5B
23.267753133999999,2030,0x1200,0x5B5B
23.267753634000002,2030,0x0000,0x5B5B
23.267754134000000,2030,0x0A80,0x5B5B
23.267754633999999,2030,0x0000,0x5B5B
23.267755134000002,2030,0x0240,0x5B5B
23.267755634000000,2030,0x0000,0x5B5B
23.267756133999999,2030,0x0300,0x5B5B
23.267756634000001,2030,0x0000,0x5B5B
23.267757134000000,2030,0x02D0,0x5B5B
23.267757633999999,2030,0x0000,0x5B5B
23.267758134000001,2030,0x01E0,0x5B5B
23.267758634000000,2030,0x0000,0x5B5B
23.267759133999999,2030,0x0000,0x5B5B
23.267759634000001,2030,0x0000,0x5B5B
23.267760134000000,2030,0x0000,0x5B5B
23.267760633999998,2030,0x0000,0x5B5B
23.267761134000001,2030,0x02D0,0x5B5B
23.267761633999999,2030,0x0000,0x5B5B
23.267762134000002,2030,0x01E0,0x5B5B
23.267762634000000,2030,0x0000,0x5B5B
23.267763133999999,2030,0x02D0,0x5B5B
23.267763634000001,2030,0x0000,0x5B5B
23.267764134000000,2030,0x01E0,0x5B5B
23.267764633999999,2030,0x0000,0x5B5B
23.267765134000001,2030,0x0000,0x5B5B
23.267765634000000,2030,0x0000,0x5B5B
23.267766133999999,2030,0x0000,0x5B5B
23.267766634000001,2030,0x0000,0x5B5B
23.267767134000000,2030,0x02D0,0x5B5B
23.267767633999998,2030,0x0000,0x5B5B
23.267768134000001,2030,0x01E0,0x5B5B
23.267768633999999,2030,0x0000,0x5B5B
23.267769134000002,2030,0x0000,0x5B5B
23.267769634000000,2030,0x0000,0x5B5B
23.267770133999999,2030,0x0000,0x5B5B
23.267770634000001,2030,0x0000,0x5B5B
23.267771134000000,2030,0x0001,0x5B5B
23.267771633999999,2030,0x0000,0x5B5B
23.267772134000001,2030,0x0000,0x5B5B
23.267772634000000,2030,0x0000,0x5B5B
23.267773133999999,2030,0x0000,0x5B5B
23.267773634000001,2030,0x0000,0x5B5B
23.267774134000000,2030,0x0000,0x5B5B
23.267774633999998,2030,0x0000,0x5B5B
23.267775134000001,2030,0x0000,0x5B5B
23.267775633999999,2030,0x0000,0x5B5B
23.267776134000002,2030,0x0000,0x5B5B
23.267776634000001,2030,0x0000,0x5B5B
23.267777133999999,2030,0x0000,0x5B5B
23.267777634000002,2030,0x0000,0x5B5B
23.267778134000000,2030,0x83AA,0x5B5B
23.267778633999999,2030,0x5555,0x5B5B
23.267779134000001,2030,0x5551,0x5B5B
23.267779634000000,2030,0x5551,0x5B5B
23.267780133999999,2030,0xAAAA,0x5B5B
23.267780634000001,2030,0xBAAA,0x5B5B
23.267781134000000,2030,0xAAAA,0x5B5B
23.267781633999999,2030,0x5555,0x5B5B
23.267782134000001,2030,0x0200,0x5B5B
23.267782634000000,2030,0x0000,0x5B5B
23.267783133999998,2030,0x0000,0x5B5B
23.267783634000001,2030,0x0000,0x5B5B
23.267784133999999,2030,0x0000,0x5B5B
23.267784634000002,2030,0x0000,0x5B5B
23.267785134000000,2030,0x020A,0x5B5B
23.267785633999999,2030,0x0100,0x5B5B
23.267786134000001,2030,0x0000,0x5B5B
23.267786634000000,2030,0x0000,0x5B5B
23.267787133999999,2030,0x0200,0x5B5B
23.267787634000001,2030,0x0001,0x5B5B
23.267788134000000,2030,0x0000,0x5B5B
23.267788633999999,2030,0x0000,0x5B5B
23.267789134000001,2030,0x0000,0x5B5B
23.267789634000000,2030,0x0101,0x5B5B
23.267790133999998,2030,0x0000,0x5B5B
23.267790634000001,2030,0x0000,0x5B5B
23.267791133999999,2030,0x0000,0x5B5B
23.267791634000002,2030,0x0000,0x5B5B
23.267792134000000,2030,0x0000,0x5B5B
23.267792633999999,2030,0x0000,0x5B5B
23.267793134000001,2030,0x0000,0x5B5B
23.267793634000000,2030,0x0000,0x5B5B
23.267794133999999,2030,0x2E31,0x5B5B
23.267794634000001,2030,0x2E32,0x5B5B
23.267795134000000,2030,0x0033,0x5B5B
23.267795633999999,2030,0x3641,0x5B5B
23.267796134000001,2030,0x3328,0x5B5B
23.267796634000000,2030,0x2934,0x5B5B
23.267797133999998,2030,0x5600,0x5B5B
23.267797634000001,2030,0x0051,0x5B5B
23.267798134000000,2030,0x0218,0x5B5B
23.267798633999998,2030,0x1998,0x5B5B
23.267799134000001,2030,0xFE58,0x5B5B
23.267799633999999,2030,0x0013,0x5B5B
23.267800134000002,2030,0xEE64,0x5B5B
23.267800634000000,2030,0x0000,0x5B5B
23.267801133999999,2030,0xEE64,0x5B5B
23.267801634000001,2030,0x0000,0x5B5B
23.267802134000000,2030,0x0000,0x5B5B
23.267802633999999,2030,0x0000,0x5B5B
23.267803134000001,2030,0x0000,0x5B5B
23.267803634000000,2030,0x0000,0x5B5B
23.267804133999999,2030,0x0000,0x5B5B
23.267804634000001,2030,0x0000,0x5B5B
23.267805134000000,2030,0x0000,0x5B5B
23.267805633999998,2030,0x0000,0x5B5B
23.267806134000001,2030,0x0000,0x5B5B
23.267806633999999,2030,0x0000,0x5B5B
23.267807134000002,2030,0x0000,0x5B5B
23.267807634000000,2030,0x0000,0x5B5B
23.267808133999999,2030,0x0000,0x5B5B
23.267808634000001,2030,0x0000,0x5B5B
23.267809134000000,2030,0x0000,0x5B5B
23.267809633999999,2030,0x0000,0x5B5B
23.267810134000001,2030,0x0000,0x5B5B
23.267810634000000,2030,0x0000,0x5B5B
23.267811133999999,2030,0x0064,0x5B5B
23.267811634000001,2030,0x0000,0x5B5B
23.267812134000000,2030,0x0064,0x5B5B
23.267812633999998,2030,0x0000,0x5B5B
23.267813134000001,2030,0x0064,0x5B5B
23.267813633999999,2030,0x0000,0x5B5B
23.267814134000002,2030,0x2114,0x5B5B
23.267814634000000,2030,0x0000,0x5B5B
23.267815133999999,2030,0x2221,0x5B5B
23.267815634000002,2030,0x0000,0x5B5B
23.267816134000000,2030,0x0000,0x5B5B
23.267816633999999,2030,0x0000,0x5B5B
23.267817134000001,2030,0x0065,0x5B5B
23.267817634000000,2030,0x0000,0x5B5B
23.267818133999999,2030,0x0065,0x5B5B
23.267818634000001,2030,0x0000,0x5B5B
23.267819134000000,2030,0x0064,0x5B5B
23.267819633999999,2030,0x0000,0x5B5B
23.267820134000001,2030,0x0008,0x5B5B
23.267820634000000,2030,0x0000,0x5B5B
23.267821133999998,2030,0x0008,0x5B5B
23.267821634000001,2030,0x0000,0x5B5B
23.267822133999999,2030,0x0008,0x5B5B
23.267822634000002,2030,0x0000,0x5B5B
23.267823134000000,2030,0x0008,0x5B5B
23.267823633999999,2030,0x0000,0x5B5B
23.267824134000001,2030,0x0001,0x5B5B
23.267824634000000,2030,0x0000,0x5B5B
23.267825133999999,2030,0x0000,0x5B5B
23.267825634000001,2030,0x0000,0x5B5B
23.267826134000000,2030,0x0000,0x5B5B
23.267826633999999,2030,0x0000,0x5B5B
23.267827134000001,2030,0x0000,0x5B5B
23.267827634000000,2030,0x0000,0x5B5B
23.267828133999998,2030,0x0000,0x5B5B
23.267828634000001,2030,0x0000,0x5B5B
23.267829133999999,2030,0x0000,0x5B5B
23.267829634000002,2030,0x0000,0x5B5B
23.267830134000000,2030,0x0000,0x5B5B
23.267830633999999,2030,0x0000,0x5B5B
23.267831134000001,2030,0x0000,0x5B5B
23.267831634000000,2030,0x0000,0x5B5B
23.267832133999999,2030,0x0000,0x5B5B
23.267832634000001,2030,0x0000,0x5B5B
23.267833134000000,2030,0x01B5,0x5B5B
23.267833633999999,2030,0x0400,0x5B5B
23.267834134000001,2030,0x0400,0x5B5B
23.267834634000000,2030,0x02B3,0x5B5B
23.267835133999998,2030,0x0000,0x5B5B
23.267835634000001,2030,0x0000,0x5B5B
23.267836134000000,2030,0x0000,0x5B5B
23.267836633999998,2030,0x0000,0x5B5B
23.267837134000001,2030,0x0000,0x5B5B
23.267837633999999,2030,0x0000,0x5B5B
23.267838134000002,2030,0x0000,0x5B5B
23.267838634000000,2030,0x0000,0x5B5B
23.267839133999999,2030,0x0000,0x5B5B
23.267839634000001,2030,0x0000,0x5B5B
23.267840134000000,2030,0x0000,0x5B5B
23.267840633999999,2030,0x0000,0x5B5B
23.267841134000001,2030,0x0000,0x5B5B
23.267841634000000,2030,0x0000,0x5B5B
23.267842133999999,2030,0x0000,0x5B5B
23.267842634000001,2030,0x0000,0x5B5B
23.267843134000000,2030,0x0000,0x5B5B
23.267843633999998,2030,0x0000,0x5B5B
23.267844134000001,2030,0x01EB,0x5B5B
23.267844633999999,2030,0x0400,0x5B5B
23.267845134000002,2030,0x0400,0x5B5B
23.267845634000000,2030,0x027E,0x5B5B
23.267846133999999,2030,0x0000,0x5B5B
23.267846634000001,2030,0x0000,0x5B5B
23.267847134000000,2030,0x0000,0x5B5B
23.267847633999999,2030,0x0000,0x5B5B
23.267848134000001,2030,0x0000,0x5B5B
23.267848634000000,2030,0x0000,0x5B5B
23.267849133999999,2030,0x0000,0x5B5B
23.267849634000001,2030,0x0000,0x5B5B
23.267850134000000,2030,0x0000,0x5B5B
23.267850633999998,2030,0x0000,0x5B5B
23.267851134000001,2030,0x0000,0x5B5B
23.267851633999999,2030,0x0000,0x5B5B
23.267852134000002,2030,0x0000,0x5B5B
23.267852634000000,2030,0x0000,0x5B5B
23.267853133999999,2030,0x0000,0x5B5B
23.267853634000002,2030,0x0000,0x5B5B
23.267854134000000,2030,0x0000,0x5B5B
23.267854633999999,2030,0x0000,0x5B5B
23.267855134000001,2030,0x01EB,0x5B5B
23.267855634000000,2030,0x0400,0x5B5B
23.267856133999999,2030,0x0400,0x5B5B
23.267856634000001,2030,0x027E,0x5B5B
23.267857134000000,2030,0x0000,0x5B5B
23.267857633999999,2030,0x0000,0x5B5B
23.267858134000001,2030,0x0000,0x5B5B
23.267858634000000,2030,0x0000,0x5B5B
23.267859133999998,2030,0x0000,0x5B5B
23.267859634000001,2030,0x0000,0x5B5B
23.267860133999999,2030,0x0000,0x5B5B
23.267860634000002,2030,0x0000,0x5B5B
23.267861134000000,2030,0x0000,0x5B5B
23.267861633999999,2030,0x0000,0x5B5B
23.267862134000001,2030,0x0000,0x5B5B
23.267862634000000,2030,0x0000,0x5B5B
23.267863133999999,2030,0x0000,0x5B5B
23.267863634000001,2030,0x0000,0x5B5B
23.267864134000000,2030,0x0000,0x5B5B
23.267864633999999,2030,0x0000,0x5B5B
23.267865134000001,2030,0x0000,0x5B5B
23.267865634000000,2030,0x0000,0x5B5B
23.267866133999998,2030,0x01EB,0x5B5B
23.267866634000001,2030,0x0400,0x5B5B
23.267867133999999,2030,0x0400,0x5B5B
23.267867634000002,2030,0x027E,0x5B5B
23.267868134000000,2030,0x0000,0x5B5B
23.267868633999999,2030,0x0000,0x5B5B
23.267869134000001,2030,0x0000,0x5B5B
23.267869634000000,2030,0x0000,0x5B5B
23.267870133999999,2030,0x0000,0x5B5B
23.267870634000001,2030,0x0000,0x5B5B
23.267871134000000,2030,0x0000,0x5B5B
23.267871633999999,2030,0x0000,0x5B5B
23.267872134000001,2030,0x0000,0x5B5B
23.267872634000000,2030,0x0000,0x5B5B
23.267873133999998,2030,0x0000,0x5B5B
23.267873634000001,2030,0x0000,0x5B5B
23.267874133999999,2030,0x0000,0x5B5B
23.267874633999998,2030,0x0000,0x5B5B
23.267875134000001,2030,0x0000,0x5B5B
23.267875633999999,2030,0x0000,0x5B5B
23.267876134000002,2030,0x0000,0x5B5B
23.267876634000000,2030,0x0000,0x5B5B
23.267877133999999,2030,0x01EB,0x5B5B
23.267877634000001,2030,0x0400,0x5B5B
23.267878134000000,2030,0x0400,0x5B5B
23.267878633999999,2030,0x027E,0x5B5B
23.267879134000001,2030,0x0000,0x5B5B
23.267879634000000,2030,0x0000,0x5B5B
23.267880133999999,2030,0x0000,0x5B5B
23.267880634000001,2030,0x0000,0x5B5B
23.267881134000000,2030,0x0001,0x5B5B
23.267881633999998,2030,0x0000,0x5B5B
23.267882134000001,2030,0x0000,0x5B5B
23.267882633999999,2030,0x0000,0x5B5B
23.267883134000002,2030,0x0000,0x5B5B
23.267883634000000,2030,0x0000,0x5B5B
23.267884133999999,2030,0x0000,0x5B5B
23.267884634000001,2030,0x0000,0x5B5B
23.267885134000000,2030,0x0000,0x5B5B
23.267885633999999,2030,0x0000,0x5B5B
23.267886134000001,2030,0x0001,0x5B5B
23.267886634000000,2030,0x0000,0x5B5B
23.267887133999999,2030,0x0000,0x5B5B
23.267887634000001,2030,0x0000,0x5B5B
23.267888134000000,2030,0x0003,0x5B5B
23.267888633999998,2030,0x0000,0x5B5B
23.267889134000001,2030,0x0000,0x5B5B
23.267889633999999,2030,0x0000,0x5B5B
23.267890134000002,2030,0x0000,0x5B5B
23.267890634000000,2030,0x0000,0x5B5B
23.267891133999999,2030,0xBEEF,0x5B5B
23.267891634000001,2030,0xDEAD,0x5B5B
23.267892134000000,2030,0xBEEF,0x5B5B
23.267892633999999,2030,0xDEAD,0x5B5B
23.267893134000001,2030,0x0000,0x5B5B
23.267893634000000,2030,0x0000,0x5B5B
23.267894133999999,2030,0x0002,0x5B5B
23.267894634000001,2030,0x0000,0x5B5B
23.267895134000000,2030,0x0000,0x5B5B
23.267895633999998,2030,0x0000,0x5B5B
23.267896134000001,2030,0x0000,0x5B5B
23.267896634000000,2030,0x0000,0x5B5B
23.267897133999998,2030,0xBEEF,0x5B5B
23.267897634000001,2030,0xDEAD,0x5B5B
23.267898133999999,2030,0xBEEF,0x5B5B
23.267898634000002,2030,0xDEAD,0x5B5B
23.267899134000000,2030,0x0000,0x5B5B
23.267899633999999,2030,0x0000,0x5B5B
23.267900134000001,2030,0x0004,0x5B5B
23.267900634000000,2030,0x0000,0x5B5B
23.267901133999999,2030,0x0000,0x5B5B
23.267901634000001,2030,0x0000,0x5B5B
23.267902134000000,2030,0x0000,0x5B5B
23.267902633999999,2030,0x0000,0x5B5B
23.267903134000001,2030,0xBEEF,0x5B5B
23.267903634000000,2030,0xDEAD,0x5B5B
23.267904133999998,2030,0xBEEF,0x5B5B
23.267904634000001,2030,0xDEAD,0x5B5B
23.267905133999999,2030,0x0000,0x5B5B
23.267905634000002,2030,0x0000,0x5B5B
23.267906134000000,2030,0x0000,0x5B5B
23.267906633999999,2030,0x0000,0x5B5B
23.267907134000001,2030,0x0000,0x5B5B
23.267907634000000,2030,0x0000,0x5B5B
23.267908133999999,2030,0x0000,0x5B5B
23.267908634000001,2030,0x0000,0x5B5B
23.267909134000000,2030,0xBEEF,0x5B5B
23.267909633999999,2030,0xDEAD,0x5B5B
23.267910134000001,2030,0xBEEF,0x5B5B
23.267910634000000,2030,0xDEAD,0x5B5B
23.267911133999998,2030,0x0000,0x5B5B
23.267911634000001,2030,0x0000,0x5B5B
23.267912133999999,2030,0x0000,0x5B5B
23.267912634000002,2030,0x0000,0x5B5B
23.267913134000000,2030,0x0000,0x5B5B
23.267913633999999,2030,0x0000,0x5B5B
23.267914134000002,2030,0x0000,0x5B5B
23.267914634000000,2030,0x0000,0x5B5B
23.267915133999999,2030,0xBEEF,0x5B5B
23.267915634000001,2030,0xDEAD,0x5B5B
23.267916134000000,2030,0xBEEF,0x5B5B
23.267916633999999,2030,0xDEAD,0x5B5B
23.267917134000001,2030,0x0000,0x5B5B
23.267917634000000,2030,0x0000,0x5B5B
23.267918133999999,2030,0x0003,0x5B5B
23.267918634000001,2030,0x0000,0x5B5B
23.267919134000000,2030,0xBEEF,0x5B5B
23.267919633999998,2030,0xDEAD,0x5B5B
23.267920134000001,2030,0xBEEF,0x5B5B
23.267920633999999,2030,0xDEAD,0x5B5B
23.267921134000002,2030,0x0000,0x5B5B
23.267921634000000,2030,0x0000,0x5B5B
23.267922133999999,2030,0x0000,0x5B5B
23.267922634000001,2030,0x0000,0x5B5B
23.267923134000000,2030,0x0000,0x5B5B
23.267923633999999,2030,0x0000,0x5B5B
23.267924134000001,2030,0x0003,0x5B5B
23.267924634000000,2030,0x0000,0x5B5B
23.267925133999999,2030,0x0000,0x5B5B
23.267925634000001,2030,0x0000,0x5B5B
23.267926134000000,2030,0x0000,0x5B5B
23.267926633999998,2030,0x0000,0x5B5B
23.267927134000001,2030,0xBEEF,0x5B5B
23.267927633999999,2030,0xDEAD,0x5B5B
23.267928134000002,2030,0xBEEF,0x5B5B
23.267928634000000,2030,0xBDAB,0x5B5B
23.268000040000000,2031,0x4D00,0x5B5B
23.268014946000001,2032,0x001F,0x5B5B
23.269543976000001,2033,0x4D00,0x5B5B
23.269559787999999,2034,0x001E,0x5B5B
23.269575914000001,2035,0x4100,0x5B5B
23.269590101999999,2036,0x0600,0x5B5B
23.269605601999999,2037,0x0A00,0x5B5B
23.269798007999999,2038,0x0002,0x5B5B
23.269798508000001,2038,0x05F8,0x5B5B
23.269799008000000,2038,0x0300,0x5B5B
23.269799507999998,2038,0x0000,0x5B5B
23.269800008000001,2038,0xA000,0x5B5B
23.269800507999999,2038,0x0000,0x5B5B
23.269801008000002,2038,0x1A2C,0x5B5B
23.269801508000000,2038,0x60A7,0x5B5B
23.269802007999999,2038,0x5E98,0x5B5B
23.269802508000001,2038,0x3E6D,0x5B5B
23.269803008000000,2038,0x030C,0x5B5B
23.269803507999999,2038,0x44BC,0x5B5B
23.269804008000001,2038,0x8E9C,0x5B5B
23.269804508000000,2038,0x0045,0x5B5B
23.269805007999999,2038,0x05A6,0x5B5B
23.269805508000001,2038,0x0000,0x5B5B
23.269806008000000,2038,0x0000,0x5B5B
23.269806507999999,2038,0x0000,0x5B5B
23.269807008000001,2038,0x0000,0x5B5B
23.269807508000000,2038,0x0000,0x5B5B
23.269808007999998,2038,0x0000,0x5B5B
23.269808508000001,2038,0x0000,0x5B5B
23.269809007999999,2038,0x0000,0x5B5B
23.269809508000002,2038,0x0000,0x5B5B
23.269810008000000,2038,0x0000,0x5B5B
23.269810507999999,2038,0x0000,0x5B5B
23.269811008000001,2038,0x0000,0x5B5B
23.269811508000000,2038,0x0000,0x5B5B
23.269812007999999,2038,0x0000,0x5B5B
23.269812508000001,2038,0x0000,0x5B5B
23.269813008000000,2038,0x0000,0x5B5B
23.269813507999999,2038,0x0000,0x5B5B
23.269814008000001,2038,0x0000,0x5B5B
23.269814508000000,2038,0x0000,0x5B5B
23.269815007999998,2038,0x0000,0x5B5B
23.269815508000001,2038,0x0000,0x5B5B
23.269816007999999,2038,0x0000,0x5B5B
23.269816508000002,2038,0x0000,0x5B5B
23.269817008000000,2038,0x0000,0x5B5B
23.269817507999999,2038,0x0000,0x5B5B
23.269818008000001,2038,0x0000,0x5B5B
23.269818508000000,2038,0x0000,0x5B5B
23.269819007999999,2038,0x0000,0x5B5B
23.269819508000001,2038,0x0000,0x5B5B
23.269820008000000,2038,0xDEAD,0x5B5B
23.269820507999999,2038,0x0000,0x5B5B
23.269821008000001,2038,0x0000,0x5B5B
23.269821508000000,2038,0x0003,0x5B5B
23.269822007999998,2038,0x0000,0x5B5B
23.269822508000001,2038,0x0000,0x5B5B
23.269823007999999,2038,0x0000,0x5B5B
23.269823508000002,2038,0x0000,0x5B5B
23.269824008000001,2038,0x0000,0x5B5B
23.269824507999999,2038,0x0000,0x5B5B
23.269825008000002,2038,0x0000,0x5B5B
23.269825508000000,2038,0x0000,0x5B5B
23.269826007999999,2038,0x0000,0x5B5B
23.269826508000001,2038,0x0000,0x5B5B
23.269827008000000,2038,0x0000,0x5B5B
23.269827507999999,2038,0x0003,0x5B5B
23.269828008000001,2038,0x0000,0x5B5B
23.269828508000000,2038,0x0000,0x5B5B
23.269829007999999,2038,0x0000,0x5B5B
23.269829508000001,2038,0x0000,0x5B5B
23.269830008000000,2038,0x0000,0x5B5B
23.269830507999998,2038,0x0000,0x5B5B
23.269831008000001,2038,0x0000,0x5B5B
23.269831507999999,2038,0x0000,0x5B5B
23.269832008000002,2038,0x0000,0x5B5B
23.269832508000000,2038,0x0000,0x5B5B
23.269833007999999,2038,0x0000,0x5B5B
23.269833508000001,2038,0x0003,0x5B5B
23.269834008000000,2038,0x0000,0x5B5B
23.269834507999999,2038,0x0000,0x5B5B
23.269835008000001,2038,0x0000,0x5B5B
23.269835508000000,2038,0x0000,0x5B5B
23.269836007999999,2038,0x0000,0x5B5B
23.269836508000001,2038,0x0000,0x5B5B
23.269837008000000,2038,0x0000,0x5B5B
23.269837507999998,2038,0x0000,0x5B5B
23.269838008000001,2038,0x0000,0x5B5B
23.269838507999999,2038,0x0081,0x5B5B
23.269839008000002,2038,0x0081,0x5B5B
23.269839508000000,2038,0x0081,0x5B5B
23.269840007999999,2038,0x0000,0x5B5B
23.269840508000001,2038,0xFFFF,0x5B5B
23.269841008000000,2038,0xFFFF,0x5B5B
23.269841507999999,2038,0xFFFF,0x5B5B
23.269842008000001,2038,0xFFFF,0x5B5B
23.269842508000000,2038,0x0000,0x5B5B
23.269843007999999,2038,0x0000,0x5B5B
23.269843508000001,2038,0x0000,0x5B5B
23.269844008000000,2038,0x0000,0x5B5B
23.269844507999998,2038,0x0000,0x5B5B
23.269845008000001,2038,0x0000,0x5B5B
23.269845508000000,2038,0x0000,0x5B5B
23.269846007999998,2038,0x0000,0x5B5B
23.269846508000001,2038,0x0000,0x5B5B
23.269847007999999,2038,0x0000,0x5B5B
23.269847508000002,2038,0x0000,0x5B5B
23.269848008000000,2038,0x0000,0x5B5B
23.269848507999999,2038,0x0000,0x5B5B
23.269849008000001,2038,0x0000,0x5B5B
23.269849508000000,2038,0x0000,0x5B5B
23.269850007999999,2038,0x0000,0x5B5B
23.269850508000001,2038,0x0400,0x5B5B
23.269851008000000,2038,0x0400,0x5B5B
23.269851507999999,2038,0x0400,0x5B5B
23.269852008000001,2038,0x0400,0x5B5B
23.269852508000000,2038,0x0000,0x5B5B
23.269853007999998,2038,0x0000,0x5B5B
23.269853508000001,2038,0x0000,0x5B5B
23.269854007999999,2038,0x0000,0x5B5B
23.269854508000002,2038,0x0000,0x5B5B
23.269855008000000,2038,0x0000,0x5B5B
23.269855507999999,2038,0x0000,0x5B5B
23.269856008000001,2038,0x0000,0x5B5B
23.269856508000000,2038,0x0000,0x5B5B
23.269857007999999,2038,0x0000,0x5B5B
23.269857508000001,2038,0x0000,0x5B5B
23.269858008000000,2038,0x0000,0x5B5B
23.269858507999999,2038,0x0000,0x5B5B
23.269859008000001,2038,0x0000,0x5B5B
23.269859508000000,2038,0x0000,0x5B5B
23.269860007999998,2038,0x0000,0x5B5B
23.269860508000001,2038,0x0400,0x5B5B
23.269861007999999,2038,0x0400,0x5B5B
23.269861508000002,2038,0x0400,0x5B5B
23.269862008000000,2038,0x0400,0x5B5B
23.269862507999999,2038,0x0000,0x5B5B
23.269863008000002,2038,0x0000,0x5B5B
23.269863508000000,2038,0x0000,0x5B5B
23.269864007999999,2038,0x0000,0x5B5B
23.269864508000001,2038,0x0000,0x5B5B
23.269865008000000,2038,0x0000,0x5B5B
23.269865507999999,2038,0x0000,0x5B5B
23.269866008000001,2038,0x0000,0x5B5B
23.269866508000000,2038,0x0000,0x5B5B
23.269867007999999,2038,0x0000,0x5B5B
23.269867508000001,2038,0x0000,0x5B5B
23.269868008000000,2038,0x0000,0x5B5B
23.269868507999998,2038,0x0000,0x5B5B
23.269869008000001,2038,0x0000,0x5B5B
23.269869507999999,2038,0x0000,0x5B5B
23.269870008000002,2038,0x0000,0x5B5B
23.269870508000000,2038,0x0400,0x5B5B
23.269871007999999,2038,0x0400,0x5B5B
23.269871508000001,2038,0x0400,0x5B5B
23.269872008000000,2038,0x0400,0x5B5B
23.269872507999999,2038,0x0000,0x5B5B
23.269873008000001,2038,0x0000,0x5B5B
23.269873508000000,2038,0x0000,0x5B5B
23.269874007999999,2038,0x0000,0x5B5B
23.269874508000001,2038,0x0000,0x5B5B
23.269875008000000,2038,0x0000,0x5B5B
23.269875507999998,2038,0x0000,0x5B5B
23.269876008000001,2038,0x0000,0x5B5B
23.269876507999999,2038,0x0000,0x5B5B
23.269877008000002,2038,0x0000,0x5B5B
23.269877508000000,2038,0x0000,0x5B5B
23.269878007999999,2038,0x0000,0x5B5B
23.269878508000001,2038,0x0000,0x5B5B
23.269879008000000,2038,0x0000,0x5B5B
23.269879507999999,2038,0x0000,0x5B5B
23.269880008000001,2038,0x0000,0x5B5B
23.269880508000000,2038,0x0400,0x5B5B
23.269881007999999,2038,0x0400,0x5B5B
23.269881508000001,2038,0x0400,0x5B5B
23.269882008000000,2038,0x0400,0x5B5B
23.269882507999998,2038,0x0000,0x5B5B
23.269883008000001,2038,0x0000,0x5B5B
23.269883507999999,2038,0x0000,0x5B5B
23.269884007999998,2038,0x0000,0x5B5B
23.269884508000001,2038,0x0000,0x5B5B
23.269885007999999,2038,0x0000,0x5B5B
23.269885508000002,2038,0x0000,0x5B5B
23.269886008000000,2038,0x0000,0x5B5B
23.269886507999999,2038,0x0000,0x5B5B
23.269887008000001,2038,0x0000,0x5B5B
23.269887508000000,2038,0x0000,0x5B5B
23.269888007999999,2038,0x0000,0x5B5B
23.269888508000001,2038,0x0000,0x5B5B
23.269889008000000,2038,0x0000,0x5B5B
23.269889507999999,2038,0x0000,0x5B5B
23.269890008000001,2038,0x0000,0x5B5B
23.269890508000000,2038,0x0400,0x5B5B
23.269891007999998,2038,0x0400,0x5B5B
23.269891508000001,2038,0x0400,0x5B5B
23.269892007999999,2038,0x0400,0x5B5B
23.269892508000002,2038,0x0000,0x5B5B
23.269893008000000,2038,0x0000,0x5B5B
23.269893507999999,2038,0x0000,0x5B5B
23.269894008000001,2038,0x0000,0x5B5B
23.269894508000000,2038,0x9A4A,0x5B5B
23.269895007999999,2038,0x56EE,0x5B5B
23.269895508000001,2038,0x010C,0x5B5B
23.269896008000000,2038,0x0000,0x5B5B
23.269896507999999,2038,0x8000,0x5B5B
23.269897008000001,2038,0x0000,0x5B5B
23.269897508000000,2038,0x0000,0x5B5B
23.269898007999998,2038,0x0000,0x5B5B
23.269898508000001,2038,0x8000,0x5B5B
23.269899007999999,2038,0x0000,0x5B5B
23.269899508000002,2038,0x0000,0x5B5B
23.269900008000000,2038,0x0000,0x5B5B
23.269900507999999,2038,0x8000,0x5B5B
23.269901008000001,2038,0x0000,0x5B5B
23.269901508000000,2038,0x0000,0x5B5B
23.269902007999999,2038,0x0000,0x5B5B
23.269902508000001,2038,0x0000,0x5B5B
23.269903008000000,2038,0x2280,0x5B5B
23.269903507999999,2038,0x0000,0x5B5B
23.269904008000001,2038,0x0000,0x5B5B
23.269904508000000,2038,0x0000,0x5B5B
23.269905007999999,2038,0x0000,0x5B5B
23.269905508000001,2038,0x0000,0x5B5B
23.269906008000000,2038,0x0000,0x5B5B
23.269906507999998,2038,0x36C0,0x5B5B
23.269907008000001,2038,0x0000,0x5B5B
23.269907507999999,2038,0x39C4,0x5B5B
23.269908008000002,2038,0x0001,0x5B5B
23.269908508000000,2038,0x0000,0x5B5B
23.269909007999999,2038,0x0000,0x5B5B
23.269909508000001,2038,0x0000,0x5B5B
23.269910008000000,2038,0x0000,0x5B5B
23.269910507999999,2038,0x0000,0x5B5B
23.269911008000001,2038,0x0000,0x5B5B
23.269911508000000,2038,0x0003,0x5B5B
23.269912007999999,2038,0x0000,0x5B5B
23.269912508000001,2038,0x0053,0x5B5B
23.269913008000000,2038,0x0000,0x5B5B
23.269913507999998,2038,0x0058,0x5B5B
23.269914008000001,2038,0x8003,0x5B5B
23.269914507999999,2038,0x0000,0x5B5B
23.269915008000002,2038,0x0000,0x5B5B
23.269915508000000,2038,0x0003,0x5B5B
23.269916007999999,2038,0x0000,0x5B5B
23.269916508000001,2038,0x004D,0x5B5B
23.269917008000000,2038,0x0000,0x5B5B
23.269917507999999,2038,0x004E,0x5B5B
23.269918008000001,2038,0x0000,0x5B5B
23.269918508000000,2038,0x0000,0x5B5B
23.269919007999999,2038,0x0000,0x5B5B
23.269919508000001,2038,0x0003,0x5B5B
23.269920008000000,2038,0x0000,0x5B5B
23.269920507999998,2038,0x0033,0x5B5B
23.269921008000001,2038,0x0000,0x5B5B
23.269921507999999,2038,0x003B,0x5B5B
23.269922008000002,2038,0x8003,0x5B5B
23.269922508000001,2038,0x0000,0x5B5B
23.269923007999999,2038,0x0000,0x5B5B
23.269923508000002,2038,0x0003,0x5B5B
23.269924008000000,2038,0x0000,0x5B5B
23.269924507999999,2038,0x0054,0x5B5B
23.269925008000001,2038,0x0000,0x5B5B
23.269925508000000,2038,0x009F,0x5B5B
23.269926007999999,2038,0x0007,0x5B5B
23.269926508000001,2038,0x0070,0x5B5B
23.269927008000000,2038,0x0212,0x5B5B
23.269927507999999,2038,0x0002,0x5B5B
23.269928008000001,2038,0x003D,0x5B5B
23.269928505999999,2038,0x003D,0x5B5B
23.269929007999998,2038,0x1680,0x5B5B
23.269929508000001,2038,0x0F00,0x5B5B
23.269930007999999,2038,0x1680,0x5B5B
23.269930508000002,2038,0x0F00,0x5B5B
23.269931008000000,2038,0x00BE,0x5B5B
23.269931507999999,2038,0x00BE,0x5B5B
23.269932008000001,2038,0x00BE,0x5B5B
23.269932508000000,2038,0x00BE,0x5B5B
23.269933007999999,2038,0x00BE,0x5B5B
23.269933508000001,2038,0x00BE,0x5B5B
23.269934008000000,2038,0x00BE,0x5B5B
23.269934507999999,2038,0x00BE,0x5B5B
23.269935008000001,2038,0x00BE,0x5B5B
23.269935508000000,2038,0x00BE,0x5B5B
23.269936007999998,2038,0x00BE,0x5B5B
23.269936508000001,2038,0x00BE,0x5B5B
23.269937007999999,2038,0x00BE,0x5B5B
23.269937508000002,2038,0x00BE,0x5B5B
23.269938008000000,2038,0x00BE,0x5B5B
23.269938507999999,2038,0x00BE,0x5B5B
23.269939008000001,2038,0x00BE,0x5B5B
23.269939508000000,2038,0x00BE,0x5B5B
23.269940007999999,2038,0x00BE,0x5B5B
23.269940508000001,2038,0x00BE,0x5B5B
23.269941008000000,2038,0x00BE,0x5B5B
23.269941507999999,2038,0x00BE,0x5B5B
23.269942008000001,2038,0x00BE,0x5B5B
23.269942508000000,2038,0x00BE,0x5B5B
23.269943007999998,2038,0x00BE,0x5B5B
23.269943508000001,2038,0x00BE,0x5B5B
23.269944008000000,2038,0x00BE,0x5B5B
23.269944507999998,2038,0x00BE,0x5B5B
23.269945008000001,2038,0x00BE,0x5B5B
23.269945507999999,2038,0x00BE,0x5B5B
23.269946008000002,2038,0x00BE,0x5B5B
23.269946508000000,2038,0x00BE,0x5B5B
23.269947007999999,2038,0x00BE,0x5B5B
23.269947508000001,2038,0x00BE,0x5B5B
23.269948008000000,2038,0x00BE,0x5B5B
23.269948507999999,2038,0x00BE,0x5B5B
23.269949008000001,2038,0x00BE,0x5B5B
23.269949508000000,2038,0x00BE,0x5B5B
23.269950007999999,2038,0x00BE,0x5B5B
23.269950508000001,2038,0x00BE,0x5B5B
23.269951008000000,2038,0x00BE,0x5B5B
23.269951507999998,2038,0x00BE,0x5B5B
23.269952008000001,2038,0x00BE,0x5B5B
23.269952507999999,2038,0x00BE,0x5B5B
23.269953008000002,2038,0x00BE,0x5B5B
23.269953508000000,2038,0x00BE,0x5B5B
23.269954007999999,2038,0x00BE,0x5B5B
23.269954508000001,2038,0x00BE,0x5B5B
23.269955008000000,2038,0x00BE,0x5B5B
23.269955507999999,2038,0x00BE,0x5B5B
23.269956008000001,2038,0x00BE,0x5B5B
23.269956508000000,2038,0x00BE,0x5B5B
23.269957007999999,2038,0x00BE,0x5B5B
23.269957508000001,2038,0x00BE,0x5B5B
23.269958008000000,2038,0x00BE,0x5B5B
23.269958507999998,2038,0x00BE,0x5B5B
23.269959008000001,2038,0x00BE,0x5B5B
23.269959507999999,2038,0x00BE,0x5B5B
23.269960008000002,2038,0x00BE,0x5B5B
23.269960508000000,2038,0x00BE,0x5B5B
23.269961007999999,2038,0x00BE,0x5B5B
23.269961508000002,2038,0x00BC,0x5B5B
23.269962008000000,2038,0x00BC,0x5B5B
23.269962507999999,2038,0x00BC,0x5B5B
23.269963008000001,2038,0x00BC,0x5B5B
23.269963508000000,2038,0x00BC,0x5B5B
23.269964005999999,2038,0x00BC,0x5B5B
23.269964508000001,2038,0x00BC,0x5B5B
23.269965008000000,2038,0x00BC,0x5B5B
23.269965507999999,2038,0x00BC,0x5B5B
23.269966008000001,2038,0x00BC,0x5B5B
23.269966508000000,2038,0x00BC,0x5B5B
23.269967007999998,2038,0x00BC,0x5B5B
23.269967508000001,2038,0x00BC,0x5B5B
23.269968007999999,2038,0x00BC,0x5B5B
23.269968508000002,2038,0x00BC,0x5B5B
23.269969008000000,2038,0x00BC,0x5B5B
23.269969507999999,2038,0x00BC,0x5B5B
23.269970008000001,2038,0x00BC,0x5B5B
23.269970508000000,2038,0x00BC,0x5B5B
23.269971007999999,2038,0x00BC,0x5B5B
23.269971508000001,2038,0x00BC,0x5B5B
23.269972008000000,2038,0x00BC,0x5B5B
23.269972507999999,2038,0x00BC,0x5B5B
23.269973008000001,2038,0x00BC,0x5B5B
23.269973508000000,2038,0x00BC,0x5B5B
23.269974007999998,2038,0x00BC,0x5B5B
23.269974508000001,2038,0x00BC,0x5B5B
23.269975007999999,2038,0x00BC,0x5B5B
23.269975508000002,2038,0x00BC,0x5B5B
23.269976008000000,2038,0x00BC,0x5B5B
23.269976507999999,2038,0x00BC,0x5B5B
23.269977008000001,2038,0x00BC,0x5B5B
23.269977508000000,2038,0x00BC,0x5B5B
23.269978007999999,2038,0x00BC,0x5B5B
23.269978508000001,2038,0x00BC,0x5B5B
23.269979008000000,2038,0x00BC,0x5B5B
23.269979507999999,2038,0x00BC,0x5B5B
23.269980008000001,2038,0x00BC,0x5B5B
23.269980508000000,2038,0x00BC,0x5B5B
23.269981005999998,2038,0x00BC,0x5B5B
23.269981508000001,2038,0x00BC,0x5B5B
23.269982007999999,2038,0x00BC,0x5B5B
23.269982507999998,2038,0x00BC,0x5B5B
23.269983008000001,2038,0x00BC,0x5B5B
23.269983507999999,2038,0x00BC,0x5B5B
23.269984008000002,2038,0x00BC,0x5B5B
23.269984508000000,2038,0x00BC,0x5B5B
23.269985007999999,2038,0x00BC,0x5B5B
23.269985508000001,2038,0x00BC,0x5B5B
23.269986008000000,2038,0x00BC,0x5B5B
23.269986507999999,2038,0x00BC,0x5B5B
23.269987008000001,2038,0x00BC,0x5B5B
23.269987508000000,2038,0x00BC,0x5B5B
23.269988007999999,2038,0x00BC,0x5B5B
23.269988508000001,2038,0x00BC,0x5B5B
23.269989008000000,2038,0x00BC,0x5B5B
23.269989507999998,2038,0x00BC,0x5B5B
23.269990008000001,2038,0x00BC,0x5B5B
23.269990507999999,2038,0x00BC,0x5B5B
23.269991008000002,2038,0x00BC,0x5B5B
23.269991508000000,2038,0x00BC,0x5B5B
23.269992005999999,2038,0x0120,0x5B5B
23.269992508000001,2038,0x0000,0x5B5B
23.269993008000000,2038,0xFEE0,0x5B5B
23.269993507999999,2038,0x05F0,0x5B5B
23.269994008000001,2038,0x04D0,0x5B5B
23.269994508000000,2038,0x03B0,0x5B5B
23.269995007999999,2038,0x027F,0x5B5B
23.269995508000001,2038,0x0120,0x5B5B
23.269996008000000,2038,0x0000,0x5B5B
23.269996507999998,2038,0xFA10,0x5B5B
23.269997008000001,2038,0xFB30,0x5B5B
23.269997507999999,2038,0xFC50,0x5B5B
23.269998008000002,2038,0xFD81,0x5B5B
23.269998508000000,2038,0xFEE0,0x5B5B
23.269999007999999,2038,0x05F0,0x5B5B
23.269999508000001,2038,0x04D0,0x5B5B
23.270000008000000,2038,0x03B0,0x5B5B
23.270000507999999,2038,0x027F,0x5B5B
23.270001008000001,2038,0x0120,0x5B5B
23.270001508000000,2038,0x0000,0x5B5B
23.270002007999999,2038,0xFA10,0x5B5B
23.270002508000001,2038,0xFB30,0x5B5B
23.270003008000000,2038,0xFC50,0x5B5B
23.270003505999998,2038,0xFD81,0x5B5B
23.270004008000001,2038,0xFEE0,0x5B5B
23.270004508000000,2038,0x05F0,0x5B5B
23.270005007999998,2038,0x04D0,0x5B5B
23.270005508000001,2038,0x03B0,0x5B5B
23.270006007999999,2038,0x027F,0x5B5B
23.270006508000002,2038,0x0120,0x5B5B
23.270007008000000,2038,0x0000,0x5B5B
23.270007507999999,2038,0xFA10,0x5B5B
23.270008008000001,2038,0xFB30,0x5B5B
23.270008506000000,2038,0xFC50,0x5B5B
23.270009007999999,2038,0xFD81,0x5B5B
23.270009508000001,2038,0xFEE0,0x5B5B
23.270010008000000,2038,0x05F0,0x5B5B
23.270010507999999,2038,0x04D0,0x5B5B
23.270011008000001,2038,0x03B0,0x5B5B
23.270011508000000,2038,0x027F,0x5B5B
23.270012007999998,2038,0x0120,0x5B5B
23.270012508000001,2038,0x0000,0x5B5B
23.270013007999999,2038,0xFA10,0x5B5B
23.270013508000002,2038,0xFB30,0x5B5B
23.270014008000000,2038,0xFC50,0x5B5B
23.270014507999999,2038,0xFD81,0x5B5B
23.270015008000001,2038,0xFEE0,0x5B5B
23.270015508000000,2038,0x05F0,0x5B5B
23.270016007999999,2038,0x04D0,0x5B5B
23.270016508000001,2038,0x03B0,0x5B5B
23.270017008000000,2038,0x027F,0x5B5B
23.270017507999999,2038,0x0120,0x5B5B
23.270018008000001,2038,0x0000,0x5B5B
23.270018508000000,2038,0xFA10,0x5B5B
23.270019007999998,2038,0xFB30,0x5B5B
23.270019506000001,2038,0xFC50,0x5B5B
23.270020007999999,2038,0xFD81,0x5B5B
23.270020508000002,2038,0xFEE0,0x5B5B
23.270021008000001,2038,0x0120,0x5B5B
23.270021507999999,2038,0x0000,0x5B5B
23.270022008000002,2038,0xFEE0,0x5B5B
23.270022508000000,2038,0xFD78,0x5B5B
23.270023007999999,2038,0xFD78,0x5B5B
23.270023508000001,2038,0xFD78,0x5B5B
23.270024006000000,2038,0xFE4F,0x5B5B
23.270024507999999,2038,0xFE4F,0x5B5B
23.270025008000001,2038,0xFE4F,0x5B5B
23.270025508000000,2038,0xFE4F,0x5B5B
23.270026007999999,2038,0xFE4F,0x5B5B
23.270026508000001,2038,0xFE4F,0x5B5B
23.270027008000000,2038,0xFE4F,0x5B5B
23.270027507999998,2038,0xFE4F,0x5B5B
23.270028006000000,2038,0xFE4F,0x5B5B
23.270028507999999,2038,0xFE4F,0x5B5B
23.270029008000002,2038,0xFE4F,0x5B5B
23.270029508000000,2038,0xFF29,0x5B5B
23.270030005999999,2038,0xFF29,0x5B5B
23.270030508000001,2038,0xFF29,0x5B5B
23.270031008000000,2038,0xFF29,0x5B5B
23.270031507999999,2038,0xFF29,0x5B5B
23.270032008000001,2038,0xFF29,0x5B5B
23.270032506000000,2038,0xFF29,0x5B5B
23.270033007999999,2038,0xFF29,0x5B5B
23.270033508000001,2038,0xFF29,0x5B5B
23.270034008000000,2038,0xFF29,0x5B5B
23.270034507999998,2038,0xFF29,0x5B5B
23.270035008000001,2038,0x0000,0x5B5B
23.270035507999999,2038,0x0000,0x5B5B
23.270036008000002,2038,0x0000,0x5B5B
23.270036508000000,2038,0x0000,0x5B5B
23.270037007999999,2038,0x0000,0x5B5B
23.270037508000001,2038,0x0000,0x5B5B
23.270038008000000,2038,0x0000,0x5B5B
23.270038507999999,2038,0x0000,0x5B5B
23.270039008000001,2038,0x0000,0x5B5B
23.270039508000000,2038,0x0000,0x5B5B
23.270040007999999,2038,0x0000,0x5B5B
23.270040508000001,2038,0x00D7,0x5B5B
23.270041008000000,2038,0x00D7,0x5B5B
23.270041507999998,2038,0x00D7,0x5B5B
23.270042008000001,2038,0x00D7,0x5B5B
23.270042508000000,2038,0x00D7,0x5B5B
23.270043007999998,2038,0x00D7,0x5B5B
23.270043508000001,2038,0x00D7,0x5B5B
23.270044007999999,2038,0x00D7,0x5B5B
23.270044508000002,2038,0x00D7,0x5B5B
23.270045008000000,2038,0x00D7,0x5B5B
23.270045507999999,2038,0x00D7,0x5B5B
23.270046008000001,2038,0x01B1,0x5B5B
23.270046508000000,2038,0x01B1,0x5B5B
23.270047005999999,2038,0x01B1,0x5B5B
23.270047508000001,2038,0x01B1,0x5B5B
23.270048008000000,2038,0x01B1,0x5B5B
23.270048507999999,2038,0x01B1,0x5B5B
23.270049006000001,2038,0x01B1,0x5B5B
23.270049508000000,2038,0x01B1,0x5B5B
23.270050007999998,2038,0x01B1,0x5B5B
23.270050508000001,2038,0x01B1,0x5B5B
23.270051005999999,2038,0x01B1,0x5B5B
23.270051508000002,2038,0x0288,0x5B5B
23.270052008000000,2038,0x0288,0x5B5B
23.270052507999999,2038,0x0288,0x5B5B
23.270053008000001,2038,0x0000,0x5B5B
23.270053508000000,2038,0x0000,0x5B5B
23.270054007999999,2038,0x0040,0x5B5B
23.270054508000001,2038,0x0000,0x5B5B
23.270055008000000,2038,0x0000,0x5B5B
23.270055505999999,2038,0x0000,0x5B5B
23.270056008000001,2038,0x0040,0x5B5B
23.270056508000000,2038,0x0000,0x5B5B
23.270057007999998,2038,0x0000,0x5B5B
23.270057506000001,2038,0x0000,0x5B5B
23.270058007999999,2038,0x0000,0x5B5B
23.270058508000002,2038,0x0000,0x5B5B
23.270059008000000,2038,0xFFFF,0x5B5B
23.270059505999999,2038,0x0010,0x5B5B
23.270060008000002,2038,0x0000,0x5B5B
23.270060508000000,2038,0x0000,0x5B5B
23.270061007999999,2038,0x0000,0x5B5B
23.270061508000001,2038,0x0014,0x5B5B
23.270062008000000,2038,0x0000,0x5B5B
23.270062507999999,2038,0x0000,0x5B5B
23.270063008000001,2038,0x0000,0x5B5B
23.270063508000000,2038,0x003C,0x5B5B
23.270064005999998,2038,0x0000,0x5B5B
23.270064506000001,2038,0x0000,0x5B5B
23.270065008000000,2038,0x0000,0x5B5B
23.270065507999998,2038,0x0000,0x5B5B
23.270066008000001,2038,0x0000,0x5B5B
23.270066507999999,2038,0x0000,0x5B5B
23.270067008000002,2038,0x0000,0x5B5B
23.270067508000000,2038,0xFFFF,0x5B5B
23.270068007999999,2038,0x0000,0x5B5B
23.270068508000001,2038,0x0000,0x5B5B
23.270069008000000,2038,0x0000,0x5B5B
23.270069507999999,2038,0x0000,0x5B5B
23.270070006000001,2038,0x0000,0x5B5B
23.270070508000000,2038,0xFFFF,0x5B5B
23.270071007999999,2038,0xFFFF,0x5B5B
23.270071508000001,2038,0x0054,0x5B5B
23.270072008000000,2038,0xFFFF,0x5B5B
23.270072507999998,2038,0x0000,0x5B5B
23.270073008000001,2038,0x0000,0x5B5B
23.270073507999999,2038,0x0120,0x5B5B
23.270074006000002,2038,0x0095,0x5B5B
23.270074508000000,2038,0x0000,0x5B5B
23.270075007999999,2038,0x0000,0x5B5B
23.270075508000001,2038,0x0000,0x5B5B
23.270076008000000,2038,0x0000,0x5B5B
23.270076505999999,2038,0xFFFF,0x5B5B
23.270077008000001,2038,0x0000,0x5B5B
23.270077508000000,2038,0x0000,0x5B5B
23.270078007999999,2038,0x0000,0x5B5B
23.270078508000001,2038,0x4645,0x5B5B
23.270079008000000,2038,0x3538,0x5B5B
23.270079507999998,2038,0x6D6D,0x5B5B
23.270080008000001,2038,0x6620,0x5B5B
23.270080507999999,2038,0x312F,0x5B5B
23.270081007999998,2038,0x382E,0x5B5B
23.270081508000001,2038,0x5520,0x5B5B
23.270082007999999,2038,0x4D53,0x5B5B
23.270082508000002,2038,0x0000,0x5B5B
23.270083008000000,2038,0x0000,0x5B5B
23.270083507999999,2038,0x0000,0x5B5B
23.270084008000001,2038,0x0000,0x5B5B
23.270084506000000,2038,0x0000,0x5B5B
23.270085007999999,2038,0x0000,0x5B5B
23.270085508000001,2038,0x0000,0x5B5B
23.270086008000000,2038,0x0000,0x5B5B
23.270086507999999,2038,0x0000,0x5B5B
23.270087008000001,2038,0x0000,0x5B5B
23.270087508000000,2038,0x0000,0x5B5B
23.270088007999998,2038,0x0000,0x5B5B
23.270088508000001,2038,0x0000,0x5B5B
23.270089007999999,2038,0x0000,0x5B5B
23.270089508000002,2038,0x0000,0x5B5B
23.270090008000000,2038,0x0000,0x5B5B
23.270090507999999,2038,0x0000,0x5B5B
23.270091006000001,2038,0x0000,0x5B5B
23.270091506000000,2038,0x0000,0x5B5B
23.270092007999999,2038,0x0000,0x5B5B
23.270092508000001,2038,0x0000,0x5B5B
23.270093008000000,2038,0x0000,0x5B5B
23.270093507999999,2038,0x0000,0x5B5B
23.270094008000001,2038,0x0000,0x5B5B
23.270094506000000,2038,0x0000,0x5B5B
23.270095005999998,2038,0x0000,0x5B5B
23.270095508000001,2038,0x0000,0x5B5B
23.270096007999999,2038,0xAAAA,0x5B5B
23.270096508000002,2038,0xCC48,0x5B5B
23.270097008000000,2038,0x4441,0x5B5B
23.270097505999999,2038,0x3730,0x5B5B
23.270098008000001,2038,0x3639,0x5B5B
23.270098506000000,2038,0x3937,0x5B5B
23.270099007999999,2038,0x0035,0x5B5B
23.270099508000001,2038,0x0000,0x5B5B
23.270100006000000,2038,0x0000,0x5B5B
23.270100507999999,2038,0x0000,0x5B5B
23.270101008000001,2038,0x0000,0x5B5B
23.270101508000000,2038,0x0000,0x5B5B
23.270102007999999,2038,0x0000,0x5B5B
23.270102508000001,2038,0x0000,0x5B5B
23.270103008000000,2038,0x0000,0x5B5B
23.270103507999998,2038,0x0000,0x5B5B
23.270104008000001,2038,0x0000,0x5B5B
23.270104507999999,2038,0x0000,0x5B5B
23.270105008000002,2038,0x0000,0x5B5B
23.270105508000000,2038,0x0000,0x5B5B
23.270106007999999,2038,0x0000,0x5B5B
23.270106508000001,2038,0x0000,0x5B5B
23.270107008000000,2038,0x0000,0x5B5B
23.270107507999999,2038,0x0000,0x5B5B
23.270108008000001,2038,0x0000,0x5B5B
23.270108508000000,2038,0x0000,0x5B5B
23.270109007999999,2038,0x0000,0x5B5B
23.270109508000001,2038,0x0000,0x5B5B
23.270110008000000,2038,0x0000,0x5B5B
23.270110507999998,2038,0x0000,0x5B5B
23.270111008000001,2038,0x0000,0x5B5B
23.270111507999999,2038,0x0000,0x5B5B
23.270112008000002,2038,0x0000,0x5B5B
23.270112508000000,2038,0x0000,0x5B5B
23.270113007999999,2038,0x0000,0x5B5B
23.270113508000001,2038,0x0000,0x5B5B
23.270114008000000,2038,0x0000,0x5B5B
23.270114505999999,2038,0x0000,0x5B5B
23.270115008000001,2038,0x0000,0x5B5B
23.270115508000000,2038,0x0000,0x5B5B
23.270116007999999,2038,0x0000,0x5B5B
23.270116506000001,2038,0x0000,0x5B5B
23.270117008000000,2038,0x0000,0x5B5B
23.270117507999998,2038,0x0000,0x5B5B
23.270118008000001,2038,0x0000,0x5B5B
23.270118507999999,2038,0x0000,0x5B5B
23.270119008000002,2038,0x0000,0x5B5B
23.270119506000000,2038,0x0000,0x5B5B
23.270120007999999,2038,0x0000,0x5B5B
23.270120506000001,2038,0x0000,0x5B5B
23.270121008000000,2038,0x0000,0x5B5B
23.270121507999999,2038,0x0000,0x5B5B
23.270122006000001,2038,0x0000,0x5B5B
23.270122508000000,2038,0x0000,0x5B5B
23.270123007999999,2038,0x0000,0x5B5B
23.270123508000001,2038,0x0000,0x5B5B
23.270124008000000,2038,0x0000,0x5B5B
23.270124507999999,2038,0x0000,0x5B5B
23.270125006000001,2038,0x0000,0x5B5B
23.270125508000000,2038,0x0000,0x5B5B
23.270126007999998,2038,0x0000,0x5B5B
23.270126508000001,2038,0x0000,0x5B5B
23.270127007999999,2038,0x0000,0x5B5B
23.270127506000001,2038,0x0000,0x5B5B
23.270128006000000,2038,0x0000,0x5B5B
23.270128505999999,2038,0x0000,0x5B5B
23.270129008000001,2038,0x0000,0x5B5B
23.270129508000000,2038,0x0000,0x5B5B
23.270130007999999,2038,0x0000,0x5B5B
23.270130508000001,2038,0x0000,0x5B5B
23.270131008000000,2038,0x0000,0x5B5B
23.270131505999998,2038,0x0000,0x5B5B
23.270132008000001,2038,0x0000,0x5B5B
23.270132508000000,2038,0x0000,0x5B5B
23.270133005999998,2038,0x0000,0x5B5B
23.270133506000001,2038,0x0000,0x5B5B
23.270134007999999,2038,0x0000,0x5B5B
23.270134508000002,2038,0x0000,0x5B5B
23.270135008000000,2038,0x0000,0x5B5B
23.270135507999999,2038,0x0000,0x5B5B
23.270136006000001,2038,0x0000,0x5B5B
23.270136506000000,2038,0x0000,0x5B5B
23.270137007999999,2038,0x0000,0x5B5B
23.270137508000001,2038,0x0000,0x5B5B
23.270138008000000,2038,0x0000,0x5B5B
23.270138507999999,2038,0x0000,0x5B5B
23.270139006000001,2038,0x0000,0x5B5B
23.270139508000000,2038,0x0000,0x5B5B
23.270140007999998,2038,0x0000,0x5B5B
23.270140508000001,2038,0x0000,0x5B5B
23.270141008000000,2038,0x0000,0x5B5B
23.270141507999998,2038,0x0000,0x5B5B
23.270142008000001,2038,0x0000,0x5B5B
23.270142507999999,2038,0x0000,0x5B5B
23.270143008000002,2038,0x0000,0x5B5B
23.270143508000000,2038,0x0000,0x5B5B
23.270144005999999,2038,0x0000,0x5B5B
23.270144508000001,2038,0x0000,0x5B5B
23.270145008000000,2038,0x0000,0x5B5B
23.270145507999999,2038,0x0000,0x5B5B
23.270146008000001,2038,0x0000,0x5B5B
23.270146508000000,2038,0x0000,0x5B5B
23.270147007999999,2038,0x0000,0x5B5B
23.270147508000001,2038,0x0000,0x5B5B
23.270148008000000,2038,0x0000,0x5B5B
23.270148506000002,2038,0x0000,0x5B5B
23.270149008000001,2038,0x0000,0x5B5B
23.270149507999999,2038,0x0000,0x5B5B
23.270150008000002,2038,0x0000,0x5B5B
23.270150508000000,2038,0x0000,0x5B5B
23.270151005999999,2038,0x0000,0x5B5B
23.270151508000001,2038,0x0000,0x5B5B
23.270152008000000,2038,0x0000,0x5B5B
23.270152507999999,2038,0x0000,0x5B5B
23.270153008000001,2038,0x0000,0x5B5B
23.270153508000000,2038,0x0000,0x5B5B
23.270154005999999,2038,0x0000,0x5B5B
23.270154508000001,2038,0x0000,0x5B5B
23.270155006000000,2038,0x0000,0x5B5B
23.270155505999998,2038,0x0000,0x5B5B
23.270156008000001,2038,0x0000,0x5B5B
23.270156507999999,2038,0x0000,0x5B5B
23.270157008000002,2038,0x0000,0x5B5B
23.270157506000000,2038,0x0000,0x5B5B
23.270158007999999,2038,0x0000,0x5B5B
23.270158506000001,2038,0x0000,0x5B5B
23.270159008000000,2038,0x0000,0x5B5B
23.270159505999999,2038,0x0000,0x5B5B
23.270160008000001,2038,0x0000,0x5B5B
23.270160506000000,2038,0x0000,0x5B5B
23.270161007999999,2038,0x0000,0x5B5B
23.270161506000001,2038,0x0000,0x5B5B
23.270162006000000,2038,0x0000,0x5B5B
23.270162507999999,2038,0x0000,0x5B5B
23.270163008000001,2038,0x0000,0x5B5B
23.270163505999999,2038,0x0000,0x5B5B
23.270164007999998,2038,0x0000,0x5B5B
23.270164506000000,2038,0x0000,0x5B5B
23.270165005999999,2038,0x0000,0x5B5B
23.270165508000002,2038,0x0000,0x5B5B
23.270166008000000,2038,0x0000,0x5B5B
23.270166507999999,2038,0x0000,0x5B5B
23.270167008000001,2038,0x0000,0x5B5B
23.270167508000000,2038,0x0000,0x5B5B
23.270168007999999,2038,0x0000,0x5B5B
23.270168508000001,2038,0x0000,0x5B5B
23.270169008000000,2038,0x0000,0x5B5B
23.270169507999999,2038,0x0000,0x5B5B
23.270170008000001,2038,0x0000,0x5B5B
23.270170508000000,2038,0x0000,0x5B5B
23.270171006000002,2038,0x0000,0x5B5B
23.270171508000001,2038,0x0000,0x5B5B
23.270172007999999,2038,0x0000,0x5B5B
23.270172508000002,2038,0x0000,0x5B5B
23.270173008000000,2038,0x0000,0x5B5B
23.270173505999999,2038,0x0000,0x5B5B
23.270174008000001,2038,0x0000,0x5B5B
23.270174508000000,2038,0x0000,0x5B5B
23.270175007999999,2038,0x0000,0x5B5B
23.270175508000001,2038,0x0000,0x5B5B
23.270176008000000,2038,0x0000,0x5B5B
23.270176507999999,2038,0x0000,0x5B5B
23.270177008000001,2038,0x0000,0x5B5B
23.270177508000000,2038,0x0000,0x5B5B
23.270178005999998,2038,0x0000,0x5B5B
23.270178506000001,2038,0x0000,0x5B5B
23.270179007999999,2038,0x0000,0x5B5B
23.270179507999998,2038,0x0000,0x5B5B
23.270180008000001,2038,0x0000,0x5B5B
23.270180505999999,2038,0x0000,0x5B5B
23.270181008000002,2038,0x0000,0x5B5B
23.270181506000000,2038,0xBDAB,0x5B5B
23.270253319999998,2039,0x4D00,0x5B5B
23.270268225999999,2040,0x001F,0x5B5B
23.271211569999998,2041,0xC200,0x5B5B
23.271228476000001,2042,0x0000,0x0C5B
23.271262912000001,2043,0x4D00,0x5B5B
23.271277693999998,2044,0x001E,0x5B5B
23.271293320000002,2045,0x4100,0x5B5B
23.271307382000000,2046,0x0600,0x5B5B
23.271322787999999,2047,0x0A00,0x5B5B
23.271519038000001,2048,0x0002,0x5B5B
23.271519538000000,2048,0x05F8,0x5B5B
23.271520037999998,2048,0x0400,0x5B5B
23.271520538000001,2048,0x0000,0x5B5B
23.271521037999999,2048,0xA000,0x5B5B
23.271521537999998,2048,0x0000,0x5B5B
23.271522038000001,2048,0x1A2C,0x5B5B
23.271522537999999,2048,0x60A7,0x5B5B
23.271523038000002,2048,0x5E98,0x5B5B
23.271523538000000,2048,0x3E6D,0x5B5B
23.271524037999999,2048,0x030C,0x5B5B
23.271524538000001,2048,0x44BC,0x5B5B
23.271525038000000,2048,0x8E9C,0x5B5B
23.271525537999999,2048,0x0045,0x5B5B
23.271526038000001,2048,0x05A6,0x5B5B
23.271526538000000,2048,0x0000,0x5B5B
23.271527037999999,2048,0x0000,0x5B5B
23.271527538000001,2048,0x0000,0x5B5B
23.271528038000000,2048,0x0000,0x5B5B
23.271528537999998,2048,0x0000,0x5B5B
23.271529038000001,2048,0x0000,0x5B5B
23.271529537999999,2048,0x0000,0x5B5B
23.271530038000002,2048,0x0000,0x5B5B
23.271530538000000,2048,0x0000,0x5B5B
23.271531037999999,2048,0x0000,0x5B5B
23.271531538000001,2048,0x0000,0x5B5B
23.271532038000000,2048,0x0000,0x5B5B
23.271532537999999,2048,0x0000,0x5B5B
23.271533038000001,2048,0x0000,0x5B5B
23.271533538000000,2048,0x0000,0x5B5B
23.271534037999999,2048,0x0000,0x5B5B
23.271534538000001,2048,0x0000,0x5B5B
23.271535038000000,2048,0x0000,0x5B5B
23.271535537999998,2048,0x0000,0x5B5B
23.271536038000001,2048,0x0000,0x5B5B
23.271536537999999,2048,0x0000,0x5B5B
23.271537038000002,2048,0x0000,0x5B5B
23.271537538000000,2048,0x0000,0x5B5B
23.271538037999999,2048,0x0000,0x5B5B
23.271538538000001,2048,0x0000,0x5B5B
23.271539038000000,2048,0x0000,0x5B5B
23.271539537999999,2048,0x0000,0x5B5B
23.271540038000001,2048,0x0000,0x5B5B
23.271540538000000,2048,0x0000,0x5B5B
23.271541037999999,2048,0x0000,0x5B5B
23.271541538000001,2048,0x0000,0x5B5B
23.271542038000000,2048,0x0000,0x5B5B
23.271542537999999,2048,0x0000,0x5B5B
23.271543038000001,2048,0x0000,0x5B5B
23.271543538000000,2048,0x0000,0x5B5B
23.271544037999998,2048,0x0000,0x5B5B
23.271544538000001,2048,0x0000,0x5B5B
23.271545037999999,2048,0x0000,0x5B5B
23.271545538000002,2048,0x0000,0x5B5B
23.271546038000000,2048,0x0000,0x5B5B
23.271546537999999,2048,0x0000,0x5B5B
23.271547038000001,2048,0x0000,0x5B5B
23.271547538000000,2048,0x0000,0x5B5B
23.271548037999999,2048,0x0000,0x5B5B
23.271548538000001,2048,0x0000,0x5B5B
23.271549038000000,2048,0x0000,0x5B5B
23.271549537999999,2048,0x0000,0x5B5B
23.271550038000001,2048,0x0000,0x5B5B
23.271550538000000,2048,0x0000,0x5B5B
23.271551037999998,2048,0x0000,0x5B5B
23.271551538000001,2048,0x0000,0x5B5B
23.271552037999999,2048,0x0000,0x5B5B
23.271552538000002,2048,0x0000,0x5B5B
23.271553038000000,2048,0x0000,0x5B5B
23.271553537999999,2048,0x0000,0x5B5B
23.271554038000001,2048,0x0000,0x5B5B
23.271554538000000,2048,0x0000,0x5B5B
23.271555037999999,2048,0x0000,0x5B5B
23.271555538000001,2048,0x0000,0x5B5B
23.271556038000000,2048,0x0000,0x5B5B
23.271556537999999,2048,0x0000,0x5B5B
23.271557038000001,2048,0x0000,0x5B5B
23.271557538000000,2048,0x0000,0x5B5B
23.271558037999998,2048,0x0000,0x5B5B
23.271558538000001,2048,0x0000,0x5B5B
23.271559037999999,2048,0x0000,0x5B5B
23.271559538000002,2048,0x0000,0x5B5B
23.271560038000001,2048,0x0000,0x5B5B
23.271560537999999,2048,0x0000,0x5B5B
23.271561038000002,2048,0x0000,0x5B5B
23.271561538000000,2048,0x0000,0x5B5B
23.271562037999999,2048,0x0000,0x5B5B
23.271562538000001,2048,0x0000,0x5B5B
23.271563038000000,2048,0x0000,0x5B5B
23.271563537999999,2048,0x0000,0x5B5B
23.271564038000001,2048,0x0000,0x5B5B
23.271564538000000,2048,0x0000,0x5B5B
23.271565037999999,2048,0x0000,0x5B5B
23.271565538000001,2048,0x0000,0x5B5B
23.271566038000000,2048,0x0000,0x5B5B
23.271566537999998,2048,0x0000,0x5B5B
23.271567038000001,2048,0x0000,0x5B5B
23.271567537999999,2048,0x0000,0x5B5B
23.271568038000002,2048,0x0000,0x5B5B
23.271568538000000,2048,0x0000,0x5B5B
23.271569037999999,2048,0x0000,0x5B5B
23.271569538000001,2048,0x0000,0x5B5B
23.271570038000000,2048,0x0000,0x5B5B
23.271570537999999,2048,0x0000,0x5B5B
23.271571038000001,2048,0x0000,0x5B5B
23.271571538000000,2048,0x0000,0x5B5B
23.271572037999999,2048,0x0000,0x5B5B
23.271572538000001,2048,0x0000,0x5B5B
23.271573038000000,2048,0x0000,0x5B5B
23.271573537999998,2048,0x0000,0x5B5B
23.271574038000001,2048,0x0000,0x5B5B
23.271574537999999,2048,0x0000,0x5B5B
23.271575038000002,2048,0x0000,0x5B5B
23.271575538000000,2048,0x0000,0x5B5B
23.271576037999999,2048,0x0000,0x5B5B
23.271576538000001,2048,0x0000,0x5B5B
23.271577038000000,2048,0x0000,0x5B5B
23.271577537999999,2048,0x0000,0x5B5B
23.271578038000001,2048,0x0000,0x5B5B
23.271578538000000,2048,0x0000,0x5B5B
23.271579037999999,2048,0x0000,0x5B5B
23.271579538000001,2048,0x0000,0x5B5B
23.271580038000000,2048,0x0000,0x5B5B
23.271580537999998,2048,0x0000,0x5B5B
23.271581038000001,2048,0x0000,0x5B5B
23.271581538000000,2048,0x0000,0x5B5B
23.271582037999998,2048,0x0000,0x5B5B
23.271582538000001,2048,0x0000,0x5B5B
23.271583037999999,2048,0x0000,0x5B5B
23.271583538000002,2048,0x0000,0x5B5B
23.271584038000000,2048,0x0000,0x5B5B
23.271584537999999,2048,0x0000,0x5B5B
23.271585038000001,2048,0x0000,0x5B5B
23.271585538000000,2048,0x0000,0x5B5B
23.271586037999999,2048,0x0000,0x5B5B
23.271586538000001,2048,0x0000,0x5B5B
23.271587038000000,2048,0x0000,0x5B5B
23.271587537999999,2048,0x0000,0x5B5B
23.271588038000001,2048,0x0000,0x5B5B
23.271588538000000,2048,0x0000,0x5B5B
23.271589037999998,2048,0x0000,0x5B5B
23.271589538000001,2048,0x0000,0x5B5B
23.271590037999999,2048,0x0000,0x5B5B
23.271590538000002,2048,0x0000,0x5B5B
23.271591038000000,2048,0x0000,0x5B5B
23.271591537999999,2048,0x0000,0x5B5B
23.271592038000001,2048,0x0000,0x5B5B
23.271592538000000,2048,0x0000,0x5B5B
23.271593037999999,2048,0x0000,0x5B5B
23.271593538000001,2048,0x0000,0x5B5B
23.271594038000000,2048,0x0000,0x5B5B
23.271594537999999,2048,0x0000,0x5B5B
23.271595038000001,2048,0x0000,0x5B5B
23.271595538000000,2048,0x0000,0x5B5B
23.271596037999998,2048,0x0000,0x5B5B
23.271596538000001,2048,0x0000,0x5B5B
23.271597037999999,2048,0x0000,0x5B5B
23.271597538000002,2048,0x0000,0x5B5B
23.271598038000000,2048,0x0000,0x5B5B
23.271598537999999,2048,0x0000,0x5B5B
23.271599038000002,2048,0x0000,0x5B5B
23.271599538000000,2048,0x0000,0x5B5B
23.271600037999999,2048,0x0000,0x5B5B
23.271600538000001,2048,0x0000,0x5B5B
23.271601038000000,2048,0x0000,0x5B5B
23.271601537999999,2048,0x0000,0x5B5B
23.271602038000001,2048,0x0000,0x5B5B
23.271602538000000,2048,0x0000,0x5B5B
23.271603037999999,2048,0x0000,0x5B5B
23.271603538000001,2048,0x0000,0x5B5B
23.271604038000000,2048,0x0000,0x5B5B
23.271604537999998,2048,0x0000,0x5B5B
23.271605038000001,2048,0x0000,0x5B5B
23.271605537999999,2048,0x0000,0x5B5B
23.271606038000002,2048,0x0000,0x5B5B
23.271606538000000,2048,0x0000,0x5B5B
23.271607037999999,2048,0x0000,0x5B5B
23.271607538000001,2048,0x0000,0x5B5B
23.271608038000000,2048,0x0000,0x5B5B
23.271608537999999,2048,0x0000,0x5B5B
23.271609038000001,2048,0x0000,0x5B5B
23.271609538000000,2048,0x0000,0x5B5B
23.271610037999999,2048,0x0000,0x5B5B
23.271610538000001,2048,0x0000,0x5B5B
23.271611038000000,2048,0x0000,0x5B5B
23.271611537999998,2048,0x0000,0x5B5B
23.271612038000001,2048,0x0000,0x5B5B
23.271612537999999,2048,0x0000,0x5B5B
23.271613038000002,2048,0x0000,0x5B5B
23.271613538000000,2048,0x0000,0x5B5B
23.271614037999999,2048,0x0000,0x5B5B
23.271614538000001,2048,0x0000,0x5B5B
23.271615038000000,2048,0x0000,0x5B5B
23.271615537999999,2048,0x0000,0x5B5B
23.271616038000001,2048,0x0000,0x5B5B
23.271616538000000,2048,0x0000,0x5B5B
23.271617037999999,2048,0x0000,0x5B5B
23.271617538000001,2048,0x0000,0x5B5B
23.271618038000000,2048,0x0000,0x5B5B
23.271618537999998,2048,0x0000,0x5B5B
23.271619038000001,2048,0x0000,0x5B5B
23.271619537999999,2048,0x0000,0x5B5B
23.271620037999998,2048,0x0000,0x5B5B
23.271620538000001,2048,0x0000,0x5B5B
23.271621037999999,2048,0x0000,0x5B5B
23.271621538000002,2048,0x0000,0x5B5B
23.271622038000000,2048,0x0000,0x5B5B
23.271622537999999,2048,0x0000,0x5B5B
23.271623038000001,2048,0x0000,0x5B5B
23.271623538000000,2048,0x0000,0x5B5B
23.271624037999999,2048,0x0000,0x5B5B
23.271624538000001,2048,0x0000,0x5B5B
23.271625038000000,2048,0x0000,0x5B5B
23.271625537999999,2048,0x0000,0x5B5B
23.271626038000001,2048,0x0000,0x5B5B
23.271626538000000,2048,0x0000,0x5B5B
23.271627037999998,2048,0x0000,0x5B5B
23.271627538000001,2048,0x0000,0x5B5B
23.271628037999999,2048,0x0000,0x5B5B
23.271628538000002,2048,0x0000,0x5B5B
23.271629038000000,2048,0x0000,0x5B5B
23.271629537999999,2048,0x0000,0x5B5B
23.271630038000001,2048,0x0000,0x5B5B
23.271630538000000,2048,0x0000,0x5B5B
23.271631037999999,2048,0x0000,0x5B5B
23.271631538000001,2048,0x0000,0x5B5B
23.271632038000000,2048,0x0000,0x5B5B
23.271632537999999,2048,0x0000,0x5B5B
23.271633038000001,2048,0x0000,0x5B5B
23.271633538000000,2048,0x0000,0x5B5B
23.271634037999998,2048,0x0000,0x5B5B
23.271634538000001,2048,0x0000,0x5B5B
23.271635037999999,2048,0x0000,0x5B5B
23.271635538000002,2048,0x0000,0x5B5B
23.271636038000000,2048,0x0000,0x5B5B
23.271636537999999,2048,0x0000,0x5B5B
23.271637038000001,2048,0x0000,0x5B5B
23.271637538000000,2048,0x0000,0x5B5B
23.271638037999999,2048,0x0000,0x5B5B
23.271638538000001,2048,0x0000,0x5B5B
23.271639038000000,2048,0x0000,0x5B5B
23.271639537999999,2048,0x0000,0x5B5B
23.271640038000001,2048,0x0000,0x5B5B
23.271640538000000,2048,0x0000,0x5B5B
23.271641037999999,2048,0x0000,0x5B5B
23.271641538000001,2048,0x0000,0x5B5B
23.271642038000000,2048,0x0000,0x5B5B
23.271642537999998,2048,0x0000,0x5B5B
23.271643038000001,2048,0x0000,0x5B5B
23.271643537999999,2048,0x0000,0x5B5B
23.271644038000002,2048,0x0000,0x5B5B
23.271644538000000,2048,0x0000,0x5B5B
23.271645037999999,2048,0x0000,0x5B5B
23.271645538000001,2048,0x0000,0x5B5B
23.271646038000000,2048,0x0000,0x5B5B
23.271646537999999,2048,0x0000,0x5B5B
23.271647038000001,2048,0x0000,0x5B5B
23.271647538000000,2048,0x0000,0x5B5B
23.271648037999999,2048,0x0000,0x5B5B
23.271648538000001,2048,0x0000,0x5B5B
23.271649038000000,2048,0x0000,0x5B5B
23.271649537999998,2048,0x0000,0x5B5B
23.271650038000001,2048,0x0000,0x5B5B
23.271650537999999,2048,0x0000,0x5B5B
23.271651038000002,2048,0x0000,0x5B5B
23.271651538000000,2048,0x0000,0x5B5B
23.271652037999999,2048,0x0000,0x5B5B
23.271652538000001,2048,0x0000,0x5B5B
23.271653038000000,2048,0x0000,0x5B5B
23.271653537999999,2048,0x0000,0x5B5B
23.271654038000001,2048,0x0000,0x5B5B
23.271654538000000,2048,0x0000,0x5B5B
23.271655037999999,2048,0x0000,0x5B5B
23.271655538000001,2048,0x0000,0x5B5B
23.271656038000000,2048,0x0000,0x5B5B
23.271656537999998,2048,0x0000,0x5B5B
23.271657038000001,2048,0x0000,0x5B5B
23.271657537999999,2048,0x0000,0x5B5B
23.271658038000002,2048,0x0000,0x5B5B
23.271658538000001,2048,0x0000,0x5B5B
23.271659037999999,2048,0x0000,0x5B5B
23.271659538000002,2048,0x0000,0x5B5B
23.271660038000000,2048,0x0000,0x5B5B
23.271660537999999,2048,0x0000,0x5B5B
23.271661038000001,2048,0x0000,0x5B5B
23.271661538000000,2048,0x0000,0x5B5B
23.271662037999999,2048,0x0000,0x5B5B
23.271662538000001,2048,0x0000,0x5B5B
23.271663038000000,2048,0x0000,0x5B5B
23.271663537999999,2048,0x0000,0x5B5B
23.271664038000001,2048,0x0000,0x5B5B
23.271664538000000,2048,0x0000,0x5B5B
23.271665037999998,2048,0x0000,0x5B5B
23.271665538000001,2048,0x0000,0x5B5B
23.271666037999999,2048,0x0000,0x5B5B
23.271666538000002,2048,0x0000,0x5B5B
23.271667038000000,2048,0x0000,0x5B5B
23.271667537999999,2048,0x0000,0x5B5B
23.271668038000001,2048,0x0000,0x5B5B
23.271668538000000,2048,0x0000,0x5B5B
23.271669037999999,2048,0x0000,0x5B5B
23.271669538000001,2048,0x0000,0x5B5B
23.271670038000000,2048,0x0000,0x5B5B
23.271670537999999,2048,0x0000,0x5B5B
23.271671038000001,2048,0x0000,0x5B5B
23.271671538000000,2048,0x0000,0x5B5B
23.271672037999998,2048,0x0000,0x5B5B
23.271672538000001,2048,0x0000,0x5B5B
23.271673037999999,2048,0x0000,0x5B5B
23.271673538000002,2048,0x0000,0x5B5B
23.271674038000000,2048,0x0000,0x5B5B
23.271674537999999,2048,0x0000,0x5B5B
23.271675038000001,2048,0x0000,0x5B5B
23.271675538000000,2048,0x0000,0x5B5B
23.271676037999999,2048,0x0000,0x5B5B
23.271676538000001,2048,0x0000,0x5B5B
23.271677038000000,2048,0x0000,0x5B5B
23.271677537999999,2048,0x0000,0x5B5B
23.271678038000001,2048,0x0000,0x5B5B
23.271678538000000,2048,0x0000,0x5B5B
23.271679037999998,2048,0x0000,0x5B5B
23.271679538000001,2048,0x0000,0x5B5B
23.271680038000000,2048,0x0000,0x5B5B
23.271680537999998,2048,0x0000,0x5B5B
23.271681038000001,2048,0x0000,0x5B5B
23.271681537999999,2048,0x0000,0x5B5B
23.271682038000002,2048,0x0000,0x5B5B
23.271682538000000,2048,0x0000,0x5B5B
23.271683037999999,2048,0x0000,0x5B5B
23.271683538000001,2048,0x0000,0x5B5B
23.271684038000000,2048,0x0000,0x5B5B
23.271684537999999,2048,0x0000,0x5B5B
23.271685038000001,2048,0x0000,0x5B5B
23.271685538000000,2048,0x0000,0x5B5B
23.271686037999999,2048,0x0000,0x5B5B
23.271686538000001,2048,0x0000,0x5B5B
23.271687038000000,2048,0x0000,0x5B5B
23.271687537999998,2048,0x0000,0x5B5B
23.271688038000001,2048,0x0000,0x5B5B
23.271688537999999,2048,0x0000,0x5B5B
23.271689038000002,2048,0x0000,0x5B5B
23.271689538000000,2048,0x0000,0x5B5B
23.271690037999999,2048,0x0000,0x5B5B
23.271690538000001,2048,0x0000,0x5B5B
23.271691038000000,2048,0x0000,0x5B5B
23.271691537999999,2048,0x0000,0x5B5B
23.271692038000001,2048,0x0000,0x5B5B
23.271692538000000,2048,0x0000,0x5B5B
23.271693037999999,2048,0x0000,0x5B5B
23.271693538000001,2048,0x0000,0x5B5B
23.271694038000000,2048,0x0000,0x5B5B
23.271694537999998,2048,0x0000,0x5B5B
23.271695038000001,2048,0x0000,0x5B5B
23.271695537999999,2048,0x0000,0x5B5B
23.271696038000002,2048,0x0000,0x5B5B
23.271696538000000,2048,0x0000,0x5B5B
23.271697037999999,2048,0x0000,0x5B5B
23.271697538000002,2048,0x0000,0x5B5B
23.271698038000000,2048,0x0000,0x5B5B
23.271698537999999,2048,0x0000,0x5B5B
23.271699038000001,2048,0x0000,0x5B5B
23.271699538000000,2048,0x0000,0x5B5B
23.271700037999999,2048,0x0000,0x5B5B
23.271700538000001,2048,0x0000,0x5B5B
23.271701038000000,2048,0x0000,0x5B5B
23.271701537999999,2048,0x0000,0x5B5B
23.271702038000001,2048,0x0000,0x5B5B
23.271702538000000,2048,0x0000,0x5B5B
23.271703037999998,2048,0x0000,0x5B5B
23.271703538000001,2048,0x0000,0x5B5B
23.271704037999999,2048,0x0000,0x5B5B
23.271704538000002,2048,0x0000,0x5B5B
23.271705038000000,2048,0x0000,0x5B5B
23.271705537999999,2048,0x0000,0x5B5B
23.271706038000001,2048,0x0000,0x5B5B
23.271706538000000,2048,0x0000,0x5B5B
23.271707037999999,2048,0x0000,0x5B5B
23.271707538000001,2048,0x0000,0x5B5B
23.271708038000000,2048,0x0000,0x5B5B
23.271708537999999,2048,0x0000,0x5B5B
23.271709038000001,2048,0x0000,0x5B5B
23.271709538000000,2048,0x0000,0x5B5B
23.271710037999998,2048,0x0000,0x5B5B
23.271710538000001,2048,0x0000,0x5B5B
23.271711037999999,2048,0x0000,0x5B5B
23.271711538000002,2048,0x0000,0x5B5B
23.271712038000000,2048,0x0000,0x5B5B
23.271712537999999,2048,0x0000,0x5B5B
23.271713038000001,2048,0x0000,0x5B5B
23.271713538000000,2048,0x0000,0x5B5B
23.271714037999999,2048,0x0000,0x5B5B
23.271714538000001,2048,0x0000,0x5B5B
23.271715038000000,2048,0x0000,0x5B5B
23.271715537999999,2048,0x0000,0x5B5B
23.271716038000001,2048,0x0000,0x5B5B
23.271716538000000,2048,0x0000,0x5B5B
23.271717037999998,2048,0x0000,0x5B5B
23.271717538000001,2048,0x0000,0x5B5B
23.271718037999999,2048,0x0000,0x5B5B
23.271718537999998,2048,0x014C,0x5B5B
23.271719038000001,2048,0x0000,0x5B5B
23.271719537999999,2048,0x0003,0x5B5B
23.271720038000002,2048,0x0000,0x5B5B
23.271720538000000,2048,0x0001,0x5B5B
23.271721037999999,2048,0x0000,0x5B5B
23.271721538000001,2048,0x0054,0x5B5B
23.271722038000000,2048,0x0000,0x5B5B
23.271722537999999,2048,0x0006,0x5B5B
23.271723038000001,2048,0x0000,0x5B5B
23.271723538000000,2048,0x0101,0x5B5B
23.271724037999999,2048,0x0000,0x5B5B
23.271724538000001,2048,0x0001,0x5B5B
23.271725038000000,2048,0x0000,0x5B5B
23.271725537999998,2048,0x0000,0x5B5B
23.271726038000001,2048,0x0000,0x5B5B
23.271726537999999,2048,0x0102,0x5B5B
23.271727038000002,2048,0x0000,0x5B5B
23.271727538000000,2048,0x0001,0x5B5B
23.271728037999999,2048,0x0000,0x5B5B
23.271728538000001,2048,0x0000,0x5B5B
23.271729038000000,2048,0x0000,0x5B5B
23.271729537999999,2048,0x0104,0x5B5B
23.271730038000001,2048,0x0000,0x5B5B
23.271730538000000,2048,0x0001,0x5B5B
23.271731037999999,2048,0x0000,0x5B5B
23.271731538000001,2048,0x0000,0x5B5B
23.271732038000000,2048,0x0000,0x5B5B
23.271732537999998,2048,0x0105,0x5B5B
23.271733038000001,2048,0x0000,0x5B5B
23.271733537999999,2048,0x0001,0x5B5B
23.271734038000002,2048,0x0000,0x5B5B
23.271734538000000,2048,0x0000,0x5B5B
23.271735037999999,2048,0x0000,0x5B5B
23.271735538000001,2048,0x0106,0x5B5B
23.271736038000000,2048,0x0000,0x5B5B
23.271736537999999,2048,0x0002,0x5B5B
23.271737038000001,2048,0x0000,0x5B5B
23.271737538000000,2048,0x0003,0x5B5B
23.271738037999999,2048,0x0000,0x5B5B
23.271738538000001,2048,0x0000,0x5B5B
23.271739038000000,2048,0x0000,0x5B5B
23.271739537999999,2048,0x0108,0x5B5B
23.271740038000001,2048,0x0000,0x5B5B
23.271740538000000,2048,0x0001,0x5B5B
23.271741037999998,2048,0x0000,0x5B5B
23.271741538000001,2048,0x0000,0x5B5B
23.271742037999999,2048,0x0000,0x5B5B
23.271742538000002,2048,0x0002,0x5B5B
23.271743038000000,2048,0x0000,0x5B5B
23.271743537999999,2048,0x0020,0x5B5B
23.271744038000001,2048,0x0000,0x5B5B
23.271744538000000,2048,0x0002,0x5B5B
23.271745037999999,2048,0x0000,0x5B5B
23.271745538000001,2048,0x040A,0x5B5B
23.271746038000000,2048,0x0000,0x5B5B
23.271746537999999,2048,0x0001,0x5B5B
23.271747038000001,2048,0x0000,0x5B5B
23.271747538000000,2048,0x0007,0x5B5B
23.271748037999998,2048,0x0000,0x5B5B
23.271748538000001,2048,0x040B,0x5B5B
23.271749037999999,2048,0x0000,0x5B5B
23.271749538000002,2048,0x0001,0x5B5B
23.271750038000000,2048,0x0000,0x5B5B
23.271750537999999,2048,0x0000,0x5B5B
23.271751038000001,2048,0x0000,0x5B5B
23.271751538000000,2048,0x0004,0x5B5B
23.271752037999999,2048,0x0000,0x5B5B
23.271752538000001,2048,0x00C4,0x5B5B
23.271753038000000,2048,0x0000,0x5B5B
23.271753537999999,2048,0x0005,0x5B5B
23.271754038000001,2048,0x0000,0x5B5B
23.271754538000000,2048,0x070C,0x5B5B
23.271755037999998,2048,0x0000,0x5B5B
23.271755538000001,2048,0x0020,0x5B5B
23.271756037999999,2048,0x0000,0x5B5B
23.271756538000002,2048,0x0000,0x5B5B
23.271757038000001,2048,0x0000,0x5B5B
23.271757537999999,2048,0x0000,0x5B5B
23.271758038000002,2048,0x0000,0x5B5B
23.271758538000000,2048,0x0000,0x5B5B
23.271759037999999,2048,0x0000,0x5B5B
23.271759538000001,2048,0x0000,0x5B5B
23.271760038000000,2048,0x0000,0x5B5B
23.271760537999999,2048,0x0000,0x5B5B
23.271761038000001,2048,0x0000,0x5B5B
23.271761538000000,2048,0x0000,0x5B5B
23.271762037999999,2048,0x0000,0x5B5B
23.271762538000001,2048,0x0000,0x5B5B
23.271763038000000,2048,0x0000,0x5B5B
23.271763537999998,2048,0x0000,0x5B5B
23.271764038000001,2048,0x0000,0x5B5B
23.271764537999999,2048,0x0000,0x5B5B
23.271765038000002,2048,0x0000,0x5B5B
23.271765538000000,2048,0x0000,0x5B5B
23.271766037999999,2048,0x0000,0x5B5B
23.271766538000001,2048,0x0000,0x5B5B
23.271767038000000,2048,0x0000,0x5B5B
23.271767537999999,2048,0x0000,0x5B5B
23.271768038000001,2048,0x0000,0x5B5B
23.271768538000000,2048,0x0000,0x5B5B
23.271769037999999,2048,0x0000,0x5B5B
23.271769538000001,2048,0x0000,0x5B5B
23.271770038000000,2048,0x0000,0x5B5B
23.271770537999998,2048,0x0000,0x5B5B
23.271771038000001,2048,0x0000,0x5B5B
23.271771537999999,2048,0x0000,0x5B5B
23.271772038000002,2048,0x0000,0x5B5B
23.271772538000000,2048,0x0000,0x5B5B
23.271773037999999,2048,0x0000,0x5B5B
23.271773538000001,2048,0x0000,0x5B5B
23.271774038000000,2048,0x0000,0x5B5B
23.271774537999999,2048,0x0000,0x5B5B
23.271775038000001,2048,0x0000,0x5B5B
23.271775538000000,2048,0x0000,0x5B5B
23.271776037999999,2048,0x0000,0x5B5B
23.271776538000001,2048,0x0000,0x5B5B
23.271777038000000,2048,0x0000,0x5B5B
23.271777537999998,2048,0x0000,0x5B5B
23.271778038000001,2048,0x0000,0x5B5B
23.271778538000000,2048,0x0000,0x5B5B
23.271779037999998,2048,0x0000,0x5B5B
23.271779538000001,2048,0x0000,0x5B5B
23.271780037999999,2048,0x0000,0x5B5B
23.271780538000002,2048,0x0000,0x5B5B
23.271781038000000,2048,0x0000,0x5B5B
23.271781537999999,2048,0x0000,0x5B5B
23.271782038000001,2048,0x0000,0x5B5B
23.271782538000000,2048,0x0000,0x5B5B
23.271783037999999,2048,0x0000,0x5B5B
23.271783538000001,2048,0x0000,0x5B5B
23.271784038000000,2048,0x0000,0x5B5B
23.271784537999999,2048,0x0000,0x5B5B
23.271785038000001,2048,0x0000,0x5B5B
23.271785538000000,2048,0x0000,0x5B5B
23.271786037999998,2048,0x0000,0x5B5B
23.271786538000001,2048,0x0007,0x5B5B
23.271787037999999,2048,0x0000,0x5B5B
23.271787538000002,2048,0x0003,0x5B5B
23.271788038000000,2048,0x0000,0x5B5B
23.271788537999999,2048,0x0706,0x5B5B
23.271789038000001,2048,0x0000,0x5B5B
23.271789538000000,2048,0x0001,0x5B5B
23.271790037999999,2048,0x0000,0x5B5B
23.271790538000001,2048,0x0000,0x5B5B
23.271791038000000,2048,0x0000,0x5B5B
23.271791537999999,2048,0x070F,0x5B5B
23.271792038000001,2048,0x0000,0x5B5B
23.271792538000000,2048,0x0002,0x5B5B
23.271793037999998,2048,0x0000,0x5B5B
23.271793538000001,2048,0x0000,0x5B5B
23.271794037999999,2048,0x0000,0x5B5B
23.271794538000002,2048,0x0002,0x5B5B
23.271795038000000,2048,0x0000,0x5B5B
23.271795537999999,2048,0x080E,0x5B5B
23.271796038000002,2048,0x0000,0x5B5B
23.271796538000000,2048,0x0001,0x5B5B
23.271797037999999,2048,0x0000,0x5B5B
23.271797538000001,2048,0x0000,0x5B5B
23.271798038000000,2048,0x0000,0x5B5B
23.271798537999999,2048,0x0813,0x5B5B
23.271799038000001,2048,0x0000,0x5B5B
23.271799538000000,2048,0x0001,0x5B5B
23.271800037999999,2048,0x0000,0x5B5B
23.271800538000001,2048,0x0000,0x5B5B
23.271801038000000,2048,0x0000,0x5B5B
23.271801537999998,2048,0x0000,0x5B5B
23.271802038000001,2048,0x0000,0x5B5B
23.271802537999999,2048,0x0F78,0x5B5B
23.271803038000002,2048,0x0000,0x5B5B
23.271803538000000,2048,0x0A50,0x5B5B
23.271804037999999,2048,0x0000,0x5B5B
23.271804538000001,2048,0x0000,0x5B5B
23.271805038000000,2048,0x0000,0x5B5B
23.271805537999999,2048,0x0000,0x5B5B
23.271806038000001,2048,0x0000,0x5B5B
23.271806538000000,2048,0x001C,0x5B5B
23.271807037999999,2048,0x0000,0x5B5B
23.271807538000001,2048,0x0003,0x5B5B
23.271808038000000,2048,0x0000,0x5B5B
23.271808537999998,2048,0x0000,0x5B5B
23.271809038000001,2048,0x0000,0x5B5B
23.271809537999999,2048,0x0000,0x5B5B
23.271810038000002,2048,0x0000,0x5B5B
23.271810538000000,2048,0xFFFF,0x5B5B
23.271811037999999,2048,0x1450,0x5B5B
23.271811538000001,2048,0x0081,0x5B5B
23.271812038000000,2048,0x0000,0x5B5B
23.271812537999999,2048,0x0000,0x5B5B
23.271813038000001,2048,0x0000,0x5B5B
23.271813538000000,2048,0x000C,0x5B5B
23.271814037999999,2048,0x01B8,0x5B5B
23.271814538000001,2048,0x0400,0x5B5B
23.271815038000000,2048,0x0400,0x5B5B
23.271815537999998,2048,0x0203,0x5B5B
23.271816038000001,2048,0x0000,0x5B5B
23.271816537999999,2048,0x0022,0x5B5B
23.271817037999998,2048,0x0F78,0x5B5B
23.271817538000001,2048,0x0A50,0x5B5B
23.271818037999999,2048,0x0001,0x5B5B
23.271818538000002,2048,0x0001,0x5B5B
23.271819038000000,2048,0x0000,0x5B5B
23.271819537999999,2048,0x0000,0x5B5B
23.271820038000001,2048,0x0F77,0x5B5B
23.271820538000000,2048,0x0A4F,0x5B5B
23.271821037999999,2048,0x0000,0x5B5B
23.271821538000001,2048,0x0000,0x5B5B
23.271822038000000,2048,0x0000,0x5B5B
23.271822537999999,2048,0x0000,0x5B5B
23.271823038000001,2048,0x0000,0x5B5B
23.271823538000000,2048,0x0000,0x5B5B
23.271824037999998,2048,0x0000,0x5B5B
23.271824538000001,2048,0x0000,0x5B5B
23.271825037999999,2048,0x000A,0x5B5B
23.271825538000002,2048,0x0325,0x5B5B
23.271826038000000,2048,0x0400,0x5B5B
23.271826537999999,2048,0x0400,0x5B5B
23.271827038000001,2048,0x0166,0x5B5B
23.271827538000000,2048,0x0225,0x5B5B
23.271828037999999,2048,0x0400,0x5B5B
23.271828538000001,2048,0x0400,0x5B5B
23.271829038000000,2048,0x01F0,0x5B5B
23.271829537999999,2048,0x0180,0x5B5B
23.271830038000001,2048,0x0400,0x5B5B
23.271830538000000,2048,0x0400,0x5B5B
23.271831037999998,2048,0x02B6,0x5B5B
23.271831538000001,2048,0x0662,0x5B5B
23.271832037999999,2048,0x079D,0x5B5B
23.271832538000002,2048,0x079D,0x5B5B
23.271833038000000,2048,0x02AA,0x5B5B
23.271833537999999,2048,0x0765,0x5B5B
23.271834038000001,2048,0x0CBC,0x5B5B
23.271834538000000,2048,0x0CBC,0x5B5B
23.271835037999999,2048,0x0624,0x5B5B
23.271835538000001,2048,0x0378,0x5B5B
23.271836038000000,2048,0x0869,0x5B5B
23.271836537999999,2048,0x0869,0x5B5B
23.271837038000001,2048,0x05A1,0x5B5B
23.271837538000000,2048,0x0005,0x5B5B
23.271838037999999,2048,0xFFFF,0x5B5B
23.271838538000001,2048,0x010E,0x5B5B
23.271839038000000,2048,0x010A,0x5B5B
23.271839537999998,2048,0x0112,0x5B5B
23.271840038000001,2048,0x0000,0x5B5B
23.271840537999999,2048,0x05A6,0x5B5B
23.271841038000002,2048,0x0C2F,0x5B5B
23.271841538000000,2048,0x0C2D,0x5B5B
23.271842037999999,2048,0x06F1,0x5B5B
23.271842538000001,2048,0x0292,0x5B5B
23.271843038000000,2048,0x00CE,0x5B5B
23.271843537999999,2048,0x00CD,0x5B5B
23.271844038000001,2048,0x001D,0x5B5B
23.271844538000000,2048,0x0059,0x5B5B
23.271845037999999,2048,0x028C,0x5B5B
23.271845538000001,2048,0x028D,0x5B5B
23.271846038000000,2048,0x0443,0x5B5B
23.271846537999998,2048,0x0551,0x5B5B
23.271847038000001,2048,0x0965,0x5B5B
23.271847537999999,2048,0x0965,0x5B5B
23.271848038000002,2048,0x01B9,0x5B5B
23.271848538000000,2048,0x05D4,0x5B5B
23.271849037999999,2048,0x0B8C,0x5B5B
23.271849538000001,2048,0x0B8C,0x5B5B
23.271850038000000,2048,0x067E,0x5B5B
23.271850537999999,2048,0x0293,0x5B5B
23.271851038000001,2048,0x00D2,0x5B5B
23.271851538000000,2048,0x00D1,0x5B5B
23.271852037999999,2048,0x001E,0x5B5B
23.271852538000001,2048,0x0061,0x5B5B
23.271853038000000,2048,0x025B,0x5B5B
23.271853537999998,2048,0x025C,0x5B5B
23.271854038000001,2048,0x03DB,0x5B5B
23.271854537999999,2048,0x056E,0x5B5B
23.271855038000002,2048,0x08E1,0x5B5B
23.271855538000001,2048,0x08E3,0x5B5B
23.271856037999999,2048,0x01B2,0x5B5B
23.271856538000002,2048,0x0876,0x5B5B
23.271857038000000,2048,0x0400,0x5B5B
23.271857537999999,2048,0x0400,0x5B5B
23.271858038000001,2048,0x0661,0x5B5B
23.271858538000000,2048,0x1674,0x5B5B
23.271859037999999,2048,0x0876,0x5B5B
23.271859538000001,2048,0x0400,0x5B5B
23.271860038000000,2048,0x0400,0x5B5B
23.271860537999999,2048,0x0661,0x5B5B
23.271861038000001,2048,0x1674,0x5B5B
23.271861538000000,2048,0x0876,0x5B5B
23.271862037999998,2048,0x0400,0x5B5B
23.271862538000001,2048,0x0400,0x5B5B
23.271863037999999,2048,0x0661,0x5B5B
23.271863538000002,2048,0x1674,0x5B5B
23.271864038000000,2048,0x0876,0x5B5B
23.271864537999999,2048,0x0400,0x5B5B
23.271865038000001,2048,0x0400,0x5B5B
23.271865538000000,2048,0x0661,0x5B5B
23.271866037999999,2048,0x1674,0x5B5B
23.271866538000001,2048,0x0400,0x5B5B
23.271867038000000,2048,0x0400,0x5B5B
23.271867537999999,2048,0x0400,0x5B5B
23.271868038000001,2048,0x0400,0x5B5B
23.271868538000000,2048,0x11D3,0x5B5B
23.271869037999998,2048,0x0400,0x5B5B
23.271869538000001,2048,0x0400,0x5B5B
23.271870037999999,2048,0x0400,0x5B5B
23.271870538000002,2048,0x0400,0x5B5B
23.271871038000000,2048,0x11D3,0x5B5B
23.271871537999999,2048,0x0876,0x5B5B
23.271872038000001,2048,0x0400,0x5B5B
23.271872538000000,2048,0x0400,0x5B5B
23.271873037999999,2048,0x0661,0x5B5B
23.271873538000001,2048,0x1674,0x5B5B
23.271874038000000,2048,0x0876,0x5B5B
23.271874537999999,2048,0x0400,0x5B5B
23.271875038000001,2048,0x0400,0x5B5B
23.271875538000000,2048,0x0661,0x5B5B
23.271876037999998,2048,0x1674,0x5B5B
23.271876538000001,2048,0x0884,0x5B5B
23.271877038000000,2048,0x0400,0x5B5B
23.271877537999998,2048,0x0400,0x5B5B
23.271878038000001,2048,0x064D,0x5B5B
23.271878537999999,2048,0x16DB,0x5B5B
23.271879038000002,2048,0x0884,0x5B5B
23.271879538000000,2048,0x0400,0x5B5B
23.271880037999999,2048,0x0400,0x5B5B
23.271880538000001,2048,0x064D,0x5B5B
23.271881038000000,2048,0x16DB,0x5B5B
23.271881537999999,2048,0x0810,0x5B5B
23.271882038000001,2048,0x0400,0x5B5B
23.271882538000000,2048,0x0400,0x5B5B
23.271883037999999,2048,0x06B7,0x5B5B
23.271883538000001,2048,0x1485,0x5B5B
23.271884038000000,2048,0x080E,0x5B5B
23.271884537999998,2048,0x03FC,0x5B5B
23.271885038000001,2048,0x0403,0x5B5B
23.271885537999999,2048,0x06B5,0x5B5B
23.271886038000002,2048,0x1485,0x5B5B
23.271886538000000,2048,0x0243,0x5B5B
23.271887037999999,2048,0x0492,0x5B5B
23.271887538000001,2048,0x0492,0x5B5B
23.271888038000000,2048,0x02BA,0x5B5B
23.271888537999999,2048,0x1492,0x5B5B
23.271889038000001,2048,0x07AF,0x5B5B
23.271889538000000,2048,0x0400,0x5B5B
23.271890037999999,2048,0x0400,0x5B5B
23.271890538000001,2048,0x067E,0x5B5B
23.271891038000000,2048,0x1450,0x5B5B
23.271891537999998,2048,0x08CA,0x5B5B
23.271892038000001,2048,0x0400,0x5B5B
23.271892537999999,2048,0x0400,0x5B5B
23.271893038000002,2048,0x058D,0x5B5B
23.271893538000000,2048,0x1B58,0x5B5B
23.271894037999999,2048,0x0842,0x5B5B
23.271894538000002,2048,0x0400,0x5B5B
23.271895038000000,2048,0x0400,0x5B5B
23.271895537999999,2048,0x05FD,0x5B5B
23.271896038000001,2048,0x1770,0x5B5B
23.271896538000000,2048,0x0591,0x5B5B
23.271897037999999,2048,0x0400,0x5B5B
23.271897538000001,2048,0x0400,0x5B5B
23.271898038000000,2048,0x099D,0x5B5B
23.271898537999999,2048,0x0C80,0x5B5B
23.271899038000001,2048,0x06C2,0x5B5B
23.271899538000000,2048,0x0400,0x5B5B
23.271900037999998,2048,0x0400,0x5B5B
23.271900538000001,2048,0x0934,0x5B5B
23.271901037999999,2048,0x0E82,0x5B5B
23.271901538000002,2048,0x07AF,0x5B5B
23.271902038000000,2048,0x0400,0x5B5B
23.271902537999999,2048,0xBDAB,0x5B5B
23.271974006000001,2049,0x4D00,0x5B5B
23.271988944000000,2050,0x001F,0x5B5B
23.272036818000000,2051,0xCC00,0x5B5B
23.272053100000001,2052,0x0000,0x0461
23.272071788000002,2053,0x4D00,0x6161
23.272086567999999,2054,0x001E,0x6161
23.272244568000001,2055,0xCC00,0x6161
23.272261132000001,2056,0x0000,0x0461
23.272279162000000,2057,0x4C00,0x6161
23.272293726000001,2058,0x0001,0x6161
23.272309568000001,2059,0xC300,0x6161
23.272350599999999,2060,0x0000,0x0020
23.272368694000001,2061,0xD400,0x2020
23.272383944000001,2062,0x0000,0x0002
23.272401005999999,2063,0xD500,0x0202
23.272415568000000,2064,0x0000,0x0C00
23.272465631999999,2065,0x4100,0x0000
23.272480756000000,2066,0x0020,0x0000
23.272496600000000,2067,0x8FE0,0x0000
23.272541287999999,2068,0x0000,0x0200
23.272541788000002,2068,0x0000,0x000C
23.272542286000000,2068,0x0000,0x060C
23.272542787999999,2068,0x0000,0x0201
23.272543288000001,2068,0x0000,0x0402
23.272543788000000,2068,0x0000,0x0602
23.272544287999999,2068,0x0000,0x0000
23.272544788000001,2068,0x0000,0x0000
23.272545288000000,2068,0x0000,0x0000
23.272545787999999,2068,0x0000,0x0000
23.272546288000001,2068,0x0000,0x0000
23.272546788000000,2068,0x0000,0x0000
23.272547287999998,2068,0x0000,0x0000
23.272547788000001,2068,0x0000,0x0000
23.272548287999999,2068,0x0000,0x0000
23.272548788000002,2068,0x0000,0x0000
23.272678817999999,2069,0xCC00,0x0000
23.272695817999999,2070,0x0000,0x0460
23.272714193999999,2071,0xC300,0x6060
23.272729318000000,2072,0x0000,0x0000
23.272747788000000,2073,0x4D00,0x0000
23.272762411999999,2074,0x001F,0x0000
23.273497662000000,2075,0x4D00,0x0000
23.273512912000001,2076,0x001E,0x0000
23.273528817999999,2077,0x4100,0x0000
23.273543161999999,2078,0x0600,0x0000
23.273558693999998,2079,0x0A00,0x0000
23.273750849999999,2080,0x0002,0x0000
23.273751350000001,2080,0x05F8,0x0000
23.273751850000000,2080,0x0500,0x0000
23.273752349999999,2080,0x0000,0x0000
23.273752848000001,2080,0xA000,0x0000
23.273753348000000,2080,0x0000,0x0000
23.273753849999999,2080,0x1A2C,0x0000
23.273754350000001,2080,0x60A7,0x0000
23.273754850000000,2080,0x5E98,0x0000
23.273755348000002,2080,0x3E6D,0x0000
23.273755850000001,2080,0x030C,0x0000
23.273756349999999,2080,0x44BC,0x0000
23.273756850000002,2080,0x8E9C,0x0000
23.273757350000000,2080,0x0045,0x0000
23.273757849999999,2080,0x05A6,0x0000
23.273758350000001,2080,0x0000,0x0000
23.273758850000000,2080,0x0000,0x0000
23.273759347999999,2080,0x0000,0x0000
23.273759848000001,2080,0x0000,0x0000
23.273760348000000,2080,0x0000,0x0000
23.273760847999998,2080,0x0000,0x0000
23.273761350000001,2080,0x0000,0x0000
23.273761850000000,2080,0x0000,0x0000
23.273762348000002,2080,0x0000,0x0000
23.273762850000001,2080,0x0000,0x0000
23.273763347999999,2080,0x0000,0x0000
23.273763850000002,2080,0x0000,0x0000
23.273764348000000,2080,0x0000,0x0000
23.273764849999999,2080,0x0000,0x0000
23.273765348000001,2080,0x0000,0x0000
23.273765848000000,2080,0x0000,0x0000
23.273766349999999,2080,0x0000,0x0000
23.273766848000001,2080,0x0000,0x0000
23.273767350000000,2080,0x0000,0x0000
23.273767849999999,2080,0x0000,0x0000
23.273768348000001,2080,0x0000,0x0000
23.273768848000000,2080,0x0000,0x0000
23.273769349999998,2080,0x0000,0x0000
23.273769848000001,2080,0x0000,0x0000
23.273770349999999,2080,0x0000,0x0000
23.273770848000002,2080,0x0000,0x0000
23.273771348000000,2080,0x0000,0x0000
23.273771847999999,2080,0x0000,0x0000
23.273772348000001,2080,0x0000,0x0000
23.273772848000000,2080,0x0400,0x0000
23.273773347999999,2080,0x067E,0x0000
23.273773848000001,2080,0x1450,0x0000
23.273774348000000,2080,0x0889,0x0000
23.273774847999999,2080,0x0400,0x0000
23.273775350000001,2080,0x0400,0x0000
23.273775850000000,2080,0x05E3,0x0000
23.273776349999999,2080,0x18C3,0x0000
23.273776850000001,2080,0x0896,0x0000
23.273777347999999,2080,0x0400,0x0000
23.273777849999998,2080,0x0400,0x0000
23.273778348000000,2080,0x0602,0x0000
23.273778847999999,2080,0x1852,0x0000
23.273779350000002,2080,0x07AF,0x0000
23.273779848000000,2080,0x0400,0x0000
23.273780347999999,2080,0x0400,0x0000
23.273780848000001,2080,0x067E,0x0000
23.273781348000000,2080,0x1450,0x0000
23.273781847999999,2080,0x07AF,0x0000
23.273782348000001,2080,0x0400,0x0000
23.273782848000000,2080,0x0400,0x0000
23.273783347999998,2080,0x067E,0x0000
23.273783848000001,2080,0x1450,0x0000
23.273784350000000,2080,0x07AF,0x0000
23.273784847999998,2080,0x0400,0x0000
23.273785348000001,2080,0x0400,0x0000
23.273785847999999,2080,0x067E,0x0000
23.273786348000002,2080,0x1450,0x0000
23.273786848000000,2080,0x07AF,0x0000
23.273787349999999,2080,0x0400,0x0000
23.273787848000001,2080,0x0400,0x0000
23.273788348000000,2080,0x067E,0x0000
23.273788847999999,2080,0x1450,0x0000
23.273789350000001,2080,0x03D3,0x0000
23.273789848000000,2080,0x0400,0x0000
23.273790347999999,2080,0x0400,0x0000
23.273790848000001,2080,0x0421,0x0000
23.273791348000000,2080,0x1068,0x0000
23.273791849999999,2080,0x03D3,0x0000
23.273792348000001,2080,0x0400,0x0000
23.273792847999999,2080,0x0400,0x0000
23.273793348000002,2080,0x0421,0x0000
23.273793848000000,2080,0x1068,0x0000
23.273794347999999,2080,0x03D3,0x0000
23.273794850000002,2080,0x0400,0x0000
23.273795350000000,2080,0x0400,0x0000
23.273795847999999,2080,0x0421,0x0000
23.273796348000001,2080,0x1068,0x0000
23.273796848000000,2080,0x03D3,0x0000
23.273797349999999,2080,0x0400,0x0000
23.273797848000001,2080,0x0400,0x0000
23.273798348000000,2080,0x0421,0x0000
23.273798847999998,2080,0x1068,0x0000
23.273799348000001,2080,0x03D3,0x0000
23.273799847999999,2080,0x0400,0x0000
23.273800348000002,2080,0x0400,0x0000
23.273800848000000,2080,0x0421,0x0000
23.273801347999999,2080,0x1068,0x0000
23.273801848000002,2080,0xFEE1,0x0000
23.273802348000000,2080,0x0196,0x0000
23.273802847999999,2080,0x0367,0x0000
23.273803348000001,2080,0x2A94,0x0000
23.273803848000000,2080,0xFEF3,0x0000
23.273804347999999,2080,0x019F,0x0000
23.273804850000001,2080,0x0351,0x0000
23.273805348000000,2080,0x2710,0x0000
23.273805847999999,2080,0xFF22,0x0000
23.273806350000001,2080,0x01B5,0x0000
23.273806848000000,2080,0x0319,0x0000
23.273807347999998,2080,0x206C,0x0000
23.273807848000001,2080,0xFF54,0x0000
23.273808347999999,2080,0x01D2,0x0000
23.273808848000002,2080,0x02E2,0x0000
23.273809350000001,2080,0x1B58,0x0000
23.273809847999999,2080,0xFF89,0x0000
23.273810350000002,2080,0x01F0,0x0000
23.273810848000000,2080,0x02AC,0x0000
23.273811347999999,2080,0x1770,0x0000
23.273811848000001,2080,0xFFA4,0x0000
23.273812348000000,2080,0x0201,0x0000
23.273812847999999,2080,0x0293,0x0000
23.273813348000001,2080,0x15E0,0x0000
23.273813848000000,2080,0xFFC2,0x0000
23.273814349999999,2080,0x0215,0x0000
23.273814850000001,2080,0x0277,0x0000
23.273815350000000,2080,0x1450,0x0000
23.273815848000002,2080,0xFFF1,0x0000
23.273816348000000,2080,0x0230,0x0000
23.273816847999999,2080,0x0249,0x0000
23.273817348000001,2080,0x125C,0x0000
23.273817848000000,2080,0x0028,0x0000
23.273818347999999,2080,0x0258,0x0000
23.273818848000001,2080,0x021B,0x0000
23.273819348000000,2080,0x1068,0x0000
23.273819847999999,2080,0x005D,0x0000
23.273820348000001,2080,0x0284,0x0000
23.273820848000000,2080,0x01F3,0x0000
23.273821347999998,2080,0x0ED8,0x0000
23.273821848000001,2080,0x008E,0x0000
23.273822347999999,2080,0x02AC,0x0000
23.273822847999998,2080,0x01D0,0x0000
23.273823348000001,2080,0x0DAC,0x0000
23.273823847999999,2080,0x00C7,0x0000
23.273824350000002,2080,0x02E0,0x0000
23.273824850000000,2080,0x01AA,0x0000
23.273825347999999,2080,0x0C80,0x0000
23.273825848000001,2080,0x00F5,0x0000
23.273826348000000,2080,0x0307,0x0000
23.273826847999999,2080,0x0188,0x0000
23.273827348000001,2080,0x0BB8,0x0000
23.273827848000000,2080,0x011E,0x0000
23.273828347999999,2080,0x033A,0x0000
23.273828848000001,2080,0x0175,0x0000
23.273829348000000,2080,0x0AF0,0x0000
23.273829847999998,2080,0x0188,0x0000
23.273830348000001,2080,0x03BE,0x0000
23.273830847999999,2080,0x0142,0x0000
23.273831348000002,2080,0x0960,0x0000
23.273831848000000,2080,0x01F4,0x0000
23.273832347999999,2080,0x0811,0x0000
23.273832848000001,2080,0x0821,0x0000
23.273833348000000,2080,0x0800,0x0000
23.273833847999999,2080,0x0800,0x0000
23.273834348000001,2080,0x0800,0x0000
23.273834848000000,2080,0x0800,0x0000
23.273835349999999,2080,0x0000,0x0000
23.273835848000001,2080,0x0000,0x0000
23.273836348000000,2080,0x0000,0x0000
23.273836847999998,2080,0x0000,0x0000
23.273837348000001,2080,0x0000,0x0000
23.273837847999999,2080,0x0000,0x0000
23.273838348000002,2080,0x0000,0x0000
23.273838848000000,2080,0x0000,0x0000
23.273839347999999,2080,0x0000,0x0000
23.273839848000001,2080,0x0000,0x0000
23.273840348000000,2080,0x0000,0x0000
23.273840847999999,2080,0x0000,0x0000
23.273841348000001,2080,0x0000,0x0000
23.273841848000000,2080,0x0000,0x0000
23.273842347999999,2080,0x0000,0x0000
23.273842848000001,2080,0x0000,0x0000
23.273843348000000,2080,0x0000,0x0000
23.273843847999999,2080,0x0000,0x0000
23.273844348000001,2080,0x0000,0x0000
23.273844848000000,2080,0x0000,0x0000
23.273845347999998,2080,0x0000,0x0000
23.273845848000001,2080,0x0000,0x0000
23.273846347999999,2080,0x0000,0x0000
23.273846848000002,2080,0x0000,0x0000
23.273847348000000,2080,0x0000,0x0000
23.273847847999999,2080,0x0000,0x0000
23.273848348000001,2080,0x0000,0x0000
23.273848848000000,2080,0x0000,0x0000
23.273849347999999,2080,0x0000,0x0000
23.273849848000001,2080,0x0000,0x0000
23.273850350000000,2080,0x0000,0x0000
23.273850847999999,2080,0x0000,0x0000
23.273851348000001,2080,0x0000,0x0000
23.273851848000000,2080,0x0000,0x0000
23.273852347999998,2080,0x0000,0x0000
23.273852850000001,2080,0x0000,0x0000
23.273853347999999,2080,0x0000,0x0000
23.273853848000002,2080,0x0000,0x0000
23.273854348000000,2080,0x0000,0x0000
23.273854847999999,2080,0x0000,0x0000
23.273855348000001,2080,0x0000,0x0000
23.273855848000000,2080,0x0000,0x0000
23.273856347999999,2080,0x0000,0x0000
23.273856848000001,2080,0x0000,0x0000
23.273857348000000,2080,0x0000,0x0000
23.273857847999999,2080,0x0000,0x0000
23.273858348000001,2080,0x0000,0x0000
23.273858848000000,2080,0x0000,0x0000
23.273859347999998,2080,0x0000,0x0000
23.273859848000001,2080,0x0000,0x0000
23.273860347999999,2080,0x0000,0x0000
23.273860848000002,2080,0x0000,0x0000
23.273861348000001,2080,0x0000,0x0000
23.273861847999999,2080,0x0000,0x0000
23.273862348000002,2080,0x0000,0x0000
23.273862848000000,2080,0x0000,0x0000
23.273863347999999,2080,0x0000,0x0000
23.273863848000001,2080,0x0000,0x0000
23.273864348000000,2080,0x0000,0x0000
23.273864847999999,2080,0x0000,0x0000
23.273865348000001,2080,0x0000,0x0000
23.273865848000000,2080,0x0000,0x0000
23.273866347999999,2080,0x0000,0x0000
23.273866848000001,2080,0x0000,0x0000
23.273867348000000,2080,0x0001,0x0000
23.273867847999998,2080,0x0000,0x0000
23.273868348000001,2080,0x0005,0x0000
23.273868847999999,2080,0x00A2,0x0000
23.273869348000002,2080,0x003B,0x0000
23.273869848000000,2080,0x00AA,0x0000
23.273870347999999,2080,0x003C,0x0000
23.273870848000001,2080,0x0127,0x0000
23.273871348000000,2080,0x0161,0x0000
23.273871847999999,2080,0x0023,0x0000
23.273872348000001,2080,0x0016,0x0000
23.273872848000000,2080,0x0004,0x0000
23.273873347999999,2080,0x0002,0x0000
23.273873848000001,2080,0x0001,0x0000
23.273874348000000,2080,0x0005,0x0000
23.273874847999998,2080,0x0000,0x0000
23.273875348000001,2080,0x0025,0x0000
23.273875847999999,2080,0x0051,0x0000
23.273876348000002,2080,0x00E4,0x0000
23.273876848000000,2080,0x092E,0x0000
23.273877347999999,2080,0x04AD,0x0000
23.273877848000001,2080,0x07CA,0x0000
23.273878348000000,2080,0x080C,0x0000
23.273878847999999,2080,0x05B5,0x0000
23.273879348000001,2080,0x05B1,0x0000
23.273879848000000,2080,0x010F,0x0000
23.273880347999999,2080,0x00AA,0x0000
23.273880848000001,2080,0x0026,0x0000
23.273881348000000,2080,0x0009,0x0000
23.273881847999998,2080,0x0008,0x0000
23.273882348000001,2080,0x0003,0x0000
23.273882848000000,2080,0x0000,0x0000
23.273883347999998,2080,0x0029,0x0000
23.273883848000001,2080,0x005E,0x0000
23.273884347999999,2080,0x00AE,0x0000
23.273884848000002,2080,0x07AA,0x0000
23.273885348000000,2080,0x056E,0x0000
23.273885847999999,2080,0x0573,0x0000
23.273886348000001,2080,0x04D3,0x0000
23.273886848000000,2080,0x02EA,0x0000
23.273887347999999,2080,0x02D5,0x0000
23.273887848000001,2080,0x008A,0x0000
23.273888348000000,2080,0x002C,0x0000
23.273888847999999,2080,0x0009,0x0000
23.273889348000001,2080,0x0004,0x0000
23.273889848000000,2080,0x0004,0x0000
23.273890347999998,2080,0x0005,0x0000
23.273890848000001,2080,0x0000,0x0000
23.273891347999999,2080,0x0C34,0x0000
23.273891848000002,2080,0x091E,0x0000
23.273892348000000,2080,0x0BCF,0x0000
23.273892847999999,2080,0x6A08,0x0000
23.273893348000001,2080,0x16E1,0x0000
23.273893848000000,2080,0x1167,0x0000
23.273894347999999,2080,0x0D71,0x0000
23.273894848000001,2080,0x0951,0x0000
23.273895348000000,2080,0x0A0A,0x0000
23.273895847999999,2080,0x02B6,0x0000
23.273896348000001,2080,0x016B,0x0000
23.273896848000000,2080,0x0076,0x0000
23.273897347999998,2080,0x0018,0x0000
23.273897848000001,2080,0x000C,0x0000
23.273898347999999,2080,0x0020,0x0000
23.273898848000002,2080,0x0001,0x0000
23.273899348000000,2080,0x0000,0x0000
23.273899847999999,2080,0x0000,0x0000
23.273900348000002,2080,0x0000,0x0000
23.273900850000000,2080,0x8000,0x0000
23.273901347999999,2080,0x0000,0x0000
23.273901848000001,2080,0x0400,0x0000
23.273902348000000,2080,0x0400,0x0000
23.273902847999999,2080,0x0400,0x0000
23.273903348000001,2080,0x0A86,0x0000
23.273903850000000,2080,0x0FA3,0x0000
23.273904347999999,2080,0x1B44,0x0000
23.273904848000001,2080,0x105B,0x0000
23.273905348000000,2080,0xFFBB,0x0000
23.273905847999998,2080,0xFFC1,0x0000
23.273906348000001,2080,0x0F4F,0x0000
23.273906849999999,2080,0x0FA8,0x0000
23.273907348000002,2080,0x0047,0x0000
23.273907848000000,2080,0x0041,0x0000
23.273908347999999,2080,0x10BA,0x0000
23.273908848000001,2080,0x0000,0x0000
23.273909348000000,2080,0x0100,0x0000
23.273909847999999,2080,0x0008,0x0000
23.273910348000001,2080,0xEBE3,0x0000
23.273910848000000,2080,0x0012,0x0000
23.273911347999999,2080,0xD36E,0x0000
23.273911848000001,2080,0x0012,0x0000
23.273912348000000,2080,0xD50D,0x0000
23.273912847999998,2080,0x0009,0x0000
23.273913348000001,2080,0x7828,0x0000
23.273913847999999,2080,0x0400,0x0000
23.273914348000002,2080,0x0400,0x0000
23.273914848000000,2080,0x0400,0x0000
23.273915347999999,2080,0x0000,0x0000
23.273915848000001,2080,0x0000,0x0000
23.273916348000000,2080,0x0000,0x0000
23.273916847999999,2080,0xFFFD,0x0000
23.273917348000001,2080,0x0000,0x0000
23.273917848000000,2080,0x1FFF,0x0000
23.273918347999999,2080,0x0100,0x0000
23.273918848000001,2080,0x0000,0x0000
23.273919348000000,2080,0x0000,0x0000
23.273919847999998,2080,0x0400,0x0000
23.273920348000001,2080,0x02AE,0x0000
23.273920847999999,2080,0x01AB,0x0000
23.273921347999998,2080,0x01EB,0x0000
23.273921848000001,2080,0x027E,0x0000
23.273922347999999,2080,0x0196,0x0000
23.273922848000002,2080,0x0318,0x0000
23.273923348000000,2080,0x0000,0x0000
23.273923847999999,2080,0x0000,0x0000
23.273924348000001,2080,0x0000,0x0000
23.273924848000000,2080,0x0000,0x0000
23.273925347999999,2080,0x0000,0x0000
23.273925848000001,2080,0x000F,0x0000
23.273926348000000,2080,0x00F0,0x0000
23.273926847999999,2080,0x0100,0x0000
23.273927348000001,2080,0x0100,0x0000
23.273927848000000,2080,0x0100,0x0000
23.273928347999998,2080,0x0100,0x0000
23.273928848000001,2080,0x0100,0x0000
23.273929347999999,2080,0x0100,0x0000
23.273929848000002,2080,0x0000,0x0000
23.273930348000000,2080,0x000F,0x0000
23.273930847999999,2080,0x00F0,0x0000
23.273931348000001,2080,0x0100,0x0000
23.273931848000000,2080,0x0100,0x0000
23.273932347999999,2080,0x0100,0x0000
23.273932848000001,2080,0x0100,0x0000
23.273933348000000,2080,0x0100,0x0000
23.273933847999999,2080,0x0100,0x0000
23.273934348000001,2080,0x0000,0x0000
23.273934848000000,2080,0x0000,0x0000
23.273935347999998,2080,0x00B0,0x0000
23.273935848000001,2080,0x0000,0x0000
23.273936347999999,2080,0x0010,0x0000
23.273936848000002,2080,0x0020,0x0000
23.273937348000000,2080,0x0040,0x0000
23.273937847999999,2080,0x0060,0x0000
23.273938348000001,2080,0x0080,0x0000
23.273938848000000,2080,0x00C0,0x0000
23.273939347999999,2080,0x0000,0x0000
23.273939848000001,2080,0x0000,0x0000
23.273940348000000,2080,0x0000,0x0000
23.273940847999999,2080,0x0000,0x0000
23.273941348000001,2080,0x0000,0x0000
23.273941848000000,2080,0x0000,0x0000
23.273942347999999,2080,0x0000,0x0000
23.273942848000001,2080,0x032A,0x0000
23.273943348000000,2080,0x032A,0x0000
23.273943847999998,2080,0x032A,0x0000
23.273944348000001,2080,0x032A,0x0000
23.273944847999999,2080,0x032A,0x0000
23.273945348000002,2080,0x032A,0x0000
23.273945850000000,2080,0x032A,0x0000
23.273946347999999,2080,0x0488,0x0000
23.273946848000001,2080,0x0000,0x0000
23.273947348000000,2080,0x07FF,0x0000
23.273947847999999,2080,0x07FF,0x0000
23.273948348000001,2080,0x0800,0x0000
23.273948848000000,2080,0x0800,0x0000
23.273949347999999,2080,0x3FFF,0x0000
23.273949848000001,2080,0x3CC1,0x0000
23.273950348000000,2080,0x284B,0x0000
23.273950847999998,2080,0x0000,0x0000
23.273951348000001,2080,0x00C9,0x0000
23.273951847999999,2080,0x009A,0x0000
23.273952348000002,2080,0x001F,0x0000
23.273952848000000,2080,0x0001,0x0000
23.273953347999999,2080,0x005A,0x0000
23.273953848000001,2080,0x0A10,0x0000
23.273954348000000,2080,0x0A70,0x0000
23.273954847999999,2080,0x0E88,0x0000
23.273955348000001,2080,0x0EF0,0x0000
23.273955848000000,2080,0x0990,0x0000
23.273956347999999,2080,0x09F0,0x0000
23.273956848000001,2080,0x0E88,0x0000
23.273957348000000,2080,0x0EF0,0x0000
23.273957847999998,2080,0x09D0,0x0000
23.273958348000001,2080,0x0A30,0x0000
23.273958847999999,2080,0x0E88,0x0000
23.273959348000002,2080,0x0EF0,0x0000
23.273959848000001,2080,0x00AC,0x0000
23.273960347999999,2080,0x00A8,0x0000
23.273960848000002,2080,0x00AE,0x0000
23.273961348000000,2080,0x00D7,0x0000
23.273961847999999,2080,0x0064,0x0000
23.273962348000001,2080,0x0033,0x0000
23.273962848000000,2080,0x0002,0x0000
23.273963347999999,2080,0x005A,0x0000
23.273963848000001,2080,0x06E0,0x0000
23.273964348000000,2080,0x0760,0x0000
23.273964847999999,2080,0x0F70,0x0000
23.273965348000001,2080,0x1000,0x0000
23.273965848000000,2080,0x05E0,0x0000
23.273966347999998,2080,0x0660,0x0000
23.273966848000001,2080,0x0F70,0x0000
23.273967347999999,2080,0x1000,0x0000
23.273967848000002,2080,0x0660,0x0000
23.273968348000000,2080,0x06E0,0x0000
23.273968847999999,2080,0x0F70,0x0000
23.273969348000001,2080,0x1000,0x0000
23.273969848000000,2080,0x00A1,0x0000
23.273970347999999,2080,0x0089,0x0000
23.273970848000001,2080,0x0093,0x0000
23.273971348000000,2080,0x0000,0x0000
23.273971847999999,2080,0x0000,0x0000
23.273972348000001,2080,0x0000,0x0000
23.273972848000000,2080,0x000A,0x0000
23.273973347999998,2080,0x0000,0x0000
23.273973848000001,2080,0x0000,0x0000
23.273974347999999,2080,0x0000,0x0000
23.273974848000002,2080,0x0000,0x0000
23.273975348000000,2080,0x0000,0x0000
23.273975847999999,2080,0x0000,0x0000
23.273976348000001,2080,0x0000,0x0000
23.273976848000000,2080,0x0000,0x0000
23.273977347999999,2080,0x0000,0x0000
23.273977848000001,2080,0x0000,0x0000
23.273978348000000,2080,0x0000,0x0000
23.273978849999999,2080,0x0000,0x0000
23.273979348000001,2080,0x0000,0x0000
23.273979848000000,2080,0x0000,0x0000
23.273980347999998,2080,0x0000,0x0000
23.273980848000001,2080,0x0000,0x0000
23.273981348000000,2080,0x0000,0x0000
23.273981847999998,2080,0x0000,0x0000
23.273982348000001,2080,0x0000,0x0000
23.273982847999999,2080,0x0000,0x0000
23.273983348000002,2080,0x0000,0x0000
23.273983848000000,2080,0x0000,0x0000
23.273984347999999,2080,0x0000,0x0000
23.273984848000001,2080,0x0000,0x0000
23.273985348000000,2080,0x0000,0x0000
23.273985847999999,2080,0x0000,0x0000
23.273986348000001,2080,0x0000,0x0000
23.273986848000000,2080,0x0000,0x0000
23.273987347999999,2080,0x0000,0x0000
23.273987848000001,2080,0x0000,0x0000
23.273988348000000,2080,0x0000,0x0000
23.273988847999998,2080,0x0000,0x0000
23.273989348000001,2080,0x0000,0x0000
23.273989847999999,2080,0x0000,0x0000
23.273990348000002,2080,0x0000,0x0000
23.273990848000000,2080,0x0000,0x0000
23.273991347999999,2080,0x0000,0x0000
23.273991848000001,2080,0x0000,0x0000
23.273992348000000,2080,0x0000,0x0000
23.273992847999999,2080,0x0000,0x0000
23.273993348000001,2080,0x0000,0x0000
23.273993848000000,2080,0x0000,0x0000
23.273994347999999,2080,0x0000,0x0000
23.273994848000001,2080,0x0000,0x0000
23.273995348000000,2080,0x0000,0x0000
23.273995847999998,2080,0x0000,0x0000
23.273996348000001,2080,0x0000,0x0000
23.273996847999999,2080,0x0000,0x0000
23.273997348000002,2080,0x0000,0x0000
23.273997848000000,2080,0x0000,0x0000
23.273998347999999,2080,0x0000,0x0000
23.273998848000002,2080,0x0000,0x0000
23.273999348000000,2080,0x0000,0x0000
23.273999847999999,2080,0x0000,0x0000
23.274000348000001,2080,0x0000,0x0000
23.274000848000000,2080,0x0000,0x0000
23.274001347999999,2080,0x0000,0x0000
23.274001848000001,2080,0x0000,0x0000
23.274002348000000,2080,0x0000,0x0000
23.274002847999999,2080,0x0000,0x0000
23.274003348000001,2080,0x0000,0x0000
23.274003848000000,2080,0x0000,0x0000
23.274004347999998,2080,0x0000,0x0000
23.274004848000001,2080,0x0000,0x0000
23.274005347999999,2080,0x0000,0x0000
23.274005848000002,2080,0x0000,0x0000
23.274006348000000,2080,0x0000,0x0000
23.274006847999999,2080,0x0000,0x0000
23.274007348000001,2080,0x0000,0x0000
23.274007848000000,2080,0x0000,0x0000
23.274008347999999,2080,0x0000,0x0000
23.274008848000001,2080,0x0000,0x0000
23.274009348000000,2080,0x0000,0x0000
23.274009847999999,2080,0x0000,0x0000
23.274010348000001,2080,0x0000,0x0000
23.274010848000000,2080,0x0000,0x0000
23.274011347999998,2080,0x0000,0x0000
23.274011848000001,2080,0x0000,0x0000
23.274012347999999,2080,0x0000,0x0000
23.274012848000002,2080,0x0000,0x0000
23.274013348000000,2080,0x0000,0x0000
23.274013847999999,2080,0x0000,0x0000
23.274014348000001,2080,0x0000,0x0000
23.274014848000000,2080,0x0000,0x0000
23.274015347999999,2080,0x0000,0x0000
23.274015848000001,2080,0x0000,0x0000
23.274016348000000,2080,0x0000,0x0000
23.274016847999999,2080,0x0000,0x0000
23.274017348000001,2080,0x0000,0x0000
23.274017848000000,2080,0x0000,0x0000
23.274018347999998,2080,0x0000,0x0000
23.274018848000001,2080,0x0000,0x0000
23.274019347999999,2080,0x0000,0x0000
23.274019847999998,2080,0x0000,0x0000
23.274020348000001,2080,0x0000,0x0000
23.274020847999999,2080,0x0000,0x0000
23.274021348000002,2080,0x0000,0x0000
23.274021848000000,2080,0x0000,0x0000
23.274022347999999,2080,0x0000,0x0000
23.274022848000001,2080,0x0000,0x0000
23.274023348000000,2080,0x0000,0x0000
23.274023847999999,2080,0x0000,0x0000
23.274024348000001,2080,0x0000,0x0000
23.274024848000000,2080,0x0000,0x0000
23.274025347999999,2080,0x0000,0x0000
23.274025848000001,2080,0x0000,0x0000
23.274026348000000,2080,0x0000,0x0000
23.274026847999998,2080,0x0000,0x0000
23.274027348000001,2080,0x0000,0x0000
23.274027847999999,2080,0x0000,0x0000
23.274028348000002,2080,0x0000,0x0000
23.274028848000000,2080,0x0000,0x0000
23.274029347999999,2080,0x0000,0x0000
23.274029848000001,2080,0x0000,0x0000
23.274030348000000,2080,0x0000,0x0000
23.274030847999999,2080,0x0000,0x0000
23.274031348000001,2080,0x0000,0x0000
23.274031848000000,2080,0x0000,0x0000
23.274032347999999,2080,0x0000,0x0000
23.274032848000001,2080,0x0000,0x0000
23.274033348000000,2080,0x0000,0x0000
23.274033847999998,2080,0x0000,0x0000
23.274034348000001,2080,0x0000,0x0000
23.274034847999999,2080,0x0000,0x0000
23.274035348000002,2080,0x0000,0x0000
23.274035848000000,2080,0x0000,0x0000
23.274036347999999,2080,0x0000,0x0000
23.274036848000001,2080,0x0000,0x0000
23.274037348000000,2080,0x0000,0x0000
23.274037847999999,2080,0x0000,0x0000
23.274038348000001,2080,0x0000,0x0000
23.274038848000000,2080,0x0000,0x0000
23.274039347999999,2080,0x0000,0x0000
23.274039848000001,2080,0x0000,0x0000
23.274040348000000,2080,0x0000,0x0000
23.274040847999999,2080,0x0000,0x0000
23.274041348000001,2080,0x0000,0x0000
23.274041848000000,2080,0x0000,0x0000
23.274042347999998,2080,0x0000,0x0000
23.274042848000001,2080,0x0000,0x0000
23.274043347999999,2080,0x0000,0x0000
23.274043848000002,2080,0x0000,0x0000
23.274044348000000,2080,0x0000,0x0000
23.274044847999999,2080,0x0000,0x0000
23.274045348000001,2080,0x0000,0x0000
23.274045848000000,2080,0x0000,0x0000
23.274046347999999,2080,0x0000,0x0000
23.274046848000001,2080,0x0000,0x0000
23.274047348000000,2080,0x0000,0x0000
23.274047847999999,2080,0x0000,0x0000
23.274048348000001,2080,0x0000,0x0000
23.274048848000000,2080,0x0000,0x0000
23.274049347999998,2080,0x0000,0x0000
23.274049848000001,2080,0x0000,0x0000
23.274050347999999,2080,0x0000,0x0000
23.274050848000002,2080,0x0000,0x0000
23.274051348000000,2080,0x0000,0x0000
23.274051847999999,2080,0x0000,0x0000
23.274052348000001,2080,0x0000,0x0000
23.274052848000000,2080,0x0000,0x0000
23.274053347999999,2080,0x0000,0x0000
23.274053848000001,2080,0x0000,0x0000
23.274054348000000,2080,0x0000,0x0000
23.274054847999999,2080,0x0000,0x0000
23.274055348000001,2080,0x0000,0x0000
23.274055848000000,2080,0x0000,0x0000
23.274056347999998,2080,0x0000,0x0000
23.274056848000001,2080,0x0000,0x0000
23.274057347999999,2080,0x0000,0x0000
23.274057848000002,2080,0x0000,0x0000
23.274058348000001,2080,0x0000,0x0000
23.274058847999999,2080,0x0000,0x0000
23.274059348000002,2080,0x0000,0x0000
23.274059848000000,2080,0x0000,0x0000
23.274060347999999,2080,0x0000,0x0000
23.274060848000001,2080,0x0000,0x0000
23.274061348000000,2080,0x0000,0x0000
23.274061847999999,2080,0x0000,0x0000
23.274062348000001,2080,0x0000,0x0000
23.274062848000000,2080,0x0000,0x0000
23.274063347999999,2080,0x0000,0x0000
23.274063848000001,2080,0x0000,0x0000
23.274064348000000,2080,0x0000,0x0000
23.274064847999998,2080,0x0000,0x0000
23.274065348000001,2080,0x0000,0x0000
23.274065847999999,2080,0x0000,0x0000
23.274066348000002,2080,0x0000,0x0000
23.274066848000000,2080,0x0000,0x0000
23.274067347999999,2080,0x0000,0x0000
23.274067848000001,2080,0x0000,0x0000
23.274068348000000,2080,0x0000,0x0000
23.274068847999999,2080,0x0000,0x0000
23.274069348000001,2080,0x0000,0x0000
23.274069848000000,2080,0x0000,0x0000
23.274070347999999,2080,0x0000,0x0000
23.274070848000001,2080,0x0000,0x0000
23.274071348000000,2080,0x0000,0x0000
23.274071847999998,2080,0x0000,0x0000
23.274072348000001,2080,0x0000,0x0000
23.274072847999999,2080,0x0000,0x0000
23.274073348000002,2080,0x0000,0x0000
23.274073848000000,2080,0x0000,0x0000
23.274074347999999,2080,0x0000,0x0000
23.274074848000001,2080,0x0000,0x0000
23.274075348000000,2080,0x0000,0x0000
23.274075847999999,2080,0x0000,0x0000
23.274076348000001,2080,0x0000,0x0000
23.274076848000000,2080,0x0000,0x0000
23.274077347999999,2080,0x0000,0x0000
23.274077848000001,2080,0x0000,0x0000
23.274078348000000,2080,0x0000,0x0000
23.274078847999998,2080,0x0000,0x0000
23.274079348000001,2080,0x0000,0x0000
23.274079848000000,2080,0x0000,0x0000
23.274080347999998,2080,0x0000,0x0000
23.274080848000001,2080,0x0000,0x0000
23.274081347999999,2080,0x0000,0x0000
23.274081848000002,2080,0x0000,0x0000
23.274082348000000,2080,0x0000,0x0000
23.274082847999999,2080,0x0000,0x0000
23.274083348000001,2080,0x0000,0x0000
23.274083848000000,2080,0x0000,0x0000
23.274084347999999,2080,0x0000,0x0000
23.274084848000001,2080,0x0000,0x0000
23.274085348000000,2080,0x0000,0x0000
23.274085847999999,2080,0x0000,0x0000
23.274086348000001,2080,0x0000,0x0000
23.274086848000000,2080,0x0000,0x0000
23.274087347999998,2080,0x0000,0x0000
23.274087848000001,2080,0x0000,0x0000
23.274088347999999,2080,0x0000,0x0000
23.274088848000002,2080,0x0000,0x0000
23.274089348000000,2080,0x0000,0x0000
23.274089847999999,2080,0x0000,0x0000
23.274090348000001,2080,0x0000,0x0000
23.274090848000000,2080,0x0000,0x0000
23.274091347999999,2080,0x0000,0x0000
23.274091848000001,2080,0x0000,0x0000
23.274092348000000,2080,0x0000,0x0000
23.274092847999999,2080,0x0000,0x0000
23.274093348000001,2080,0x0000,0x0000
23.274093848000000,2080,0x0000,0x0000
23.274094347999998,2080,0x0000,0x0000
23.274094848000001,2080,0x0000,0x0000
23.274095347999999,2080,0x0000,0x0000
23.274095848000002,2080,0x0000,0x0000
23.274096348000000,2080,0x0000,0x0000
23.274096847999999,2080,0x0000,0x0000
23.274097348000002,2080,0x0000,0x0000
23.274097848000000,2080,0x0000,0x0000
23.274098347999999,2080,0x0000,0x0000
23.274098848000001,2080,0x0000,0x0000
23.274099348000000,2080,0x0000,0x0000
23.274099847999999,2080,0x0000,0x0000
23.274100348000001,2080,0x0000,0x0000
23.274100848000000,2080,0x0000,0x0000
23.274101347999999,2080,0x0000,0x0000
23.274101848000001,2080,0x0000,0x0000
23.274102348000000,2080,0x0000,0x0000
23.274102847999998,2080,0x0000,0x0000
23.274103348000001,2080,0x0000,0x0000
23.274103847999999,2080,0x0000,0x0000
23.274104348000002,2080,0x0000,0x0000
23.274104848000000,2080,0x0000,0x0000
23.274105347999999,2080,0x0000,0x0000
23.274105848000001,2080,0x0000,0x0000
23.274106348000000,2080,0x0000,0x0000
23.274106847999999,2080,0x0000,0x0000
23.274107348000001,2080,0x0000,0x0000
23.274107848000000,2080,0x0000,0x0000
23.274108347999999,2080,0x0000,0x0000
23.274108848000001,2080,0x0000,0x0000
23.274109348000000,2080,0x0000,0x0000
23.274109847999998,2080,0x0000,0x0000
23.274110348000001,2080,0x0000,0x0000
23.274110847999999,2080,0x0000,0x0000
23.274111348000002,2080,0x0000,0x0000
23.274111848000000,2080,0x0000,0x0000
23.274112347999999,2080,0x0000,0x0000
23.274112848000001,2080,0x0000,0x0000
23.274113348000000,2080,0x0000,0x0000
23.274113847999999,2080,0x0000,0x0000
23.274114348000001,2080,0x0000,0x0000
23.274114848000000,2080,0x0000,0x0000
23.274115347999999,2080,0x0000,0x0000
23.274115848000001,2080,0x0000,0x0000
23.274116348000000,2080,0x0000,0x0000
23.274116847999998,2080,0x0000,0x0000
23.274117348000001,2080,0x0000,0x0000
23.274117847999999,2080,0x0000,0x0000
23.274118347999998,2080,0x0000,0x0000
23.274118848000001,2080,0x0000,0x0000
23.274119347999999,2080,0x0000,0x0000
23.274119848000002,2080,0x0000,0x0000
23.274120348000000,2080,0x0000,0x0000
23.274120847999999,2080,0x0000,0x0000
23.274121348000001,2080,0x0000,0x0000
23.274121848000000,2080,0x0000,0x0000
23.274122347999999,2080,0x0000,0x0000
23.274122848000001,2080,0x0000,0x0000
23.274123348000000,2080,0x0000,0x0000
23.274123847999999,2080,0x0000,0x0000
23.274124348000001,2080,0x0000,0x0000
23.274124848000000,2080,0x0000,0x0000
23.274125347999998,2080,0x0000,0x0000
23.274125848000001,2080,0x0000,0x0000
23.274126347999999,2080,0x0000,0x0000
23.274126848000002,2080,0x0000,0x0000
23.274127348000000,2080,0x0000,0x0000
23.274127847999999,2080,0x0000,0x0000
23.274128348000001,2080,0x0000,0x0000
23.274128848000000,2080,0x0000,0x0000
23.274129347999999,2080,0x0000,0x0000
23.274129848000001,2080,0x0000,0x0000
23.274130348000000,2080,0x0000,0x0000
23.274130847999999,2080,0x0000,0x0000
23.274131348000001,2080,0x0000,0x0000
23.274131848000000,2080,0x0000,0x0000
23.274132347999998,2080,0x0000,0x0000
23.274132848000001,2080,0x0000,0x0000
23.274133347999999,2080,0x0000,0x0000
23.274133848000002,2080,0x0000,0x0000
23.274134348000000,2080,0xBDAB,0x0000
23.274206035999999,2081,0x4D00,0x0000
23.274221256000001,2082,0x001F,0x0000
23.275167224000000,2083,0xC200,0x0000
23.275184068000002,2084,0x0000,0x0C5B
23.275218347999999,2085,0x4D00,0x5B5B
23.275233192000002,2086,0x001E,0x5B5B
23.275252880000000,2087,0x4100,0x5B5B
23.275267285999998,2088,0x0600,0x5B5B
23.275282630000000,2089,0x0A00,0x5B5B
23.275474880000001,2090,0x0002,0x5B5B
23.275475380000000,2090,0x05F8,0x5B5B
23.275475879999998,2090,0x0600,0x5B5B
23.275476380000001,2090,0x0000,0x5B5B
23.275476879999999,2090,0xA000,0x5B5B
23.275477380000002,2090,0x0000,0x5B5B
23.275477880000000,2090,0x1A2C,0x5B5B
23.275478379999999,2090,0x60A7,0x5B5B
23.275478880000001,2090,0x5E98,0x5B5B
23.275479380000000,2090,0x3E6D,0x5B5B
23.275479879999999,2090,0x030C,0x5B5B
23.275480380000001,2090,0x44BC,0x5B5B
23.275480880000000,2090,0x8E9C,0x5B5B
23.275481379999999,2090,0x0045,0x5B5B
23.275481880000001,2090,0x05A6,0x5B5B
23.275482380000000,2090,0x0000,0x5B5B
23.275482879999998,2090,0x0000,0x5B5B
23.275483380000001,2090,0x0000,0x5B5B
23.275483879999999,2090,0x0000,0x5B5B
23.275484380000002,2090,0x0000,0x5B5B
23.275484880000000,2090,0x0000,0x5B5B
23.275485379999999,2090,0x0000,0x5B5B
23.275485880000002,2090,0x0000,0x5B5B
23.275486380000000,2090,0x0000,0x5B5B
23.275486879999999,2090,0x0000,0x5B5B
23.275487380000001,2090,0x0000,0x5B5B
23.275487880000000,2090,0x0000,0x5B5B
23.275488379999999,2090,0x0000,0x5B5B
23.275488880000001,2090,0x0000,0x5B5B
23.275489380000000,2090,0x0000,0x5B5B
23.275489879999999,2090,0x0000,0x5B5B
23.275490380000001,2090,0x0000,0x5B5B
23.275490880000000,2090,0x0000,0x5B5B
23.275491379999998,2090,0x0000,0x5B5B
23.275491880000001,2090,0x0000,0x5B5B
23.275492379999999,2090,0x0000,0x5B5B
23.275492880000002,2090,0x0000,0x5B5B
23.275493380000000,2090,0x0000,0x5B5B
23.275493879999999,2090,0x0000,0x5B5B
23.275494380000001,2090,0x0000,0x5B5B
23.275494880000000,2090,0x0000,0x5B5B
23.275495379999999,2090,0x0000,0x5B5B
23.275495880000001,2090,0x0000,0x5B5B
23.275496380000000,2090,0x0000,0x5B5B
23.275496879999999,2090,0x0000,0x5B5B
23.275497380000001,2090,0x0000,0x5B5B
23.275497880000000,2090,0x0000,0x5B5B
23.275498379999998,2090,0x0000,0x5B5B
23.275498880000001,2090,0x0000,0x5B5B
23.275499379999999,2090,0x0000,0x5B5B
23.275499880000002,2090,0x0000,0x5B5B
23.275500380000000,2090,0x0000,0x5B5B
23.275500879999999,2090,0x0000,0x5B5B
23.275501380000001,2090,0x0000,0x5B5B
23.275501880000000,2090,0x0000,0x5B5B
23.275502379999999,2090,0x0000,0x5B5B
23.275502880000001,2090,0x0000,0x5B5B
23.275503380000000,2090,0x0000,0x5B5B
23.275503879999999,2090,0x0000,0x5B5B
23.275504380000001,2090,0x0000,0x5B5B
23.275504880000000,2090,0x0000,0x5B5B
23.275505379999998,2090,0x0000,0x5B5B
23.275505880000001,2090,0x0000,0x5B5B
23.275506379999999,2090,0x0000,0x5B5B
23.275506879999998,2090,0x0000,0x5B5B
23.275507380000001,2090,0x0000,0x5B5B
23.275507879999999,2090,0x0000,0x5B5B
23.275508380000002,2090,0x0000,0x5B5B
23.275508880000000,2090,0x0000,0x5B5B
23.275509379999999,2090,0x0000,0x5B5B
23.275509880000001,2090,0x0000,0x5B5B
23.275510380000000,2090,0x0000,0x5B5B
23.275510879999999,2090,0x0000,0x5B5B
23.275511380000001,2090,0x0000,0x5B5B
23.275511880000000,2090,0x0000,0x5B5B
23.275512379999999,2090,0x0000,0x5B5B
23.275512880000001,2090,0x0000,0x5B5B
23.275513380000000,2090,0x0000,0x5B5B
23.275513879999998,2090,0xAAAA,0x5B5B
23.275514380000001,2090,0x0000,0x5B5B
23.275514879999999,2090,0x000F,0x5B5B
23.275515380000002,2090,0x00F0,0x5B5B
23.275515880000000,2090,0x0100,0x5B5B
23.275516379999999,2090,0x0100,0x5B5B
23.275516880000001,2090,0x0100,0x5B5B
23.275517380000000,2090,0x0100,0x5B5B
23.275517879999999,2090,0x0100,0x5B5B
23.275518380000001,2090,0x0100,0x5B5B
23.275518880000000,2090,0x0000,0x5B5B
23.275519379999999,2090,0x000F,0x5B5B
23.275519880000001,2090,0x00F0,0x5B5B
23.275520380000000,2090,0x0100,0x5B5B
23.275520879999998,2090,0x0100,0x5B5B
23.275521380000001,2090,0x0100,0x5B5B
23.275521879999999,2090,0x0100,0x5B5B
23.275522380000002,2090,0x0100,0x5B5B
23.275522880000000,2090,0x0100,0x5B5B
23.275523379999999,2090,0x008D,0x5B5B
23.275523880000001,2090,0x0066,0x5B5B
23.275524380000000,2090,0x0079,0x5B5B
23.275524879999999,2090,0x0021,0x5B5B
23.275525380000001,2090,0x001E,0x5B5B
23.275525880000000,2090,0x00F7,0x5B5B
23.275526379999999,2090,0x00F7,0x5B5B
23.275526880000001,2090,0x0005,0x5B5B
23.275527380000000,2090,0x0039,0x5B5B
23.275527879999999,2090,0x0094,0x5B5B
23.275528380000001,2090,0x00B5,0x5B5B
23.275528880000000,2090,0x00BD,0x5B5B
23.275529379999998,2090,0x00EB,0x5B5B
23.275529880000001,2090,0x0000,0x5B5B
23.275530379999999,2090,0x0000,0x5B5B
23.275530880000002,2090,0x0000,0x5B5B
23.275531380000000,2090,0x0000,0x5B5B
23.275531879999999,2090,0x0000,0x5B5B
23.275532380000001,2090,0x0000,0x5B5B
23.275532880000000,2090,0x0000,0x5B5B
23.275533379999999,2090,0x0000,0x5B5B
23.275533880000001,2090,0x0000,0x5B5B
23.275534380000000,2090,0x0000,0x5B5B
23.275534879999999,2090,0x0000,0x5B5B
23.275535380000001,2090,0x0000,0x5B5B
23.275535880000000,2090,0x0000,0x5B5B
23.275536379999998,2090,0x0000,0x5B5B
23.275536880000001,2090,0x0000,0x5B5B
23.275537379999999,2090,0x0000,0x5B5B
23.275537880000002,2090,0x0000,0x5B5B
23.275538380000000,2090,0x0000,0x5B5B
23.275538879999999,2090,0x0000,0x5B5B
23.275539380000001,2090,0x0000,0x5B5B
23.275539880000000,2090,0x0000,0x5B5B
23.275540379999999,2090,0x0000,0x5B5B
23.275540880000001,2090,0x0000,0x5B5B
23.275541380000000,2090,0x0000,0x5B5B
23.275541879999999,2090,0x0000,0x5B5B
23.275542380000001,2090,0x0000,0x5B5B
23.275542880000000,2090,0x004C,0x5B5B
23.275543379999998,2090,0x00B3,0x5B5B
23.275543880000001,2090,0x00BB,0x5B5B
23.275544379999999,2090,0x00C4,0x5B5B
23.275544880000002,2090,0x0000,0x5B5B
23.275545380000001,2090,0x0000,0x5B5B
23.275545879999999,2090,0x0000,0x5B5B
23.275546380000002,2090,0x0000,0x5B5B
23.275546880000000,2090,0x0000,0x5B5B
23.275547379999999,2090,0x0000,0x5B5B
23.275547880000001,2090,0x0000,0x5B5B
23.275548380000000,2090,0x0000,0x5B5B
23.275548879999999,2090,0x0000,0x5B5B
23.275549380000001,2090,0x0000,0x5B5B
23.275549880000000,2090,0x0000,0x5B5B
23.275550379999999,2090,0x0000,0x5B5B
23.275550880000001,2090,0x0000,0x5B5B
23.275551380000000,2090,0x0000,0x5B5B
23.275551879999998,2090,0x0000,0x5B5B
23.275552380000001,2090,0x0000,0x5B5B
23.275552879999999,2090,0x0000,0x5B5B
23.275553380000002,2090,0x0000,0x5B5B
23.275553880000000,2090,0x0000,0x5B5B
23.275554379999999,2090,0x0000,0x5B5B
23.275554880000001,2090,0x0000,0x5B5B
23.275555380000000,2090,0x0000,0x5B5B
23.275555879999999,2090,0x0000,0x5B5B
23.275556380000001,2090,0x0000,0x5B5B
23.275556880000000,2090,0x0000,0x5B5B
23.275557379999999,2090,0x0000,0x5B5B
23.275557880000001,2090,0x0000,0x5B5B
23.275558380000000,2090,0x0000,0x5B5B
23.275558879999998,2090,0x0000,0x5B5B
23.275559380000001,2090,0x0000,0x5B5B
23.275559879999999,2090,0x0000,0x5B5B
23.275560380000002,2090,0x0064,0x5B5B
23.275560880000000,2090,0x0400,0x5B5B
23.275561379999999,2090,0x0000,0x5B5B
23.275561880000001,2090,0x0000,0x5B5B
23.275562380000000,2090,0x056F,0x5B5B
23.275562879999999,2090,0x0400,0x5B5B
23.275563380000001,2090,0x035B,0x5B5B
23.275563880000000,2090,0x0254,0x5B5B
23.275564379999999,2090,0x0400,0x5B5B
23.275564880000001,2090,0x0400,0x5B5B
23.275565380000000,2090,0x026D,0x5B5B
23.275565879999998,2090,0x0080,0x5B5B
23.275566380000001,2090,0x005F,0x5B5B
23.275566880000000,2090,0x7D3E,0x5B5B
23.275567379999998,2090,0x009D,0x5B5B
23.275567880000001,2090,0x0000,0x5B5B
23.275568379999999,2090,0x0000,0x5B5B
23.275568880000002,2090,0x0000,0x5B5B
23.275569380000000,2090,0x0000,0x5B5B
23.275569879999999,2090,0x01CC,0x5B5B
23.275570380000001,2090,0x0048,0x5B5B
23.275570880000000,2090,0x0000,0x5B5B
23.275571379999999,2090,0x0288,0x5B5B
23.275571880000001,2090,0x006E,0x5B5B
23.275572380000000,2090,0x0000,0x5B5B
23.275572879999999,2090,0x0000,0x5B5B
23.275573380000001,2090,0x0000,0x5B5B
23.275573880000000,2090,0x0000,0x5B5B
23.275574379999998,2090,0x0000,0x5B5B
23.275574880000001,2090,0x0000,0x5B5B
23.275575379999999,2090,0x0000,0x5B5B
23.275575880000002,2090,0x0000,0x5B5B
23.275576380000000,2090,0x0000,0x5B5B
23.275576879999999,2090,0x0000,0x5B5B
23.275577380000001,2090,0x0000,0x5B5B
23.275577880000000,2090,0x0000,0x5B5B
23.275578379999999,2090,0x0000,0x5B5B
23.275578880000001,2090,0x0000,0x5B5B
23.275579380000000,2090,0x0000,0x5B5B
23.275579879999999,2090,0x0000,0x5B5B
23.275580380000001,2090,0x0000,0x5B5B
23.275580880000000,2090,0x0000,0x5B5B
23.275581379999998,2090,0x0000,0x5B5B
23.275581880000001,2090,0x0000,0x5B5B
23.275582379999999,2090,0x0000,0x5B5B
23.275582880000002,2090,0x0000,0x5B5B
23.275583380000000,2090,0x0000,0x5B5B
23.275583879999999,2090,0x0000,0x5B5B
23.275584380000002,2090,0x0000,0x5B5B
23.275584880000000,2090,0x0000,0x5B5B
23.275585379999999,2090,0x0000,0x5B5B
23.275585878000001,2090,0x01E4,0x5B5B
23.275586380000000,2090,0x0400,0x5B5B
23.275586879999999,2090,0x0400,0x5B5B
23.275587380000001,2090,0x0282,0x5B5B
23.275587880000000,2090,0x0064,0x5B5B
23.275588379999999,2090,0x0064,0x5B5B
23.275588880000001,2090,0x007F,0x5B5B
23.275589380000000,2090,0x005F,0x5B5B
23.275589879999998,2090,0x7D3E,0x5B5B
23.275590380000001,2090,0x00B0,0x5B5B
23.275590879999999,2090,0x0000,0x5B5B
23.275591380000002,2090,0x0000,0x5B5B
23.275591880000000,2090,0x0000,0x5B5B
23.275592379999999,2090,0x0000,0x5B5B
23.275592880000001,2090,0x0064,0x5B5B
23.275593380000000,2090,0x007A,0x5B5B
23.275593879999999,2090,0x0060,0x5B5B
23.275594380000001,2090,0x007B,0x5B5B
23.275594880000000,2090,0x001D,0x5B5B
23.275595379999999,2090,0x009B,0x5B5B
23.275595880000001,2090,0x00FF,0x5B5B
23.275596380000000,2090,0x56EE,0x5B5B
23.275596879999998,2090,0x9A48,0x5B5B
23.275597380000001,2090,0x0092,0x5B5B
23.275597879999999,2090,0x0000,0x5B5B
23.275598380000002,2090,0x01E5,0x5B5B
23.275598880000000,2090,0x0400,0x5B5B
23.275599379999999,2090,0x0400,0x5B5B
23.275599880000001,2090,0x0286,0x5B5B
23.275600380000000,2090,0x004F,0x5B5B
23.275600879999999,2090,0x0064,0x5B5B
23.275601380000001,2090,0x007F,0x5B5B
23.275601880000000,2090,0x005F,0x5B5B
23.275602379999999,2090,0x7D3E,0x5B5B
23.275602880000001,2090,0x00B0,0x5B5B
23.275603380000000,2090,0x0000,0x5B5B
23.275603879999998,2090,0x0000,0x5B5B
23.275604380000001,2090,0x0000,0x5B5B
23.275604879999999,2090,0x0000,0x5B5B
23.275605379999998,2090,0x0064,0x5B5B
23.275605880000001,2090,0x007A,0x5B5B
23.275606379999999,2090,0x0060,0x5B5B
23.275606880000002,2090,0x007B,0x5B5B
23.275607380000000,2090,0x001D,0x5B5B
23.275607879999999,2090,0x009B,0x5B5B
23.275608380000001,2090,0x00FF,0x5B5B
23.275608880000000,2090,0x56EE,0x5B5B
23.275609379999999,2090,0x9A48,0x5B5B
23.275609880000001,2090,0x0092,0x5B5B
23.275610380000000,2090,0x0000,0x5B5B
23.275610879999999,2090,0x001F,0x5B5B
23.275611380000001,2090,0x003F,0x5B5B
23.275611880000000,2090,0x005F,0x5B5B
23.275612379999998,2090,0x007F,0x5B5B
23.275612880000001,2090,0x009F,0x5B5B
23.275613379999999,2090,0x00BF,0x5B5B
23.275613880000002,2090,0x00DF,0x5B5B
23.275614378000000,2090,0x00FF,0x5B5B
23.275614879999999,2090,0x0000,0x5B5B
23.275615380000001,2090,0x0000,0x5B5B
23.275615880000000,2090,0x0000,0x5B5B
23.275616379999999,2090,0x0000,0x5B5B
23.275616880000001,2090,0x0000,0x5B5B
23.275617380000000,2090,0x0000,0x5B5B
23.275617879999999,2090,0x0000,0x5B5B
23.275618380000001,2090,0x0000,0x5B5B
23.275618880000000,2090,0x0000,0x5B5B
23.275619379999998,2090,0x0064,0x5B5B
23.275619880000001,2090,0x0000,0x5B5B
23.275620379999999,2090,0x0000,0x5B5B
23.275620880000002,2090,0x0000,0x5B5B
23.275621380000000,2090,0x0000,0x5B5B
23.275621879999999,2090,0x0000,0x5B5B
23.275622380000001,2090,0x0000,0x5B5B
23.275622880000000,2090,0x0000,0x5B5B
23.275623379999999,2090,0x0000,0x5B5B
23.275623880000001,2090,0x0000,0x5B5B
23.275624380000000,2090,0x0000,0x5B5B
23.275624879999999,2090,0x0000,0x5B5B
23.275625380000001,2090,0x001F,0x5B5B
23.275625880000000,2090,0x003F,0x5B5B
23.275626377999998,2090,0x005F,0x5B5B
23.275626880000001,2090,0x007F,0x5B5B
23.275627380000000,2090,0x009F,0x5B5B
23.275627879999998,2090,0x00BF,0x5B5B
23.275628380000001,2090,0x00DF,0x5B5B
23.275628879999999,2090,0x00FF,0x5B5B
23.275629380000002,2090,0x0002,0x5B5B
23.275629880000000,2090,0x0004,0x5B5B
23.275630379999999,2090,0x0007,0x5B5B
23.275630880000001,2090,0x0009,0x5B5B
23.275631380000000,2090,0x000C,0x5B5B
23.275631879999999,2090,0x0010,0x5B5B
23.275632380000001,2090,0x0013,0x5B5B
23.275632880000000,2090,0x0019,0x5B5B
23.275633377999998,2090,0x001F,0x5B5B
23.275633880000001,2090,0x0024,0x5B5B
23.275634380000000,2090,0x0028,0x5B5B
23.275634879999998,2090,0x0029,0x5B5B
23.275635380000001,2090,0x0029,0x5B5B
23.275635879999999,2090,0x002A,0x5B5B
23.275636380000002,2090,0x0029,0x5B5B
23.275636880000000,2090,0x0029,0x5B5B
23.275637379999999,2090,0x0028,0x5B5B
23.275637880000001,2090,0x0026,0x5B5B
23.275638380000000,2090,0x0024,0x5B5B
23.275638879999999,2090,0x0025,0x5B5B
23.275639380000001,2090,0x0028,0x5B5B
23.275639880000000,2090,0x002B,0x5B5B
23.275640377999999,2090,0x002D,0x5B5B
23.275640880000001,2090,0x002F,0x5B5B
23.275641380000000,2090,0x0032,0x5B5B
23.275641879999998,2090,0x0033,0x5B5B
23.275642380000001,2090,0x0035,0x5B5B
23.275642879999999,2090,0x0037,0x5B5B
23.275643380000002,2090,0x003B,0x5B5B
23.275643880000001,2090,0x0044,0x5B5B
23.275644379999999,2090,0x004C,0x5B5B
23.275644880000002,2090,0x0058,0x5B5B
23.275645380000000,2090,0x0061,0x5B5B
23.275645879999999,2090,0x0066,0x5B5B
23.275646380000001,2090,0x006D,0x5B5B
23.275646878000000,2090,0x0071,0x5B5B
23.275647379999999,2090,0x0074,0x5B5B
23.275647880000001,2090,0x0076,0x5B5B
23.275648380000000,2090,0x0072,0x5B5B
23.275648879999999,2090,0x006D,0x5B5B
23.275649378000001,2090,0x0065,0x5B5B
23.275649877999999,2090,0x0060,0x5B5B
23.275650379999998,2090,0x005B,0x5B5B
23.275650880000001,2090,0x0057,0x5B5B
23.275651379999999,2090,0x0056,0x5B5B
23.275651880000002,2090,0x0055,0x5B5B
23.275652380000000,2090,0x0056,0x5B5B
23.275652877999999,2090,0x0055,0x5B5B
23.275653378000001,2090,0x0055,0x5B5B
23.275653880000000,2090,0x0053,0x5B5B
23.275654379999999,2090,0x0052,0x5B5B
23.275654880000001,2090,0x005A,0x5B5B
23.275655380000000,2090,0x0062,0x5B5B
23.275655879999999,2090,0x006C,0x5B5B
23.275656380000001,2090,0x0071,0x5B5B
23.275656880000000,2090,0x0073,0x5B5B
23.275657379999998,2090,0x007C,0x5B5B
23.275657880000001,2090,0x0086,0x5B5B
23.275658379999999,2090,0x00A0,0x5B5B
23.275658880000002,2090,0x00C3,0x5B5B
23.275659380000000,2090,0x00D1,0x5B5B
23.275659879999999,2090,0x00DE,0x5B5B
23.275660380000001,2090,0x00C8,0x5B5B
23.275660880000000,2090,0x0000,0x5B5B
23.275661379999999,2090,0x00FF,0x5B5B
23.275661880000001,2090,0x0005,0x5B5B
23.275662380000000,2090,0x007A,0x5B5B
23.275662879999999,2090,0x0060,0x5B5B
23.275663380000001,2090,0x56EE,0x5B5B
23.275663880000000,2090,0x9A48,0x5B5B
23.275664379999998,2090,0x0000,0x5B5B
23.275664880000001,2090,0x0000,0x5B5B
23.275665380000000,2090,0x0000,0x5B5B
23.275665878000002,2090,0x0000,0x5B5B
23.275666380000001,2090,0x0000,0x5B5B
23.275666879999999,2090,0x009B,0x5B5B
23.275667380000002,2090,0x00FF,0x5B5B
23.275667880000000,2090,0x001D,0x5B5B
23.275668377999999,2090,0x01CA,0x5B5B
23.275668880000001,2090,0x0048,0x5B5B
23.275669380000000,2090,0x0000,0x5B5B
23.275669879999999,2090,0x0287,0x5B5B
23.275670380000001,2090,0x006F,0x5B5B
23.275670880000000,2090,0x0000,0x5B5B
23.275671379999999,2090,0x0160,0x5B5B
23.275671880000001,2090,0x0000,0x5B5B
23.275672380000000,2090,0x0000,0x5B5B
23.275672879999998,2090,0x007B,0x5B5B
23.275673380000001,2090,0x0000,0x5B5B
23.275673879999999,2090,0x0000,0x5B5B
23.275674380000002,2090,0x0005,0x5B5B
23.275674878000000,2090,0x0000,0x5B5B
23.275675379999999,2090,0x0037,0x5B5B
23.275675880000001,2090,0x0000,0x5B5B
23.275676380000000,2090,0xAAAA,0x5B5B
23.275676879999999,2090,0x0000,0x5B5B
23.275677380000001,2090,0x5555,0x5B5B
23.275677880000000,2090,0x5555,0x5B5B
23.275678377999999,2090,0x5555,0x5B5B
23.275678880000001,2090,0x0000,0x5B5B
23.275679380000000,2090,0x0000,0x5B5B
23.275679879999998,2090,0x0000,0x5B5B
23.275680380000001,2090,0x0037,0x5B5B
23.275680879999999,2090,0x0000,0x5B5B
23.275681380000002,2090,0x0000,0x5B5B
23.275681878000000,2090,0x0000,0x5B5B
23.275682377999999,2090,0x0000,0x5B5B
23.275682880000002,2090,0x0000,0x5B5B
23.275683380000000,2090,0x0000,0x5B5B
23.275683879999999,2090,0x0000,0x5B5B
23.275684380000001,2090,0x0000,0x5B5B
23.275684880000000,2090,0x0000,0x5B5B
23.275685379999999,2090,0x0000,0x5B5B
23.275685880000001,2090,0x0000,0x5B5B
23.275686380000000,2090,0x0000,0x5B5B
23.275686879999999,2090,0x0000,0x5B5B
23.275687378000001,2090,0x0000,0x5B5B
23.275687880000000,2090,0x0000,0x5B5B
23.275688379999998,2090,0x0064,0x5B5B
23.275688880000001,2090,0x0016,0x5B5B
23.275689379999999,2090,0x0000,0x5B5B
23.275689880000002,2090,0x0000,0x5B5B
23.275690380000000,2090,0x0000,0x5B5B
23.275690879999999,2090,0x0037,0x5B5B
23.275691378000001,2090,0x0000,0x5B5B
23.275691880000000,2090,0x007A,0x5B5B
23.275692379999999,2090,0x0060,0x5B5B
23.275692880000001,2090,0x56EE,0x5B5B
23.275693380000000,2090,0x9A48,0x5B5B
23.275693879999999,2090,0x0000,0x5B5B
23.275694380000001,2090,0x0000,0x5B5B
23.275694877999999,2090,0x0000,0x5B5B
23.275695379999998,2090,0x0000,0x5B5B
23.275695880000001,2090,0x0000,0x5B5B
23.275696379999999,2090,0x009B,0x5B5B
23.275696880000002,2090,0x00FF,0x5B5B
23.275697380000000,2090,0x001D,0x5B5B
23.275697877999999,2090,0x7D3E,0x5B5B
23.275698380000001,2090,0x00B0,0x5B5B
23.275698880000000,2090,0x0000,0x5B5B
23.275699379999999,2090,0x0000,0x5B5B
23.275699880000001,2090,0x0000,0x5B5B
23.275700380000000,2090,0x0000,0x5B5B
23.275700879999999,2090,0x56EE,0x5B5B
23.275701380000001,2090,0x9A48,0x5B5B
23.275701878000000,2090,0x0092,0x5B5B
23.275702379999998,2090,0x007A,0x5B5B
23.275702880000001,2090,0x0000,0x5B5B
23.275703379999999,2090,0x0000,0x5B5B
23.275703879999998,2090,0x0000,0x5B5B
23.275704380000001,2090,0x0000,0x5B5B
23.275704879999999,2090,0x0000,0x5B5B
23.275705380000002,2090,0x0037,0x5B5B
23.275705880000000,2090,0x0000,0x5B5B
23.275706379999999,2090,0x0000,0x5B5B
23.275706880000001,2090,0x001F,0x5B5B
23.275707380000000,2090,0x003F,0x5B5B
23.275707879999999,2090,0x005F,0x5B5B
23.275708380000001,2090,0x007F,0x5B5B
23.275708880000000,2090,0x009F,0x5B5B
23.275709379999999,2090,0x00BF,0x5B5B
23.275709880000001,2090,0x00DF,0x5B5B
23.275710380000000,2090,0x00FF,0x5B5B
23.275710879999998,2090,0x0000,0x5B5B
23.275711380000001,2090,0x0000,0x5B5B
23.275711879999999,2090,0x01E5,0x5B5B
23.275712378000001,2090,0x0400,0x5B5B
23.275712880000000,2090,0x0400,0x5B5B
23.275713379999999,2090,0x0286,0x5B5B
23.275713880000001,2090,0xAA34,0x5B5B
23.275714380000000,2090,0x3000,0x5B5B
23.275714879999999,2090,0x2222,0x5B5B
23.275715380000001,2090,0x2222,0x5B5B
23.275715880000000,2090,0x2222,0x5B5B
23.275716379999999,2090,0x0222,0x5B5B
23.275716880000001,2090,0x1111,0x5B5B
23.275717380000000,2090,0x0000,0x5B5B
23.275717879999998,2090,0x0001,0x5B5B
23.275718380000001,2090,0x0000,0x5B5B
23.275718879999999,2090,0x0001,0x5B5B
23.275719378000002,2090,0x0000,0x5B5B
23.275719880000000,2090,0x0000,0x5B5B
23.275720377999999,2090,0x0000,0x5B5B
23.275720880000002,2090,0x0000,0x5B5B
23.275721378000000,2090,0x0000,0x5B5B
23.275721877999999,2090,0x0000,0x5B5B
23.275722380000001,2090,0x0000,0x5B5B
23.275722880000000,2090,0x0000,0x5B5B
23.275723379999999,2090,0x0000,0x5B5B
23.275723880000001,2090,0x0000,0x5B5B
23.275724378000000,2090,0x0000,0x5B5B
23.275724877999998,2090,0x0410,0x5B5B
23.275725380000001,2090,0x0610,0x5B5B
23.275725880000000,2090,0x0710,0x5B5B
23.275726379999998,2090,0x0710,0x5B5B
23.275726880000001,2090,0x0000,0x5B5B
23.275727377999999,2090,0x0000,0x5B5B
23.275727880000002,2090,0x0010,0x5B5B
23.275728380000000,2090,0x0000,0x5B5B
23.275728879999999,2090,0x0000,0x5B5B
23.275729378000001,2090,0x0000,0x5B5B
23.275729880000000,2090,0x0000,0x5B5B
23.275730379999999,2090,0x0000,0x5B5B
23.275730880000001,2090,0x0046,0x5B5B
23.275731380000000,2090,0x0000,0x5B5B
23.275731879999999,2090,0x03F2,0x5B5B
23.275732380000001,2090,0x0000,0x5B5B
23.275732880000000,2090,0x0189,0x5B5B
23.275733379999998,2090,0x0000,0x5B5B
23.275733878000000,2090,0x0077,0x5B5B
23.275734379999999,2090,0x0000,0x5B5B
23.275734880000002,2090,0x0082,0x5B5B
23.275735380000000,2090,0x0000,0x5B5B
23.275735879999999,2090,0x017E,0x5B5B
23.275736380000001,2090,0x0000,0x5B5B
23.275736880000000,2090,0x0446,0x5B5B
23.275737379999999,2090,0x0000,0x5B5B
23.275737880000001,2090,0x0EB1,0x5B5B
23.275738380000000,2090,0x0000,0x5B5B
23.275738879999999,2090,0x0000,0x5B5B
23.275739380000001,2090,0x0000,0x5B5B
23.275739878000000,2090,0x0000,0x5B5B
23.275740379999998,2090,0x0000,0x5B5B
23.275740880000001,2090,0x0000,0x5B5B
23.275741379999999,2090,0x0000,0x5B5B
23.275741880000002,2090,0x0000,0x5B5B
23.275742378000000,2090,0x0000,0x5B5B
23.275742879999999,2090,0x2111,0x5B5B
23.275743380000002,2090,0x0002,0x5B5B
23.275743880000000,2090,0x0020,0x5B5B
23.275744379999999,2090,0x0000,0x5B5B
23.275744880000001,2090,0x0020,0x5B5B
23.275745380000000,2090,0x0001,0x5B5B
23.275745879999999,2090,0x0020,0x5B5B
23.275746380000001,2090,0x0000,0x5B5B
23.275746880000000,2090,0x7050,0x5B5B
23.275747379999999,2090,0x6406,0x5B5B
23.275747880000001,2090,0x1340,0x5B5B
23.275748380000000,2090,0x0002,0x5B5B
23.275748879999998,2090,0xA0A0,0x5B5B
23.275749380000001,2090,0x5A64,0x5B5B
23.275749879999999,2090,0x4190,0x5B5B
23.275750380000002,2090,0x0000,0x5B5B
23.275750880000000,2090,0x0000,0x5B5B
23.275751379999999,2090,0x0000,0x5B5B
23.275751878000001,2090,0x4190,0x5B5B
23.275752380000000,2090,0x7508,0x5B5B
23.275752879999999,2090,0x62A8,0x5B5B
23.275753380000001,2090,0x0000,0x5B5B
23.275753880000000,2090,0x0000,0x5B5B
23.275754379999999,2090,0x0000,0x5B5B
23.275754880000001,2090,0x0091,0x5B5B
23.275755380000000,2090,0x0091,0x5B5B
23.275755879999998,2090,0x008F,0x5B5B
23.275756380000001,2090,0x0091,0x5B5B
23.275756879999999,2090,0x0001,0x5B5B
23.275757378000002,2090,0x0000,0x5B5B
23.275757880000000,2090,0x4040,0x5B5B
23.275758377999999,2090,0x2040,0x5B5B
23.275758880000001,2090,0x0000,0x5B5B
23.275759378000000,2090,0x0000,0x5B5B
23.275759879999999,2090,0x0A7D,0x5B5B
23.275760380000001,2090,0x7809,0x5B5B
23.275760878000000,2090,0x98A0,0x5B5B
23.275761379999999,2090,0x00F0,0x5B5B
23.275761880000001,2090,0x0000,0x5B5B
23.275762380000000,2090,0x0000,0x5B5B
23.275762879999998,2090,0x0000,0x5B5B
23.275763380000001,2090,0x0000,0x5B5B
23.275763877999999,2090,0x0000,0x5B5B
23.275764379999998,2090,0x0000,0x5B5B
23.275764880000001,2090,0x0000,0x5B5B
23.275765379999999,2090,0x0000,0x5B5B
23.275765880000002,2090,0x0000,0x5B5B
23.275766380000000,2090,0x0000,0x5B5B
23.275766879999999,2090,0x0F80,0x5B5B
23.275767380000001,2090,0x01B3,0x5B5B
23.275767880000000,2090,0x004D,0x5B5B
23.275768377999999,2090,0x0700,0x5B5B
23.275768880000001,2090,0x0078,0x5B5B
23.275769378000000,2090,0x024E,0x5B5B
23.275769879999999,2090,0x0367,0x5B5B
23.275770380000001,2090,0x0000,0x5B5B
23.275770880000000,2090,0x00FC,0x5B5B
23.275771379999998,2090,0x0131,0x5B5B
23.275771880000001,2090,0x03B9,0x5B5B
23.275772377999999,2090,0x00D2,0x5B5B
23.275772880000002,2090,0x21E0,0x5B5B
23.275773380000000,2090,0x0276,0x5B5B
23.275773879999999,2090,0x03AD,0x5B5B
23.275774378000001,2090,0x014A,0x5B5B
23.275774880000000,2090,0x333C,0x5B5B
23.275775377999999,2090,0x02A4,0x5B5B
23.275775880000001,2090,0x03CA,0x5B5B
23.275776380000000,2090,0x01B6,0x5B5B
23.275776879999999,2090,0x34FB,0x5B5B
23.275777380000001,2090,0x0185,0x5B5B
23.275777880000000,2090,0x03DF,0x5B5B
23.275778379999998,2090,0x0210,0x5B5B
23.275778878000001,2090,0x35AA,0x5B5B
23.275779379999999,2090,0x00A5,0x5B5B
23.275779880000002,2090,0x03EF,0x5B5B
23.275780380000000,2090,0x024C,0x5B5B
23.275780879999999,2090,0x3645,0x5B5B
23.275781378000001,2090,0x0074,0x5B5B
23.275781880000000,2090,0x03F8,0x5B5B
23.275782379999999,2090,0x0258,0x5B5B
23.275782878000001,2090,0x3000,0x5B5B
23.275783380000000,2090,0x005F,0x5B5B
23.275783879999999,2090,0x03F6,0x5B5B
23.275784380000001,2090,0x0260,0x5B5B
23.275784880000000,2090,0x0001,0x5B5B
23.275785379999999,2090,0x0000,0x5B5B
23.275785880000001,2090,0x0000,0x5B5B
23.275786380000000,2090,0x0000,0x5B5B
23.275786879999998,2090,0x0076,0x5B5B
23.275787380000001,2090,0x0249,0x5B5B
23.275787877999999,2090,0x0F70,0x5B5B
23.275788380000002,2090,0x0000,0x5B5B
23.275788878000000,2090,0x00FC,0x5B5B
23.275789379999999,2090,0x0138,0x5B5B
23.275789880000001,2090,0x0FB4,0x5B5B
23.275790380000000,2090,0x01A0,0x5B5B
23.275790877999999,2090,0x11E0,0x5B5B
23.275791380000001,2090,0x0128,0x5B5B
23.275791878000000,2090,0x0FCD,0x5B5B
23.275792377999998,2090,0x0294,0x5B5B
23.275792880000001,2090,0x333C,0x5B5B
23.275793377999999,2090,0x01D6,0x5B5B
23.275793879999998,2090,0x0FCC,0x5B5B
23.275794380000001,2090,0x034C,0x5B5B
23.275794879999999,2090,0x341A,0x5B5B
23.275795380000002,2090,0x00AF,0x5B5B
23.275795878000000,2090,0x0FF0,0x5B5B
23.275796377999999,2090,0x03BC,0x5B5B
23.275796878000001,2090,0x3512,0x5B5B
23.275797380000000,2090,0x006B,0x5B5B
23.275797879999999,2090,0x0FF3,0x5B5B
23.275798378000001,2090,0x03DC,0x5B5B
23.275798880000000,2090,0x3000,0x5B5B
23.275799379999999,2090,0x002E,0x5B5B
23.275799880000001,2090,0x0FFC,0x5B5B
23.275800380000000,2090,0x03F0,0x5B5B
23.275800879999998,2090,0x0001,0x5B5B
23.275801380000001,2090,0x0000,0x5B5B
23.275801879999999,2090,0x0000,0x5B5B
23.275802379999998,2090,0x0000,0x5B5B
23.275802880000001,2090,0x3A1C,0x5B5B
23.275803377999999,2090,0x0115,0x5B5B
23.275803878000001,2090,0x1080,0x5B5B
23.275804380000000,2090,0x1133,0x5B5B
23.275804879999999,2090,0x0008,0x5B5B
23.275805378000001,2090,0x0000,0x5B5B
23.275805878000000,2090,0x0000,0x5B5B
23.275806379999999,2090,0x0000,0x5B5B
23.275806880000001,2090,0x0200,0x5B5B
23.275807378000000,2090,0x0002,0x5B5B
23.275807879999999,2090,0x0200,0x5B5B
23.275808380000001,2090,0x0002,0x5B5B
23.275808880000000,2090,0x0200,0x5B5B
23.275809379999998,2090,0x0002,0x5B5B
23.275809880000001,2090,0x0000,0x5B5B
23.275810377999999,2090,0x0000,0x5B5B
23.275810880000002,2090,0x0001,0x5B5B
23.275811378000000,2090,0x0000,0x5B5B
23.275811879999999,2090,0x0000,0x5B5B
23.275812380000001,2090,0x0000,0x5B5B
23.275812880000000,2090,0x0020,0x5B5B
23.275813377999999,2090,0x0020,0x5B5B
23.275813880000001,2090,0x0020,0x5B5B
23.275814380000000,2090,0x0000,0x5B5B
23.275814879999999,2090,0x0800,0x5B5B
23.275815378000001,2090,0x0800,0x5B5B
23.275815878000000,2090,0x0800,0x5B5B
23.275816379999998,2090,0x8000,0x5B5B
23.275816880000001,2090,0x0000,0x5B5B
23.275817379999999,2090,0x0000,0x5B5B
23.275817878000002,2090,0x0080,0x5B5B
23.275818378000000,2090,0x7360,0x5B5B
23.275818879999999,2090,0x262F,0x5B5B
23.275819378000001,2090,0x1426,0x5B5B
23.275819880000000,2090,0x0058,0x5B5B
23.275820377999999,2090,0x0000,0x5B5B
23.275820880000001,2090,0x0100,0x5B5B
23.275821378000000,2090,0x01C3,0x5B5B
23.275821879999999,2090,0x02A8,0x5B5B
23.275822380000001,2090,0x0364,0x5B5B
23.275822880000000,2090,0x03B1,0x5B5B
23.275823377999998,2090,0x03D8,0x5B5B
23.275823880000001,2090,0x0058,0x5B5B
23.275824380000000,2090,0x0000,0x5B5B
23.275824879999998,2090,0x0049,0x5B5B
23.275825378000000,2090,0x009C,0x5B5B
23.275825879999999,2090,0x001C,0x5B5B
23.275826378000001,2090,0x1000,0x5B5B
23.275826878000000,2090,0x0101,0x5B5B
23.275827379999999,2090,0x0020,0x5B5B
23.275827878000001,2090,0x1010,0x5B5B
23.275828380000000,2090,0x0000,0x5B5B
23.275828879999999,2090,0x0111,0x5B5B
23.275829380000001,2090,0x0100,0x5B5B
23.275829878000000,2090,0x0000,0x5B5B
23.275830377999998,2090,0x0100,0x5B5B
23.275830880000001,2090,0x0000,0x5B5B
23.275831380000000,2090,0x0000,0x5B5B
23.275831879999998,2090,0x01FF,0x5B5B
23.275832380000001,2090,0x0000,0x5B5B
23.275832877999999,2090,0x01FF,0x5B5B
23.275833380000002,2090,0x0000,0x5B5B
23.275833878000000,2090,0x000A,0x5B5B
23.275834379999999,2090,0x0102,0x5B5B
23.275834880000001,2090,0x0000,0x5B5B
23.275835380000000,2090,0x0000,0x5B5B
23.275835879999999,2090,0x0000,0x5B5B
23.275836380000001,2090,0x0000,0x5B5B
23.275836880000000,2090,0x0000,0x5B5B
23.275837377999999,2090,0x0000,0x5B5B
23.275837878000001,2090,0x0000,0x5B5B
23.275838380000000,2090,0x0000,0x5B5B
23.275838877999998,2090,0x0000,0x5B5B
23.275839380000001,2090,0x0000,0x5B5B
23.275839877999999,2090,0x1E04,0x5B5B
23.275840380000002,2090,0x001C,0x5B5B
23.275840880000001,2090,0x6646,0x5B5B
23.275841379999999,2090,0x0000,0x5B5B
23.275841880000002,2090,0x120C,0x5B5B
23.275842378000000,2090,0x000E,0x5B5B
23.275842879999999,2090,0x0808,0x5B5B
23.275843380000001,2090,0x1E00,0x5B5B
23.275843880000000,2090,0x0000,0x5B5B
23.275844379999999,2090,0x0000,0x5B5B
23.275844878000001,2090,0x1E04,0x5B5B
23.275845380000000,2090,0x001C,0x5B5B
23.275845877999998,2090,0x6646,0x5B5B
23.275846380000001,2090,0x0000,0x5B5B
23.275846880000000,2090,0x120C,0x5B5B
23.275847379999998,2090,0x000E,0x5B5B
23.275847880000001,2090,0x0808,0x5B5B
23.275848379999999,2090,0x1E00,0x5B5B
23.275848880000002,2090,0x0FF0,0x5B5B
23.275849380000000,2090,0x0402,0x5B5B
23.275849879999999,2090,0x0000,0x5B5B
23.275850378000001,2090,0x0000,0x5B5B
23.275850878000000,2090,0x0000,0x5B5B
23.275851379999999,2090,0x0000,0x5B5B
23.275851878000001,2090,0x0000,0x5B5B
23.275852380000000,2090,0x0000,0x5B5B
23.275852879999999,2090,0x0000,0x5B5B
23.275853380000001,2090,0x0000,0x5B5B
23.275853880000000,2090,0x0000,0x5B5B
23.275854379999998,2090,0x0000,0x5B5B
23.275854878000001,2090,0x000B,0x5B5B
23.275855379999999,2090,0x0008,0x5B5B
23.275855880000002,2090,0x0005,0x5B5B
23.275856378000000,2090,0x0005,0x5B5B
23.275856879999999,2090,0x0500,0x5B5B
23.275857378000001,2090,0x0007,0x5B5B
23.275857878000000,2090,0x0808,0x5B5B
23.275858377999999,2090,0xBDAB,0x5B5B
23.275930192000001,2091,0x4D00,0x5B5B
23.275945130000000,2092,0x001F,0x5B5B
23.276908442000000,2093,0x4D00,0x5B5B
23.276924566000002,2094,0x001E,0x5B5B
23.276940472000000,2095,0x4100,0x5B5B
23.276954786000001,2096,0x0600,0x5B5B
23.276970221999999,2097,0x0A00,0x5B5B
23.277162692000001,2098,0x0002,0x5B5B
23.277163190000000,2098,0x05F8,0x5B5B
23.277163689999998,2098,0x0700,0x5B5B
23.277164190000001,2098,0x0000,0x5B5B
23.277164689999999,2098,0xA000,0x5B5B
23.277165190000002,2098,0x0000,0x5B5B
23.277165690000000,2098,0x1A2C,0x5B5B
23.277166189999999,2098,0x60A7,0x5B5B
23.277166690000001,2098,0x5E98,0x5B5B
23.277167190000000,2098,0x3E6D,0x5B5B
23.277167689999999,2098,0x030C,0x5B5B
23.277168190000001,2098,0x44BC,0x5B5B
23.277168692000000,2098,0x8E9C,0x5B5B
23.277169189999999,2098,0x0045,0x5B5B
23.277169690000001,2098,0x05A6,0x5B5B
23.277170190000000,2098,0x0000,0x5B5B
23.277170689999998,2098,0x0000,0x5B5B
23.277171190000001,2098,0x0000,0x5B5B
23.277171689999999,2098,0x0000,0x5B5B
23.277172190000002,2098,0x0000,0x5B5B
23.277172690000000,2098,0x0000,0x5B5B
23.277173189999999,2098,0x0000,0x5B5B
23.277173690000001,2098,0x0000,0x5B5B
23.277174190000000,2098,0x0000,0x5B5B
23.277174689999999,2098,0x0000,0x5B5B
23.277175190000001,2098,0x0000,0x5B5B
23.277175690000000,2098,0x0000,0x5B5B
23.277176189999999,2098,0x0000,0x5B5B
23.277176690000001,2098,0x0000,0x5B5B
23.277177190000000,2098,0x0000,0x5B5B
23.277177689999998,2098,0x0000,0x5B5B
23.277178190000001,2098,0x0000,0x5B5B
23.277178690000000,2098,0x0000,0x5B5B
23.277179189999998,2098,0x0000,0x5B5B
23.277179690000001,2098,0x0000,0x5B5B
23.277180189999999,2098,0x0000,0x5B5B
23.277180690000002,2098,0x0000,0x5B5B
23.277181190000000,2098,0x0000,0x5B5B
23.277181689999999,2098,0x0000,0x5B5B
23.277182190000001,2098,0x0000,0x5B5B
23.277182690000000,2098,0x0000,0x5B5B
23.277183189999999,2098,0x0000,0x5B5B
23.277183690000001,2098,0x0000,0x5B5B
23.277184190000000,2098,0x0000,0x5B5B
23.277184689999999,2098,0x0808,0x5B5B
23.277185190000001,2098,0x4130,0x5B5B
23.277185690000000,2098,0x1000,0x5B5B
23.277186189999998,2098,0x0010,0x5B5B
23.277186690000001,2098,0x0000,0x5B5B
23.277187189999999,2098,0x0010,0x5B5B
23.277187690000002,2098,0x0000,0x5B5B
23.277188190000000,2098,0x0014,0x5B5B
23.277188689999999,2098,0x003C,0x5B5B
23.277189190000001,2098,0x0707,0x5B5B
23.277189690000000,2098,0x0000,0x5B5B
23.277190189999999,2098,0x0012,0x5B5B
23.277190690000001,2098,0x0036,0x5B5B
23.277191190000000,2098,0x0008,0x5B5B
23.277191689999999,2098,0x0000,0x5B5B
23.277192190000001,2098,0x000A,0x5B5B
23.277192690000000,2098,0x001E,0x5B5B
23.277193189999998,2098,0x0707,0x5B5B
23.277193690000001,2098,0x0000,0x5B5B
23.277194189999999,2098,0x0009,0x5B5B
23.277194690000002,2098,0x001B,0x5B5B
23.277195190000000,2098,0x0008,0x5B5B
23.277195689999999,2098,0x0000,0x5B5B
23.277196190000002,2098,0x000A,0x5B5B
23.277196690000000,2098,0x0028,0x5B5B
23.277197189999999,2098,0x0404,0x5B5B
23.277197690000001,2098,0x0000,0x5B5B
23.277198190000000,2098,0x0005,0x5B5B
23.277198689999999,2098,0x0014,0x5B5B
23.277199190000001,2098,0x0008,0x5B5B
23.277199690000000,2098,0x0000,0x5B5B
23.277200189999999,2098,0x0000,0x5B5B
23.277200690000001,2098,0x0000,0x5B5B
23.277201190000000,2098,0x0000,0x5B5B
23.277201689999998,2098,0x0000,0x5B5B
23.277202190000001,2098,0x0000,0x5B5B
23.277202689999999,2098,0x0000,0x5B5B
23.277203190000002,2098,0x0008,0x5B5B
23.277203690000000,2098,0x0000,0x5B5B
23.277204189999999,2098,0x000A,0x5B5B
23.277204690000001,2098,0x001E,0x5B5B
23.277205190000000,2098,0x0707,0x5B5B
23.277205689999999,2098,0x0000,0x5B5B
23.277206190000001,2098,0x0009,0x5B5B
23.277206690000000,2098,0x001B,0x5B5B
23.277207189999999,2098,0x000A,0x5B5B
23.277207690000001,2098,0x0000,0x5B5B
23.277208190000000,2098,0x0010,0x5B5B
23.277208689999998,2098,0x0028,0x5B5B
23.277209190000001,2098,0x0402,0x5B5B
23.277209689999999,2098,0x0000,0x5B5B
23.277210190000002,2098,0x0004,0x5B5B
23.277210690000000,2098,0x0010,0x5B5B
23.277211189999999,2098,0x0000,0x5B5B
23.277211690000001,2098,0x0000,0x5B5B
23.277212190000000,2098,0x0000,0x5B5B
23.277212689999999,2098,0x0000,0x5B5B
23.277213190000001,2098,0x0000,0x5B5B
23.277213690000000,2098,0x0000,0x5B5B
23.277214189999999,2098,0x0031,0x5B5B
23.277214690000001,2098,0x01B8,0x5B5B
23.277215190000000,2098,0x0A10,0x5B5B
23.277215689999998,2098,0x002A,0x5B5B
23.277216190000001,2098,0x010F,0x5B5B
23.277216689999999,2098,0x0000,0x5B5B
23.277217189999998,2098,0x701F,0x5B5B
23.277217690000001,2098,0x0100,0x5B5B
23.277218189999999,2098,0x0032,0x5B5B
23.277218690000002,2098,0x0140,0x5B5B
23.277219190000000,2098,0x0830,0x5B5B
23.277219689999999,2098,0x0028,0x5B5B
23.277220190000001,2098,0x0E0D,0x5B5B
23.277220690000000,2098,0x0000,0x5B5B
23.277221189999999,2098,0x701B,0x5B5B
23.277221690000001,2098,0x0100,0x5B5B
23.277222190000000,2098,0x005A,0x5B5B
23.277222689999999,2098,0x0000,0x5B5B
23.277223190000001,2098,0x0000,0x5B5B
23.277223690000000,2098,0x0000,0x5B5B
23.277224189999998,2098,0x0018,0x5B5B
23.277224690000001,2098,0x0000,0x5B5B
23.277225189999999,2098,0x0000,0x5B5B
23.277225690000002,2098,0x0000,0x5B5B
23.277226190000000,2098,0x0000,0x5B5B
23.277226689999999,2098,0x0000,0x5B5B
23.277227190000001,2098,0x0000,0x5B5B
23.277227690000000,2098,0x0000,0x5B5B
23.277228189999999,2098,0x0000,0x5B5B
23.277228690000001,2098,0x0000,0x5B5B
23.277229190000000,2098,0x0000,0x5B5B
23.277229689999999,2098,0x0000,0x5B5B
23.277230190000001,2098,0x0000,0x5B5B
23.277230690000000,2098,0x0000,0x5B5B
23.277231189999998,2098,0x0000,0x5B5B
23.277231690000001,2098,0x0000,0x5B5B
23.277232189999999,2098,0x0000,0x5B5B
23.277232690000002,2098,0x0000,0x5B5B
23.277233190000000,2098,0x0000,0x5B5B
23.277233689999999,2098,0x0000,0x5B5B
23.277234190000001,2098,0x0000,0x5B5B
23.277234690000000,2098,0x0000,0x5B5B
23.277235189999999,2098,0x0000,0x5B5B
23.277235690000001,2098,0x0000,0x5B5B
23.277236190000000,2098,0x0000,0x5B5B
23.277236689999999,2098,0x0000,0x5B5B
23.277237190000001,2098,0x0000,0x5B5B
23.277237690000000,2098,0x0000,0x5B5B
23.277238189999998,2098,0x0000,0x5B5B
23.277238690000001,2098,0x0000,0x5B5B
23.277239190000000,2098,0x0000,0x5B5B
23.277239689999998,2098,0x0000,0x5B5B
23.277240190000001,2098,0x0000,0x5B5B
23.277240689999999,2098,0x0000,0x5B5B
23.277241190000002,2098,0x0000,0x5B5B
23.277241690000000,2098,0x0000,0x5B5B
23.277242189999999,2098,0x0000,0x5B5B
23.277242690000001,2098,0x0000,0x5B5B
23.277243190000000,2098,0x0000,0x5B5B
23.277243689999999,2098,0x0000,0x5B5B
23.277244190000001,2098,0x0000,0x5B5B
23.277244690000000,2098,0x0000,0x5B5B
23.277245189999999,2098,0x0000,0x5B5B
23.277245690000001,2098,0x0000,0x5B5B
23.277246190000000,2098,0x0000,0x5B5B
23.277246689999998,2098,0x0000,0x5B5B
23.277247190000001,2098,0x0000,0x5B5B
23.277247689999999,2098,0x0000,0x5B5B
23.277248190000002,2098,0x0000,0x5B5B
23.277248690000000,2098,0x0000,0x5B5B
23.277249189999999,2098,0x0000,0x5B5B
23.277249690000001,2098,0x0000,0x5B5B
23.277250190000000,2098,0x0000,0x5B5B
23.277250689999999,2098,0x0000,0x5B5B
23.277251190000001,2098,0x0000,0x5B5B
23.277251690000000,2098,0x0000,0x5B5B
23.277252189999999,2098,0x0000,0x5B5B
23.277252690000001,2098,0x0000,0x5B5B
23.277253190000000,2098,0x0000,0x5B5B
23.277253689999998,2098,0x0000,0x5B5B
23.277254190000001,2098,0x0000,0x5B5B
23.277254689999999,2098,0x0000,0x5B5B
23.277255190000002,2098,0x0000,0x5B5B
23.277255690000000,2098,0x0000,0x5B5B
23.277256189999999,2098,0x0000,0x5B5B
23.277256690000002,2098,0x0000,0x5B5B
23.277257190000000,2098,0x0000,0x5B5B
23.277257689999999,2098,0x0000,0x5B5B
23.277258190000001,2098,0x0000,0x5B5B
23.277258690000000,2098,0x0000,0x5B5B
23.277259189999999,2098,0x0000,0x5B5B
23.277259690000001,2098,0x0000,0x5B5B
23.277260190000000,2098,0x0000,0x5B5B
23.277260689999999,2098,0x0000,0x5B5B
23.277261190000001,2098,0x0000,0x5B5B
23.277261690000000,2098,0x0000,0x5B5B
23.277262189999998,2098,0x0101,0x5B5B
23.277262690000001,2098,0x0000,0x5B5B
23.277263189999999,2098,0x100F,0x5B5B
23.277263690000002,2098,0x070A,0x5B5B
23.277264190000000,2098,0x0F00,0x5B5B
23.277264689999999,2098,0x1420,0x5B5B
23.277265190000001,2098,0x1010,0x5B5B
23.277265690000000,2098,0x000E,0x5B5B
23.277266189999999,2098,0x1808,0x5B5B
23.277266690000001,2098,0x4608,0x5B5B
23.277267190000000,2098,0x0800,0x5B5B
23.277267689999999,2098,0x1020,0x5B5B
23.277268190000001,2098,0x0408,0x5B5B
23.277268690000000,2098,0x0002,0x5B5B
23.277269189999998,2098,0x1808,0x5B5B
23.277269690000001,2098,0x4608,0x5B5B
23.277270189999999,2098,0x0800,0x5B5B
23.277270690000002,2098,0x1020,0x5B5B
23.277271190000000,2098,0x0408,0x5B5B
23.277271689999999,2098,0x0002,0x5B5B
23.277272190000001,2098,0x0020,0x5B5B
23.277272690000000,2098,0x0015,0x5B5B
23.277273189999999,2098,0x0020,0x5B5B
23.277273690000001,2098,0x0015,0x5B5B
23.277274190000000,2098,0x0070,0x5B5B
23.277274689999999,2098,0x0008,0x5B5B
23.277275190000001,2098,0x0070,0x5B5B
23.277275690000000,2098,0x0008,0x5B5B
23.277276189999998,2098,0x00C0,0x5B5B
23.277276690000001,2098,0x0012,0x5B5B
23.277277190000000,2098,0x0201,0x5B5B
23.277277689999998,2098,0x0000,0x5B5B
23.277278190000001,2098,0x0080,0x5B5B
23.277278689999999,2098,0x0015,0x5B5B
23.277279190000002,2098,0x0080,0x5B5B
23.277279690000000,2098,0x0015,0x5B5B
23.277280189999999,2098,0x0000,0x5B5B
23.277280690000001,2098,0x0000,0x5B5B
23.277281190000000,2098,0x0020,0x5B5B
23.277281689999999,2098,0x0000,0x5B5B
23.277282190000001,2098,0x0100,0x5B5B
23.277282690000000,2098,0x0010,0x5B5B
23.277283189999999,2098,0x100F,0x5B5B
23.277283690000001,2098,0x070A,0x5B5B
23.277284190000000,2098,0x0F00,0x5B5B
23.277284689999998,2098,0x1420,0x5B5B
23.277285190000001,2098,0x1010,0x5B5B
23.277285689999999,2098,0x000E,0x5B5B
23.277286190000002,2098,0x0003,0x5B5B
23.277286690000000,2098,0x0000,0x5B5B
23.277287189999999,2098,0x0000,0x5B5B
23.277287690000001,2098,0x0000,0x5B5B
23.277288190000000,2098,0x0000,0x5B5B
23.277288689999999,2098,0x0000,0x5B5B
23.277289190000001,2098,0x1808,0x5B5B
23.277289690000000,2098,0x4608,0x5B5B
23.277290189999999,2098,0x0800,0x5B5B
23.277290690000001,2098,0x1020,0x5B5B
23.277291190000000,2098,0x0408,0x5B5B
23.277291689999998,2098,0x0002,0x5B5B
23.277292190000001,2098,0xE030,0x5B5B
23.277292689999999,2098,0x0701,0x5B5B
23.277293190000002,2098,0x9000,0x5B5B
23.277293690000000,2098,0x0701,0x5B5B
23.277294189999999,2098,0x5800,0x5B5B
23.277294690000002,2098,0x0702,0x5B5B
23.277295190000000,2098,0x6400,0x5B5B
23.277295689999999,2098,0x2800,0x5B5B
23.277296190000001,2098,0x0000,0x5B5B
23.277296690000000,2098,0x0000,0x5B5B
23.277297189999999,2098,0x0000,0x5B5B
23.277297690000001,2098,0x0000,0x5B5B
23.277298190000000,2098,0x9001,0x5B5B
23.277298689999999,2098,0x0C00,0x5B5B
23.277299190000001,2098,0xD800,0x5B5B
23.277299690000000,2098,0x0701,0x5B5B
23.277300189999998,2098,0x9600,0x5B5B
23.277300690000001,2098,0x0700,0x5B5B
23.277301189999999,2098,0xE002,0x5B5B
23.277301690000002,2098,0x0401,0x5B5B
23.277302190000000,2098,0xC800,0x5B5B
23.277302689999999,2098,0x0700,0x5B5B
23.277303190000001,2098,0x0000,0x5B5B
23.277303690000000,2098,0x0000,0x5B5B
23.277304189999999,2098,0x0000,0x5B5B
23.277304690000001,2098,0x0000,0x5B5B
23.277305190000000,2098,0x1808,0x5B5B
23.277305689999999,2098,0x4608,0x5B5B
23.277306190000001,2098,0x0800,0x5B5B
23.277306690000000,2098,0x1020,0x5B5B
23.277307189999998,2098,0x0408,0x5B5B
23.277307690000001,2098,0x0002,0x5B5B
23.277308189999999,2098,0x0040,0x5B5B
23.277308690000002,2098,0x000C,0x5B5B
23.277309190000000,2098,0x0040,0x5B5B
23.277309689999999,2098,0x000C,0x5B5B
23.277310190000001,2098,0x0000,0x5B5B
23.277310690000000,2098,0x0000,0x5B5B
23.277311189999999,2098,0x0000,0x5B5B
23.277311690000001,2098,0x0000,0x5B5B
23.277312190000000,2098,0x0000,0x5B5B
23.277312689999999,2098,0x0000,0x5B5B
23.277313190000001,2098,0x0808,0x5B5B
23.277313690000000,2098,0x0008,0x5B5B
23.277314189999998,2098,0x1808,0x5B5B
23.277314690000001,2098,0x4608,0x5B5B
23.277315189999999,2098,0x0800,0x5B5B
23.277315689999998,2098,0x1020,0x5B5B
23.277316190000001,2098,0x0408,0x5B5B
23.277316689999999,2098,0x0002,0x5B5B
23.277317190000002,2098,0x1808,0x5B5B
23.277317690000000,2098,0x4608,0x5B5B
23.277318189999999,2098,0x0800,0x5B5B
23.277318690000001,2098,0x1020,0x5B5B
23.277319190000000,2098,0x0408,0x5B5B
23.277319689999999,2098,0x0002,0x5B5B
23.277320190000001,2098,0x0020,0x5B5B
23.277320690000000,2098,0x000B,0x5B5B
23.277321189999999,2098,0x0001,0x5B5B
23.277321690000001,2098,0x0000,0x5B5B
23.277322190000000,2098,0x0000,0x5B5B
23.277322689999998,2098,0x0000,0x5B5B
23.277323190000001,2098,0x0000,0x5B5B
23.277323689999999,2098,0x0000,0x5B5B
23.277324190000002,2098,0x0000,0x5B5B
23.277324690000000,2098,0x0000,0x5B5B
23.277325189999999,2098,0x0200,0x5B5B
23.277325690000001,2098,0x0000,0x5B5B
23.277326190000000,2098,0x0200,0x5B5B
23.277326689999999,2098,0x0000,0x5B5B
23.277327190000001,2098,0x0200,0x5B5B
23.277327690000000,2098,0x0000,0x5B5B
23.277328189999999,2098,0x0000,0x5B5B
23.277328690000001,2098,0x0010,0x5B5B
23.277329190000000,2098,0x0040,0x5B5B
23.277329689999998,2098,0x0000,0x5B5B
23.277330190000001,2098,0x0808,0x5B5B
23.277330689999999,2098,0x0008,0x5B5B
23.277331190000002,2098,0x0000,0x5B5B
23.277331690000000,2098,0x0010,0x5B5B
23.277332189999999,2098,0x0040,0x5B5B
23.277332690000001,2098,0x0000,0x5B5B
23.277333190000000,2098,0x0808,0x5B5B
23.277333689999999,2098,0x0008,0x5B5B
23.277334190000001,2098,0x0000,0x5B5B
23.277334690000000,2098,0x0000,0x5B5B
23.277335189999999,2098,0x04B0,0x5B5B
23.277335690000001,2098,0x0008,0x5B5B
23.277336190000000,2098,0x0348,0x5B5B
23.277336689999998,2098,0x0008,0x5B5B
23.277337190000001,2098,0x0020,0x5B5B
23.277337690000000,2098,0x0000,0x5B5B
23.277338189999998,2098,0x0000,0x5B5B
23.277338690000001,2098,0x0000,0x5B5B
23.277339189999999,2098,0x0000,0x5B5B
23.277339690000002,2098,0x0000,0x5B5B
23.277340190000000,2098,0x0000,0x5B5B
23.277340689999999,2098,0x0000,0x5B5B
23.277341190000001,2098,0x000B,0x5B5B
23.277341690000000,2098,0x1008,0x5B5B
23.277342189999999,2098,0x0500,0x5B5B
23.277342690000001,2098,0x0007,0x5B5B
23.277343190000000,2098,0x0018,0x5B5B
23.277343689999999,2098,0x0000,0x5B5B
23.277344190000001,2098,0x4130,0x5B5B
23.277344690000000,2098,0x1000,0x5B5B
23.277345189999998,2098,0x0000,0x5B5B
23.277345690000001,2098,0x0000,0x5B5B
23.277346189999999,2098,0x0100,0x5B5B
23.277346690000002,2098,0x0000,0x5B5B
23.277347190000000,2098,0x0001,0x5B5B
23.277347689999999,2098,0x0000,0x5B5B
23.277348190000001,2098,0x0000,0x5B5B
23.277348690000000,2098,0x0000,0x5B5B
23.277349189999999,2098,0x0001,0x5B5B
23.277349690000001,2098,0x0000,0x5B5B
23.277350190000000,2098,0x0000,0x5B5B
23.277350689999999,2098,0x0000,0x5B5B
23.277351190000001,2098,0x0000,0x5B5B
23.277351690000000,2098,0x0000,0x5B5B
23.277352189999998,2098,0x0000,0x5B5B
23.277352690000001,2098,0x0000,0x5B5B
23.277353189999999,2098,0x0200,0x5B5B
23.277353690000002,2098,0x0000,0x5B5B
23.277354190000001,2098,0x0200,0x5B5B
23.277354689999999,2098,0x0200,0x5B5B
23.277355190000002,2098,0x0008,0x5B5B
23.277355690000000,2098,0x0008,0x5B5B
23.277356189999999,2098,0x0808,0x5B5B
23.277356690000001,2098,0x3008,0x5B5B
23.277357190000000,2098,0x0000,0x5B5B
23.277357689999999,2098,0x0000,0x5B5B
23.277358190000001,2098,0x0080,0x5B5B
23.277358690000000,2098,0x0060,0x5B5B
23.277359189999999,2098,0x0073,0x5B5B
23.277359690000001,2098,0x002F,0x5B5B
23.277360190000000,2098,0x0026,0x5B5B
23.277360689999998,2098,0x0026,0x5B5B
23.277361190000001,2098,0x0014,0x5B5B
23.277361689999999,2098,0x0058,0x5B5B
23.277362190000002,2098,0x0100,0x5B5B
23.277362690000000,2098,0x01C3,0x5B5B
23.277363189999999,2098,0x02A8,0x5B5B
23.277363690000001,2098,0x0364,0x5B5B
23.277364190000000,2098,0x03B1,0x5B5B
23.277364689999999,2098,0x03D8,0x5B5B
23.277365190000001,2098,0x0058,0x5B5B
23.277365690000000,2098,0x0000,0x5B5B
23.277366189999999,2098,0x0000,0x5B5B
23.277366690000001,2098,0x0000,0x5B5B
23.277367190000000,2098,0x0080,0x5B5B
23.277367689999998,2098,0x0060,0x5B5B
23.277368190000001,2098,0x0073,0x5B5B
23.277368689999999,2098,0x002F,0x5B5B
23.277369190000002,2098,0x0026,0x5B5B
23.277369690000000,2098,0x0026,0x5B5B
23.277370189999999,2098,0x0014,0x5B5B
23.277370690000001,2098,0x0058,0x5B5B
23.277371190000000,2098,0x0100,0x5B5B
23.277371689999999,2098,0x01C3,0x5B5B
23.277372190000001,2098,0x02A8,0x5B5B
23.277372690000000,2098,0x0364,0x5B5B
23.277373189999999,2098,0x03B1,0x5B5B
23.277373690000001,2098,0x03D8,0x5B5B
23.277374190000000,2098,0x0058,0x5B5B
23.277374689999998,2098,0x0000,0x5B5B
23.277375190000001,2098,0x0000,0x5B5B
23.277375690000000,2098,0x0000,0x5B5B
23.277376189999998,2098,0x0000,0x5B5B
23.277376690000001,2098,0x0000,0x5B5B
23.277377189999999,2098,0x0010,0x5B5B
23.277377690000002,2098,0x0000,0x5B5B
23.277378190000000,2098,0x0008,0x5B5B
23.277378689999999,2098,0x0000,0x5B5B
23.277379190000001,2098,0x000A,0x5B5B
23.277379690000000,2098,0x001E,0x5B5B
23.277380189999999,2098,0x0707,0x5B5B
23.277380690000001,2098,0x0000,0x5B5B
23.277381190000000,2098,0x0009,0x5B5B
23.277381689999999,2098,0x001B,0x5B5B
23.277382190000001,2098,0x0008,0x5B5B
23.277382690000000,2098,0x0000,0x5B5B
23.277383189999998,2098,0x000A,0x5B5B
23.277383690000001,2098,0x0028,0x5B5B
23.277384189999999,2098,0x0404,0x5B5B
23.277384690000002,2098,0x0000,0x5B5B
23.277385190000000,2098,0x0005,0x5B5B
23.277385689999999,2098,0x0014,0x5B5B
23.277386190000001,2098,0x0008,0x5B5B
23.277386690000000,2098,0x0000,0x5B5B
23.277387189999999,2098,0x000A,0x5B5B
23.277387690000001,2098,0x001E,0x5B5B
23.277388190000000,2098,0x0707,0x5B5B
23.277388689999999,2098,0x0000,0x5B5B
23.277389190000001,2098,0x0009,0x5B5B
23.277389690000000,2098,0x001B,0x5B5B
23.277390189999998,2098,0x0008,0x5B5B
23.277390690000001,2098,0x0000,0x5B5B
23.277391189999999,2098,0x0014,0x5B5B
23.277391690000002,2098,0x0020,0x5B5B
23.277392190000000,2098,0x0F0F,0x5B5B
23.277392689999999,2098,0x0000,0x5B5B
23.277393190000002,2098,0x0026,0x5B5B
23.277393690000000,2098,0x003E,0x5B5B
23.277394189999999,2098,0x000A,0x5B5B
23.277394690000001,2098,0x0000,0x5B5B
23.277395190000000,2098,0x0010,0x5B5B
23.277395689999999,2098,0x0028,0x5B5B
23.277396190000001,2098,0x0402,0x5B5B
23.277396690000000,2098,0x0000,0x5B5B
23.277397189999999,2098,0x0004,0x5B5B
23.277397690000001,2098,0x0010,0x5B5B
23.277398190000000,2098,0x0000,0x5B5B
23.277398689999998,2098,0x0000,0x5B5B
23.277399190000001,2098,0x0000,0x5B5B
23.277399689999999,2098,0x0000,0x5B5B
23.277400190000002,2098,0x0000,0x5B5B
23.277400690000000,2098,0x0000,0x5B5B
23.277401189999999,2098,0x0031,0x5B5B
23.277401690000001,2098,0x01B8,0x5B5B
23.277402190000000,2098,0x0A10,0x5B5B
23.277402689999999,2098,0x002A,0x5B5B
23.277403190000001,2098,0x010F,0x5B5B
23.277403690000000,2098,0x0000,0x5B5B
23.277404189999999,2098,0x701F,0x5B5B
23.277404690000001,2098,0x0100,0x5B5B
23.277405190000000,2098,0x0032,0x5B5B
23.277405689999998,2098,0x0140,0x5B5B
23.277406190000001,2098,0x0830,0x5B5B
23.277406689999999,2098,0x0028,0x5B5B
23.277407190000002,2098,0x0E0D,0x5B5B
23.277407690000000,2098,0x0000,0x5B5B
23.277408189999999,2098,0x701B,0x5B5B
23.277408690000001,2098,0x0100,0x5B5B
23.277409190000000,2098,0x005A,0x5B5B
23.277409689999999,2098,0x0000,0x5B5B
23.277410190000001,2098,0x0000,0x5B5B
23.277410690000000,2098,0x0000,0x5B5B
23.277411189999999,2098,0x0011,0x5B5B
23.277411690000001,2098,0x0000,0x5B5B
23.277412190000000,2098,0x0000,0x5B5B
23.277412689999998,2098,0x0000,0x5B5B
23.277413190000001,2098,0x0000,0x5B5B
23.277413689999999,2098,0x0000,0x5B5B
23.277414189999998,2098,0x0000,0x5B5B
23.277414690000001,2098,0x0000,0x5B5B
23.277415189999999,2098,0x0000,0x5B5B
23.277415690000002,2098,0x0000,0x5B5B
23.277416190000000,2098,0x0000,0x5B5B
23.277416689999999,2098,0x0000,0x5B5B
23.277417190000001,2098,0x0200,0x5B5B
23.277417690000000,2098,0x0000,0x5B5B
23.277418189999999,2098,0x0200,0x5B5B
23.277418690000001,2098,0x0200,0x5B5B
23.277419190000000,2098,0x0203,0x5B5B
23.277419689999999,2098,0x0203,0x5B5B
23.277420190000001,2098,0x0606,0x5B5B
23.277420690000000,2098,0x0606,0x5B5B
23.277421189999998,2098,0x0000,0x5B5B
23.277421690000001,2098,0x0000,0x5B5B
23.277422189999999,2098,0x0080,0x5B5B
23.277422690000002,2098,0x0060,0x5B5B
23.277423190000000,2098,0x0073,0x5B5B
23.277423689999999,2098,0x002F,0x5B5B
23.277424190000001,2098,0x0026,0x5B5B
23.277424690000000,2098,0x0026,0x5B5B
23.277425189999999,2098,0x0014,0x5B5B
23.277425690000001,2098,0x0058,0x5B5B
23.277426190000000,2098,0x0100,0x5B5B
23.277426689999999,2098,0x01C3,0x5B5B
23.277427190000001,2098,0x02A8,0x5B5B
23.277427690000000,2098,0x0364,0x5B5B
23.277428189999998,2098,0x03B1,0x5B5B
23.277428690000001,2098,0x03D8,0x5B5B
23.277429189999999,2098,0x0058,0x5B5B
23.277429690000002,2098,0x0000,0x5B5B
23.277430190000000,2098,0x0000,0x5B5B
23.277430689999999,2098,0x0000,0x5B5B
23.277431190000001,2098,0x0080,0x5B5B
23.277431690000000,2098,0x0060,0x5B5B
23.277432189999999,2098,0x0073,0x5B5B
23.277432690000001,2098,0x002F,0x5B5B
23.277433190000000,2098,0x0026,0x5B5B
23.277433689999999,2098,0x0026,0x5B5B
23.277434190000001,2098,0x0014,0x5B5B
23.277434690000000,2098,0x0058,0x5B5B
23.277435189999998,2098,0x0100,0x5B5B
23.277435690000001,2098,0x01C3,0x5B5B
23.277436190000000,2098,0x02A8,0x5B5B
23.277436689999998,2098,0x0364,0x5B5B
23.277437190000001,2098,0x03B1,0x5B5B
23.277437689999999,2098,0x03D8,0x5B5B
23.277438190000002,2098,0x0058,0x5B5B
23.277438690000000,2098,0x0000,0x5B5B
23.277439189999999,2098,0x0000,0x5B5B
23.277439690000001,2098,0x0000,0x5B5B
23.277440190000000,2098,0x0000,0x5B5B
23.277440689999999,2098,0x0000,0x5B5B
23.277441190000001,2098,0x0010,0x5B5B
23.277441690000000,2098,0x0000,0x5B5B
23.277442189999999,2098,0x0008,0x5B5B
23.277442690000001,2098,0x0000,0x5B5B
23.277443190000000,2098,0x000A,0x5B5B
23.277443689999998,2098,0x0016,0x5B5B
23.277444190000001,2098,0x0504,0x5B5B
23.277444689999999,2098,0x0008,0x5B5B
23.277445190000002,2098,0x0005,0x5B5B
23.277445690000000,2098,0x000D,0x5B5B
23.277446189999999,2098,0x0008,0x5B5B
23.277446690000001,2098,0x0000,0x5B5B
23.277447190000000,2098,0x000A,0x5B5B
23.277447689999999,2098,0x0016,0x5B5B
23.277448190000001,2098,0x0504,0x5B5B
23.277448690000000,2098,0x0008,0x5B5B
23.277449189999999,2098,0x0005,0x5B5B
23.277449690000001,2098,0x000D,0x5B5B
23.277450190000000,2098,0x0008,0x5B5B
23.277450689999998,2098,0x0000,0x5B5B
23.277451190000001,2098,0x000A,0x5B5B
23.277451689999999,2098,0x0016,0x5B5B
23.277452190000002,2098,0x0504,0x5B5B
23.277452690000001,2098,0x0008,0x5B5B
23.277453189999999,2098,0x0005,0x5B5B
23.277453690000002,2098,0x000D,0x5B5B
23.277454190000000,2098,0x0008,0x5B5B
23.277454689999999,2098,0x0000,0x5B5B
23.277455190000001,2098,0x000A,0x5B5B
23.277455690000000,2098,0x0016,0x5B5B
23.277456189999999,2098,0x0504,0x5B5B
23.277456690000001,2098,0x0008,0x5B5B
23.277457190000000,2098,0x0005,0x5B5B
23.277457689999999,2098,0x000D,0x5B5B
23.277458190000001,2098,0x000A,0x5B5B
23.277458690000000,2098,0x0000,0x5B5B
23.277459189999998,2098,0x000A,0x5B5B
23.277459690000001,2098,0x0016,0x5B5B
23.277460189999999,2098,0x0504,0x5B5B
23.277460690000002,2098,0x0008,0x5B5B
23.277461190000000,2098,0x0005,0x5B5B
23.277461689999999,2098,0x000D,0x5B5B
23.277462190000001,2098,0x0010,0x5B5B
23.277462690000000,2098,0x0000,0x5B5B
23.277463189999999,2098,0x000A,0x5B5B
23.277463690000001,2098,0x0016,0x5B5B
23.277464190000000,2098,0x0504,0x5B5B
23.277464689999999,2098,0x0008,0x5B5B
23.277465190000001,2098,0x0005,0x5B5B
23.277465690000000,2098,0x000D,0x5B5B
23.277466189999998,2098,0x0010,0x5B5B
23.277466690000001,2098,0x0000,0x5B5B
23.277467189999999,2098,0x000A,0x5B5B
23.277467690000002,2098,0x0016,0x5B5B
23.277468190000000,2098,0x0504,0x5B5B
23.277468689999999,2098,0x0008,0x5B5B
23.277469190000001,2098,0x0005,0x5B5B
23.277469690000000,2098,0x000D,0x5B5B
23.277470189999999,2098,0x0010,0x5B5B
23.277470690000001,2098,0x0000,0x5B5B
23.277471190000000,2098,0x000A,0x5B5B
23.277471689999999,2098,0x0016,0x5B5B
23.277472190000001,2098,0x0504,0x5B5B
23.277472690000000,2098,0x0008,0x5B5B
23.277473189999998,2098,0x0005,0x5B5B
23.277473690000001,2098,0x000D,0x5B5B
23.277474190000000,2098,0x0000,0x5B5B
23.277474689999998,2098,0x0000,0x5B5B
23.277475190000001,2098,0x0000,0x5B5B
23.277475689999999,2098,0x0000,0x5B5B
23.277476190000002,2098,0x0000,0x5B5B
23.277476690000000,2098,0x0000,0x5B5B
23.277477189999999,2098,0x0031,0x5B5B
23.277477690000001,2098,0x0190,0x5B5B
23.277478190000000,2098,0x0F50,0x5B5B
23.277478689999999,2098,0x0050,0x5B5B
23.277479190000001,2098,0x0200,0x5B5B
23.277479690000000,2098,0x0000,0x5B5B
23.277480189999999,2098,0x900F,0x5B5B
23.277480690000001,2098,0x0100,0x5B5B
23.277481190000000,2098,0x0031,0x5B5B
23.277481689999998,2098,0x0190,0x5B5B
23.277482190000001,2098,0x0F50,0x5B5B
23.277482689999999,2098,0x0050,0x5B5B
23.277483190000002,2098,0x0200,0x5B5B
23.277483690000000,2098,0x0000,0x5B5B
23.277484189999999,2098,0x900F,0x5B5B
23.277484690000001,2098,0x0100,0x5B5B
23.277485190000000,2098,0x005A,0x5B5B
23.277485689999999,2098,0x0000,0x5B5B
23.277486190000001,2098,0x0000,0x5B5B
23.277486690000000,2098,0x0000,0x5B5B
23.277487189999999,2098,0x0000,0x5B5B
23.277487690000001,2098,0x0000,0x5B5B
23.277488190000000,2098,0x0000,0x5B5B
23.277488689999998,2098,0x0000,0x5B5B
23.277489190000001,2098,0x0000,0x5B5B
23.277489689999999,2098,0x0000,0x5B5B
23.277490190000002,2098,0x0000,0x5B5B
23.277490690000000,2098,0x0000,0x5B5B
23.277491189999999,2098,0x0000,0x5B5B
23.277491690000002,2098,0x0000,0x5B5B
23.277492190000000,2098,0x0000,0x5B5B
23.277492689999999,2098,0x0000,0x5B5B
23.277493190000001,2098,0x0011,0x5B5B
23.277493690000000,2098,0x0000,0x5B5B
23.277494189999999,2098,0x0000,0x5B5B
23.277494690000001,2098,0x0000,0x5B5B
23.277495190000000,2098,0x0000,0x5B5B
23.277495689999999,2098,0x0000,0x5B5B
23.277496190000001,2098,0x0000,0x5B5B
23.277496690000000,2098,0x0000,0x5B5B
23.277497189999998,2098,0x0001,0x5B5B
23.277497690000001,2098,0x0000,0x5B5B
23.277498189999999,2098,0x0000,0x5B5B
23.277498690000002,2098,0x0000,0x5B5B
23.277499190000000,2098,0x0000,0x5B5B
23.277499689999999,2098,0x0000,0x5B5B
23.277500190000001,2098,0x0000,0x5B5B
23.277500690000000,2098,0x0000,0x5B5B
23.277501189999999,2098,0x0000,0x5B5B
23.277501690000001,2098,0x0000,0x5B5B
23.277502190000000,2098,0x0000,0x5B5B
23.277502689999999,2098,0x0000,0x5B5B
23.277503190000001,2098,0x0000,0x5B5B
23.277503690000000,2098,0x0000,0x5B5B
23.277504189999998,2098,0x0000,0x5B5B
23.277504690000001,2098,0x0000,0x5B5B
23.277505189999999,2098,0x0000,0x5B5B
23.277505690000002,2098,0x0000,0x5B5B
23.277506190000000,2098,0x0000,0x5B5B
23.277506689999999,2098,0x0000,0x5B5B
23.277507190000001,2098,0x0000,0x5B5B
23.277507690000000,2098,0x0000,0x5B5B
23.277508189999999,2098,0x0000,0x5B5B
23.277508690000001,2098,0x0000,0x5B5B
23.277509190000000,2098,0x0000,0x5B5B
23.277509689999999,2098,0x0000,0x5B5B
23.277510190000001,2098,0x0002,0x5B5B
23.277510690000000,2098,0x0080,0x5B5B
23.277511189999998,2098,0x0020,0x5B5B
23.277511690000001,2098,0x0000,0x5B5B
23.277512189999999,2098,0x343F,0x5B5B
23.277512689999998,2098,0x313B,0x5B5B
23.277513190000001,2098,0x0F10,0x5B5B
23.277513689999999,2098,0x000A,0x5B5B
23.277514190000002,2098,0x003F,0x5B5B
23.277514690000000,2098,0x0073,0x5B5B
23.277515189999999,2098,0x00AE,0x5B5B
23.277515690000001,2098,0x00DF,0x5B5B
23.277516190000000,2098,0x00EF,0x5B5B
23.277516689999999,2098,0x00FE,0x5B5B
23.277517190000001,2098,0x0000,0x5B5B
23.277517690000000,2098,0x0000,0x5B5B
23.277518189999999,2098,0x0000,0x5B5B
23.277518690000001,2098,0x0000,0x5B5B
23.277519190000000,2098,0x0000,0x5B5B
23.277519689999998,2098,0x0000,0x5B5B
23.277520190000001,2098,0x0000,0x5B5B
23.277520689999999,2098,0x0000,0x5B5B
23.277521190000002,2098,0x0000,0x5B5B
23.277521690000000,2098,0x0000,0x5B5B
23.277522189999999,2098,0x0000,0x5B5B
23.277522690000001,2098,0x0000,0x5B5B
23.277523190000000,2098,0x0000,0x5B5B
23.277523689999999,2098,0x0000,0x5B5B
23.277524190000001,2098,0x0000,0x5B5B
23.277524690000000,2098,0x0000,0x5B5B
23.277525189999999,2098,0x0000,0x5B5B
23.277525690000001,2098,0x0000,0x5B5B
23.277526190000000,2098,0x0000,0x5B5B
23.277526689999998,2098,0x0000,0x5B5B
23.277527190000001,2098,0x0000,0x5B5B
23.277527689999999,2098,0x0000,0x5B5B
23.277528190000002,2098,0x0000,0x5B5B
23.277528690000000,2098,0x0000,0x5B5B
23.277529189999999,2098,0x0000,0x5B5B
23.277529690000001,2098,0x0000,0x5B5B
23.277530190000000,2098,0x0000,0x5B5B
23.277530689999999,2098,0x0000,0x5B5B
23.277531190000001,2098,0x0000,0x5B5B
23.277531690000000,2098,0x0000,0x5B5B
23.277532189999999,2098,0x0000,0x5B5B
23.277532690000001,2098,0x0000,0x5B5B
23.277533190000000,2098,0x0000,0x5B5B
23.277533689999999,2098,0x0000,0x5B5B
23.277534190000001,2098,0x03E3,0x5B5B
23.277534690000000,2098,0x00B3,0x5B5B
23.277535189999998,2098,0x03E3,0x5B5B
23.277535690000001,2098,0x03B3,0x5B5B
23.277536189999999,2098,0x00E3,0x5B5B
23.277536690000002,2098,0x03B3,0x5B5B
23.277537190000000,2098,0x0002,0x5B5B
23.277537689999999,2098,0x0200,0x5B5B
23.277538190000001,2098,0x0048,0x5B5B
23.277538690000000,2098,0x0000,0x5B5B
23.277539189999999,2098,0x0028,0x5B5B
23.277539690000001,2098,0x0048,0x5B5B
23.277540190000000,2098,0x004D,0x5B5B
23.277540689999999,2098,0x0050,0x5B5B
23.277541190000001,2098,0x0055,0x5B5B
23.277541690000000,2098,0x0058,0x5B5B
23.277542189999998,2098,0x005D,0x5B5B
23.277542690000001,2098,0x0060,0x5B5B
23.277543189999999,2098,0x0065,0x5B5B
23.277543690000002,2098,0x0068,0x5B5B
23.277544190000000,2098,0x006D,0x5B5B
23.277544689999999,2098,0x0070,0x5B5B
23.277545190000001,2098,0x0075,0x5B5B
23.277545690000000,2098,0x0078,0x5B5B
23.277546189999999,2098,0xBDAB,0x5B5B
23.277617566000000,2099,0x4D00,0x5B5B
23.277633034000001,2100,0x001F,0x5B5B
23.278548784000002,2101,0xC200,0x5B5B
23.278565409999999,2102,0x0000,0x0C5B
23.278599690000000,2103,0x4D00,0x5B5B
23.278614566000002,2104,0x001E,0x5B5B
23.278630066000002,2105,0x4100,0x5B5B
23.278644157999999,2106,0x0600,0x5B5B
23.278659502000000,2107,0x0A00,0x5B5B
23.278851628000002,2108,0x0002,0x5B5B
23.278852128000000,2108,0x05F8,0x5B5B
23.278852627999999,2108,0x0800,0x5B5B
23.278853128000002,2108,0x0000,0x5B5B
23.278853628000000,2108,0xA000,0x5B5B
23.278854127999999,2108,0x0000,0x5B5B
23.278854628000001,2108,0x1A2C,0x5B5B
23.278855128000000,2108,0x60A7,0x5B5B
23.278855627999999,2108,0x5E98,0x5B5B
23.278856128000001,2108,0x3E6D,0x5B5B
23.278856628000000,2108,0x030C,0x5B5B
23.278857127999999,2108,0x44BC,0x5B5B
23.278857628000001,2108,0x8E9C,0x5B5B
23.278858128000000,2108,0x0045,0x5B5B
23.278858627999998,2108,0x05A6,0x5B5B
23.278859128000001,2108,0x0000,0x5B5B
23.278859627999999,2108,0x0000,0x5B5B
23.278860128000002,2108,0x0000,0x5B5B
23.278860628000000,2108,0x0000,0x5B5B
23.278861127999999,2108,0x0000,0x5B5B
23.278861628000001,2108,0x0000,0x5B5B
23.278862128000000,2108,0x0000,0x5B5B
23.278862627999999,2108,0x0000,0x5B5B
23.278863128000001,2108,0x0000,0x5B5B
23.278863628000000,2108,0x0000,0x5B5B
23.278864127999999,2108,0x0000,0x5B5B
23.278864628000001,2108,0x0000,0x5B5B
23.278865128000000,2108,0x0000,0x5B5B
23.278865627999998,2108,0x0000,0x5B5B
23.278866128000001,2108,0x0000,0x5B5B
23.278866627999999,2108,0x0000,0x5B5B
23.278867128000002,2108,0x0000,0x5B5B
23.278867628000000,2108,0x0000,0x5B5B
23.278868127999999,2108,0x0000,0x5B5B
23.278868628000001,2108,0x0000,0x5B5B
23.278869128000000,2108,0x0000,0x5B5B
23.278869627999999,2108,0x0000,0x5B5B
23.278870128000001,2108,0x0000,0x5B5B
23.278870628000000,2108,0x0000,0x5B5B
23.278871127999999,2108,0x0000,0x5B5B
23.278871628000001,2108,0x0000,0x5B5B
23.278872128000000,2108,0x0000,0x5B5B
23.278872627999998,2108,0x0000,0x5B5B
23.278873128000001,2108,0x0000,0x5B5B
23.278873627999999,2108,0x007D,0x5B5B
23.278874128000002,2108,0x0080,0x5B5B
23.278874628000001,2108,0x0048,0x5B5B
23.278875127999999,2108,0x0068,0x5B5B
23.278875628000002,2108,0x006B,0x5B5B
23.278876128000000,2108,0x0048,0x5B5B
23.278876627999999,2108,0x0049,0x5B5B
23.278877128000001,2108,0x004C,0x5B5B
23.278877628000000,2108,0x004E,0x5B5B
23.278878127999999,2108,0x0051,0x5B5B
23.278878628000001,2108,0x0055,0x5B5B
23.278879128000000,2108,0x0059,0x5B5B
23.278879627999999,2108,0x005C,0x5B5B
23.278880128000001,2108,0x005E,0x5B5B
23.278880628000000,2108,0x005E,0x5B5B
23.278881127999998,2108,0x005E,0x5B5B
23.278881628000001,2108,0x0048,0x5B5B
23.278882127999999,2108,0x005C,0x5B5B
23.278882628000002,2108,0x005E,0x5B5B
23.278883128000000,2108,0x0064,0x5B5B
23.278883627999999,2108,0x006C,0x5B5B
23.278884128000001,2108,0x0071,0x5B5B
23.278884628000000,2108,0x0076,0x5B5B
23.278885127999999,2108,0x007C,0x5B5B
23.278885628000001,2108,0x0081,0x5B5B
23.278886128000000,2108,0x0048,0x5B5B
23.278886627999999,2108,0x005C,0x5B5B
23.278887128000001,2108,0x005E,0x5B5B
23.278887628000000,2108,0x0064,0x5B5B
23.278888127999998,2108,0x006C,0x5B5B
23.278888628000001,2108,0x0071,0x5B5B
23.278889127999999,2108,0x0076,0x5B5B
23.278889628000002,2108,0x007C,0x5B5B
23.278890128000000,2108,0x0081,0x5B5B
23.278890627999999,2108,0x0048,0x5B5B
23.278891128000001,2108,0x005C,0x5B5B
23.278891628000000,2108,0x005E,0x5B5B
23.278892127999999,2108,0x0064,0x5B5B
23.278892628000001,2108,0x006C,0x5B5B
23.278893128000000,2108,0x0071,0x5B5B
23.278893627999999,2108,0x0076,0x5B5B
23.278894128000001,2108,0x007C,0x5B5B
23.278894628000000,2108,0x0081,0x5B5B
23.278895127999998,2108,0x0048,0x5B5B
23.278895628000001,2108,0x005C,0x5B5B
23.278896128000000,2108,0x005E,0x5B5B
23.278896627999998,2108,0x0064,0x5B5B
23.278897128000001,2108,0x006C,0x5B5B
23.278897627999999,2108,0x0071,0x5B5B
23.278898128000002,2108,0x0076,0x5B5B
23.278898628000000,2108,0x007C,0x5B5B
23.278899127999999,2108,0x0081,0x5B5B
23.278899628000001,2108,0x0048,0x5B5B
23.278900128000000,2108,0x005C,0x5B5B
23.278900627999999,2108,0x005E,0x5B5B
23.278901128000001,2108,0x0064,0x5B5B
23.278901628000000,2108,0x006C,0x5B5B
23.278902127999999,2108,0x0071,0x5B5B
23.278902628000001,2108,0x0076,0x5B5B
23.278903128000000,2108,0x007C,0x5B5B
23.278903627999998,2108,0x0081,0x5B5B
23.278904128000001,2108,0x0048,0x5B5B
23.278904627999999,2108,0x005C,0x5B5B
23.278905128000002,2108,0x005E,0x5B5B
23.278905628000000,2108,0x0064,0x5B5B
23.278906127999999,2108,0x006C,0x5B5B
23.278906628000001,2108,0x0074,0x5B5B
23.278907128000000,2108,0x0076,0x5B5B
23.278907627999999,2108,0x007C,0x5B5B
23.278908128000001,2108,0x0081,0x5B5B
23.278908628000000,2108,0x0048,0x5B5B
23.278909127999999,2108,0x005C,0x5B5B
23.278909628000001,2108,0x005E,0x5B5B
23.278910128000000,2108,0x0064,0x5B5B
23.278910627999998,2108,0x006C,0x5B5B
23.278911128000001,2108,0x0071,0x5B5B
23.278911627999999,2108,0x0076,0x5B5B
23.278912128000002,2108,0x007C,0x5B5B
23.278912628000000,2108,0x0081,0x5B5B
23.278913127999999,2108,0x0048,0x5B5B
23.278913628000002,2108,0x005C,0x5B5B
23.278914128000000,2108,0x005E,0x5B5B
23.278914627999999,2108,0x0064,0x5B5B
23.278915128000001,2108,0x006C,0x5B5B
23.278915628000000,2108,0x0071,0x5B5B
23.278916127999999,2108,0x0076,0x5B5B
23.278916628000001,2108,0x007C,0x5B5B
23.278917128000000,2108,0x0081,0x5B5B
23.278917627999999,2108,0x0048,0x5B5B
23.278918128000001,2108,0x005C,0x5B5B
23.278918628000000,2108,0x005E,0x5B5B
23.278919127999998,2108,0x0064,0x5B5B
23.278919628000001,2108,0x006C,0x5B5B
23.278920127999999,2108,0x0071,0x5B5B
23.278920628000002,2108,0x0076,0x5B5B
23.278921128000000,2108,0x007C,0x5B5B
23.278921627999999,2108,0x0081,0x5B5B
23.278922128000001,2108,0x0048,0x5B5B
23.278922628000000,2108,0x005C,0x5B5B
23.278923127999999,2108,0x005E,0x5B5B
23.278923628000001,2108,0x0064,0x5B5B
23.278924128000000,2108,0x006C,0x5B5B
23.278924627999999,2108,0x0071,0x5B5B
23.278925128000001,2108,0x0076,0x5B5B
23.278925628000000,2108,0x007C,0x5B5B
23.278926127999998,2108,0x0081,0x5B5B
23.278926628000001,2108,0x0048,0x5B5B
23.278927127999999,2108,0x005C,0x5B5B
23.278927628000002,2108,0x005E,0x5B5B
23.278928128000000,2108,0x0064,0x5B5B
23.278928627999999,2108,0x006C,0x5B5B
23.278929128000001,2108,0x0071,0x5B5B
23.278929628000000,2108,0x0076,0x5B5B
23.278930127999999,2108,0x007C,0x5B5B
23.278930628000001,2108,0x0081,0x5B5B
23.278931128000000,2108,0x0048,0x5B5B
23.278931627999999,2108,0x005C,0x5B5B
23.278932128000001,2108,0x005E,0x5B5B
23.278932628000000,2108,0x0064,0x5B5B
23.278933127999998,2108,0x006C,0x5B5B
23.278933628000001,2108,0x0074,0x5B5B
23.278934128000000,2108,0x0076,0x5B5B
23.278934627999998,2108,0x007C,0x5B5B
23.278935128000001,2108,0x0081,0x5B5B
23.278935627999999,2108,0x0048,0x5B5B
23.278936128000002,2108,0x005C,0x5B5B
23.278936628000000,2108,0x005E,0x5B5B
23.278937127999999,2108,0x0064,0x5B5B
23.278937628000001,2108,0x006C,0x5B5B
23.278938128000000,2108,0x0071,0x5B5B
23.278938627999999,2108,0x0076,0x5B5B
23.278939128000001,2108,0x007C,0x5B5B
23.278939628000000,2108,0x0081,0x5B5B
23.278940127999999,2108,0x0048,0x5B5B
23.278940628000001,2108,0x005C,0x5B5B
23.278941128000000,2108,0x005E,0x5B5B
23.278941627999998,2108,0x0064,0x5B5B
23.278942128000001,2108,0x006C,0x5B5B
23.278942627999999,2108,0x0071,0x5B5B
23.278943128000002,2108,0x0076,0x5B5B
23.278943628000000,2108,0x007C,0x5B5B
23.278944127999999,2108,0x0081,0x5B5B
23.278944628000001,2108,0x0048,0x5B5B
23.278945128000000,2108,0x005C,0x5B5B
23.278945627999999,2108,0x005E,0x5B5B
23.278946128000001,2108,0x0064,0x5B5B
23.278946628000000,2108,0x006C,0x5B5B
23.278947127999999,2108,0x0071,0x5B5B
23.278947628000001,2108,0x0076,0x5B5B
23.278948128000000,2108,0x007C,0x5B5B
23.278948627999998,2108,0x0081,0x5B5B
23.278949128000001,2108,0x0048,0x5B5B
23.278949627999999,2108,0x005C,0x5B5B
23.278950128000002,2108,0x005E,0x5B5B
23.278950628000000,2108,0x0064,0x5B5B
23.278951127999999,2108,0x006C,0x5B5B
23.278951628000002,2108,0x0071,0x5B5B
23.278952128000000,2108,0x0076,0x5B5B
23.278952627999999,2108,0x007C,0x5B5B
23.278953128000001,2108,0x0081,0x5B5B
23.278953628000000,2108,0x0048,0x5B5B
23.278954127999999,2108,0x005C,0x5B5B
23.278954628000001,2108,0x005E,0x5B5B
23.278955128000000,2108,0x0064,0x5B5B
23.278955627999999,2108,0x006C,0x5B5B
23.278956128000001,2108,0x0071,0x5B5B
23.278956628000000,2108,0x0076,0x5B5B
23.278957127999998,2108,0x007C,0x5B5B
23.278957628000001,2108,0x0081,0x5B5B
23.278958127999999,2108,0x0048,0x5B5B
23.278958628000002,2108,0x005C,0x5B5B
23.278959128000000,2108,0x005E,0x5B5B
23.278959627999999,2108,0x0064,0x5B5B
23.278960128000001,2108,0x006C,0x5B5B
23.278960628000000,2108,0x0071,0x5B5B
23.278961127999999,2108,0x0076,0x5B5B
23.278961628000001,2108,0x007C,0x5B5B
23.278962128000000,2108,0x0081,0x5B5B
23.278962627999999,2108,0x0048,0x5B5B
23.278963128000001,2108,0x005C,0x5B5B
23.278963628000000,2108,0x005E,0x5B5B
23.278964127999998,2108,0x0064,0x5B5B
23.278964628000001,2108,0x006C,0x5B5B
23.278965127999999,2108,0x0071,0x5B5B
23.278965628000002,2108,0x0076,0x5B5B
23.278966128000000,2108,0x007C,0x5B5B
23.278966627999999,2108,0x0081,0x5B5B
23.278967128000001,2108,0x0048,0x5B5B
23.278967628000000,2108,0x005C,0x5B5B
23.278968127999999,2108,0x005E,0x5B5B
23.278968628000001,2108,0x0064,0x5B5B
23.278969128000000,2108,0x006C,0x5B5B
23.278969627999999,2108,0x0071,0x5B5B
23.278970128000001,2108,0x0076,0x5B5B
23.278970628000000,2108,0x007C,0x5B5B
23.278971127999998,2108,0x0081,0x5B5B
23.278971628000001,2108,0x006B,0x5B5B
23.278972127999999,2108,0x0064,0x5B5B
23.278972627999998,2108,0x0081,0x5B5B
23.278973128000001,2108,0x0000,0x5B5B
23.278973627999999,2108,0x0000,0x5B5B
23.278974128000002,2108,0x0000,0x5B5B
23.278974628000000,2108,0x0000,0x5B5B
23.278975127999999,2108,0x0000,0x5B5B
23.278975628000001,2108,0x0000,0x5B5B
23.278976128000000,2108,0x0000,0x5B5B
23.278976627999999,2108,0x0000,0x5B5B
23.278977128000001,2108,0x0000,0x5B5B
23.278977628000000,2108,0x0068,0x5B5B
23.278978127999999,2108,0x0070,0x5B5B
23.278978628000001,2108,0x0078,0x5B5B
23.278979128000000,2108,0x0080,0x5B5B
23.278979627999998,2108,0x0000,0x5B5B
23.278980128000001,2108,0x0000,0x5B5B
23.278980627999999,2108,0x0000,0x5B5B
23.278981128000002,2108,0x0001,0x5B5B
23.278981628000000,2108,0x0001,0x5B5B
23.278982127999999,2108,0x0000,0x5B5B
23.278982628000001,2108,0x0000,0x5B5B
23.278983128000000,2108,0x0001,0x5B5B
23.278983627999999,2108,0x0002,0x5B5B
23.278984128000001,2108,0x0003,0x5B5B
23.278984628000000,2108,0x0004,0x5B5B
23.278985127999999,2108,0x0000,0x5B5B
23.278985628000001,2108,0x0000,0x5B5B
23.278986128000000,2108,0x0000,0x5B5B
23.278986627999998,2108,0x0001,0x5B5B
23.278987128000001,2108,0x0001,0x5B5B
23.278987627999999,2108,0x0002,0x5B5B
23.278988128000002,2108,0x0003,0x5B5B
23.278988628000000,2108,0x0001,0x5B5B
23.278989127999999,2108,0x0001,0x5B5B
23.278989628000001,2108,0x0002,0x5B5B
23.278990128000000,2108,0x0003,0x5B5B
23.278990627999999,2108,0x0001,0x5B5B
23.278991128000001,2108,0x0001,0x5B5B
23.278991628000000,2108,0x0002,0x5B5B
23.278992127999999,2108,0x0003,0x5B5B
23.278992628000001,2108,0x0001,0x5B5B
23.278993128000000,2108,0x0002,0x5B5B
23.278993627999998,2108,0x0002,0x5B5B
23.278994128000001,2108,0x0003,0x5B5B
23.278994628000000,2108,0x0001,0x5B5B
23.278995127999998,2108,0x0002,0x5B5B
23.278995628000001,2108,0x0002,0x5B5B
23.278996127999999,2108,0x0003,0x5B5B
23.278996628000002,2108,0x0001,0x5B5B
23.278997128000000,2108,0x0002,0x5B5B
23.278997627999999,2108,0x0002,0x5B5B
23.278998128000001,2108,0x0003,0x5B5B
23.278998628000000,2108,0x0001,0x5B5B
23.278999127999999,2108,0x0002,0x5B5B
23.278999628000001,2108,0x0002,0x5B5B
23.279000128000000,2108,0x0003,0x5B5B
23.279000627999999,2108,0x0001,0x5B5B
23.279001128000001,2108,0x0002,0x5B5B
23.279001628000000,2108,0x0000,0x5B5B
23.279002127999998,2108,0x0001,0x5B5B
23.279002628000001,2108,0x0002,0x5B5B
23.279003127999999,2108,0x0003,0x5B5B
23.279003628000002,2108,0x0004,0x5B5B
23.279004128000000,2108,0x0005,0x5B5B
23.279004627999999,2108,0x0006,0x5B5B
23.279005128000001,2108,0x0007,0x5B5B
23.279005628000000,2108,0x0000,0x5B5B
23.279006127999999,2108,0x0001,0x5B5B
23.279006628000001,2108,0x0002,0x5B5B
23.279007128000000,2108,0x0003,0x5B5B
23.279007627999999,2108,0x0004,0x5B5B
23.279008128000001,2108,0x0005,0x5B5B
23.279008628000000,2108,0x0006,0x5B5B
23.279009127999998,2108,0x0007,0x5B5B
23.279009628000001,2108,0x0000,0x5B5B
23.279010127999999,2108,0x0001,0x5B5B
23.279010628000002,2108,0x0002,0x5B5B
23.279011128000000,2108,0x0003,0x5B5B
23.279011627999999,2108,0x0004,0x5B5B
23.279012128000002,2108,0x0005,0x5B5B
23.279012628000000,2108,0x0006,0x5B5B
23.279013127999999,2108,0x0007,0x5B5B
23.279013628000001,2108,0x0008,0x5B5B
23.279014128000000,2108,0x0009,0x5B5B
23.279014627999999,2108,0x000A,0x5B5B
23.279015128000001,2108,0x000B,0x5B5B
23.279015628000000,2108,0x000C,0x5B5B
23.279016127999999,2108,0x000D,0x5B5B
23.279016628000001,2108,0x000E,0x5B5B
23.279017128000000,2108,0x000F,0x5B5B
23.279017627999998,2108,0x0008,0x5B5B
23.279018128000001,2108,0x0009,0x5B5B
23.279018627999999,2108,0x000A,0x5B5B
23.279019128000002,2108,0x000B,0x5B5B
23.279019628000000,2108,0x000C,0x5B5B
23.279020127999999,2108,0x000D,0x5B5B
23.279020628000001,2108,0x000E,0x5B5B
23.279021128000000,2108,0x000F,0x5B5B
23.279021627999999,2108,0x0000,0x5B5B
23.279022128000001,2108,0x0000,0x5B5B
23.279022628000000,2108,0x0000,0x5B5B
23.279023127999999,2108,0x0000,0x5B5B
23.279023628000001,2108,0x0000,0x5B5B
23.279024128000000,2108,0x0000,0x5B5B
23.279024627999998,2108,0x0000,0x5B5B
23.279025128000001,2108,0x0000,0x5B5B
23.279025627999999,2108,0x0000,0x5B5B
23.279026128000002,2108,0x0000,0x5B5B
23.279026628000000,2108,0x0000,0x5B5B
23.279027127999999,2108,0x0000,0x5B5B
23.279027628000001,2108,0x0000,0x5B5B
23.279028128000000,2108,0x0000,0x5B5B
23.279028627999999,2108,0x0000,0x5B5B
23.279029128000001,2108,0x0000,0x5B5B
23.279029628000000,2108,0x0000,0x5B5B
23.279030127999999,2108,0x0000,0x5B5B
23.279030628000001,2108,0x0000,0x5B5B
23.279031128000000,2108,0x0000,0x5B5B
23.279031627999998,2108,0x0078,0x5B5B
23.279032128000001,2108,0x0078,0x5B5B
23.279032628000000,2108,0x000A,0x5B5B
23.279033127999998,2108,0x000A,0x5B5B
23.279033628000001,2108,0x000A,0x5B5B
23.279034127999999,2108,0x0000,0x5B5B
23